,revision_id,article_quality_est,article_name,country,geographic region,population,_merge
488,395521877.0,Stub,Julius Gregr,Czech Republic,,,left_only
489,395526568.0,Stub,Edvard Gregr,Czech Republic,,,left_only
490,672862914.0,Stub,Miroslav Poche,Czech Republic,,,left_only
491,673008587.0,Stub,Vojtěch Mynář,Czech Republic,,,left_only
492,704424304.0,Stub,Jan Malypetr,Czech Republic,,,left_only
493,705080136.0,Start,Emanuel Moravec,Czech Republic,,,left_only
494,707597623.0,Start,Vladimír Hučín,Czech Republic,,,left_only
495,709676840.0,Start,Pavla Topolánková,Czech Republic,,,left_only
496,711675761.0,Stub,Josef Barák,Czech Republic,,,left_only
497,712426548.0,Stub,Antonín Švehla,Czech Republic,,,left_only
498,713698544.0,Stub,Jakob Marzel Sternberger,Czech Republic,,,left_only
499,714174726.0,Stub,Alois Anderka,Czech Republic,,,left_only
500,715467197.0,Start,Ivan Dejmal,Czech Republic,,,left_only
501,715640391.0,Stub,Franz Macoun,Czech Republic,,,left_only
502,716711851.0,Stub,Karel Urbánek,Czech Republic,,,left_only
503,717429365.0,Start,Vladimír Klokočka,Czech Republic,,,left_only
504,720027362.0,Stub,Jaromír Jermář,Czech Republic,,,left_only
505,721736524.0,Start,Artur London,Czech Republic,,,left_only
506,722937211.0,Stub,František Sláma (politician),Czech Republic,,,left_only
507,723151837.0,Stub,Jan Kubice,Czech Republic,,,left_only
508,723207013.0,Stub,Kamil Jankovský,Czech Republic,,,left_only
509,724691268.0,Stub,Václav Vacek,Czech Republic,,,left_only
510,725362978.0,C,Čestmír Císař,Czech Republic,,,left_only
511,726666131.0,Stub,Luca Rovinalti,Czech Republic,,,left_only
512,726762194.0,Start,Kamil Krofta,Czech Republic,,,left_only
513,728506208.0,Stub,Milan Štěch,Czech Republic,,,left_only
514,729912438.0,Stub,Antonín Janoušek,Czech Republic,,,left_only
515,730146355.0,Stub,Bedřich Geminder,Czech Republic,,,left_only
516,735174171.0,Start,Karel Domin,Czech Republic,,,left_only
517,737562321.0,Start,Hubert Ripka,Czech Republic,,,left_only
518,741588720.0,Stub,Tomáš Eduard Šilinger,Czech Republic,,,left_only
519,741798984.0,Stub,Petr Janyška,Czech Republic,,,left_only
520,743423675.0,Stub,Jana Juřenčáková,Czech Republic,,,left_only
521,744448745.0,Stub,Jaromír Nečas,Czech Republic,,,left_only
522,744612257.0,Start,Siegfried Taub,Czech Republic,,,left_only
523,746707985.0,Stub,Záviš Kalandra,Czech Republic,,,left_only
524,749575931.0,Start,Alois Rašín,Czech Republic,,,left_only
525,749945936.0,Start,Bedřich Reicin,Czech Republic,,,left_only
526,751718674.0,Stub,Bernd Richter,Czech Republic,,,left_only
527,753045804.0,Stub,Kamil Kalina,Czech Republic,,,left_only
528,755428089.0,Stub,Richard Sacher,Czech Republic,,,left_only
529,756317863.0,Start,Václav Fischer,Czech Republic,,,left_only
530,757336278.0,Stub,Božena Viková-Kunětická,Czech Republic,,,left_only
531,758942647.0,Stub,Mikuláš of Hus,Czech Republic,,,left_only
532,759446334.0,GA,Gertruda Sekaninová-Čakrtová,Czech Republic,,,left_only
533,765838180.0,Stub,Petr Mlsna,Czech Republic,,,left_only
534,768047769.0,C,Antonín Cyril Stojan,Czech Republic,,,left_only
535,768676716.0,Stub,František Kubka,Czech Republic,,,left_only
536,773853256.0,Start,Josef Pfitzner,Czech Republic,,,left_only
537,774595725.0,C,Vladimír Franz,Czech Republic,,,left_only
538,776095794.0,Stub,Jan Stocklassa,Czech Republic,,,left_only
539,776197284.0,Start,Jaroslav Krejčí,Czech Republic,,,left_only
540,776338134.0,Stub,Libuše Benešová,Czech Republic,,,left_only
541,776338195.0,Start,Daniela Filipiová,Czech Republic,,,left_only
542,776487173.0,Start,Moses Porges von Portheim,Czech Republic,,,left_only
543,776508129.0,Start,Jan Kasl,Czech Republic,,,left_only
544,776509425.0,Stub,Jiří Kittner,Czech Republic,,,left_only
545,776513404.0,Stub,Miloslav Vlček,Czech Republic,,,left_only
546,776513552.0,Start,Ivo Svoboda (politician),Czech Republic,,,left_only
547,776513802.0,Stub,Hana Orgoníková,Czech Republic,,,left_only
548,776514175.0,Start,Pavel Dostál,Czech Republic,,,left_only
549,776751749.0,Stub,Jiří Lobkowicz,Czech Republic,,,left_only
550,777876483.0,Stub,Bohuslav Kokotek,Czech Republic,,,left_only
551,778095433.0,Stub,Alena Hanáková,Czech Republic,,,left_only
552,779417455.0,Stub,Irena Kočí,Czech Republic,,,left_only
553,779417738.0,Stub,Martin Netolický,Czech Republic,,,left_only
554,779418369.0,Start,David Rath,Czech Republic,,,left_only
555,779498276.0,Stub,Eva Nováková,Czech Republic,,,left_only
556,779500408.0,Stub,Vojtěch Adam,Czech Republic,,,left_only
557,779500749.0,Stub,Vlastimil Balín,Czech Republic,,,left_only
558,779500957.0,Stub,Jiří Dolejš,Czech Republic,,,left_only
559,779501010.0,Stub,Zuzka Bebarová-Rujbrová,Czech Republic,,,left_only
560,779501096.0,Start,Marie Stiborová,Czech Republic,,,left_only
561,779501161.0,Stub,Jiří Svoboda (politician),Czech Republic,,,left_only
562,779501194.0,Stub,Miloslava Vostrá,Czech Republic,,,left_only
563,779501654.0,Stub,Jiří Čeřovský,Czech Republic,,,left_only
564,779501783.0,Stub,Jan Korger,Czech Republic,,,left_only
565,779581127.0,C,Kateřina Jacques,Czech Republic,,,left_only
566,779839245.0,Stub,Tomáš Chalupa,Czech Republic,,,left_only
567,779839319.0,Stub,Pavel Blažek,Czech Republic,,,left_only
568,779839400.0,Stub,Aleš Řebíček,Czech Republic,,,left_only
569,779839455.0,Start,Ivan Langer,Czech Republic,,,left_only
570,779839492.0,Start,Jan Stráský,Czech Republic,,,left_only
571,779842639.0,Stub,Jan Chvojka,Czech Republic,,,left_only
572,779847262.0,Stub,Marie Benešová,Czech Republic,,,left_only
573,779847492.0,Stub,Juraj Chmiel,Czech Republic,,,left_only
574,779847531.0,Stub,Daniela Kovářová,Czech Republic,,,left_only
575,779847687.0,Stub,Rostislav Vondruška,Czech Republic,,,left_only
576,779847799.0,Start,Martin Štěpánek (actor),Czech Republic,,,left_only
577,779847837.0,Stub,Helena Třeštíková,Czech Republic,,,left_only
578,779847883.0,Stub,Milena Vicenová,Czech Republic,,,left_only
579,779848743.0,Stub,Jaroslav Bašta,Czech Republic,,,left_only
580,779849059.0,Stub,Josef Lux,Czech Republic,,,left_only
581,779849258.0,Stub,Miroslav Macek,Czech Republic,,,left_only
582,779849694.0,Stub,Ladislav Miko,Czech Republic,,,left_only
583,779849767.0,Stub,Džamila Stehlíková,Czech Republic,,,left_only
584,780051829.0,Stub,Jozef Moravčík,Czech Republic,,,left_only
585,780321961.0,Stub,Milan Uhde,Czech Republic,,,left_only
586,780534080.0,Stub,František Pitra,Czech Republic,,,left_only
587,780534267.0,Stub,Oldřich Černík,Czech Republic,,,left_only
588,780868492.0,Start,Otakar Motejl,Czech Republic,,,left_only
589,780887131.0,Stub,Ludwig Czech,Czech Republic,,,left_only
590,780921783.0,Start,Rudolf Beran,Czech Republic,,,left_only
591,782058966.0,Start,Victor Adler,Czech Republic,,,left_only
592,782384016.0,Stub,Emil Beier,Czech Republic,,,left_only
593,783065752.0,Stub,Bruno Kafka,Czech Republic,,,left_only
594,783711789.0,Start,Lucie Talmanová,Czech Republic,,,left_only
595,783737915.0,Stub,Martin Mejstřík,Czech Republic,,,left_only
596,784145485.0,Start,Vlastimil Tusar,Czech Republic,,,left_only
597,784826685.0,Start,Petr Bendl,Czech Republic,,,left_only
598,784826720.0,Start,Petr Gandalovič,Czech Republic,,,left_only
599,784968648.0,Start,Tomáš Vandas,Czech Republic,,,left_only
600,785085345.0,Stub,Robert Mayr-Harting,Czech Republic,,,left_only
601,785407597.0,C,Karel Havlíček Borovský,Czech Republic,,,left_only
602,786162238.0,Start,Jan Černý,Czech Republic,,,left_only
603,786399604.0,Stub,Josef Frank (politician),Czech Republic,,,left_only
604,786612217.0,Start,Philip Kinsky of Wchinitz and Tettau,Czech Republic,,,left_only
605,787952395.0,Stub,Luboš Dobrovský,Czech Republic,,,left_only
606,787952868.0,Stub,Bedřich Moldan,Czech Republic,,,left_only
607,788015952.0,Start,Martin Palouš,Czech Republic,,,left_only
608,788121309.0,Stub,Hermann Zwierzina,Czech Republic,,,left_only
609,788178766.0,Stub,Eduard Zeman,Czech Republic,,,left_only
610,788410657.0,Start,Richard Bienert,Czech Republic,,,left_only
611,789102318.0,Start,Václav Hampl,Czech Republic,,,left_only
612,789546047.0,Stub,Miroslav Grebeníček,Czech Republic,,,left_only
613,789546066.0,Stub,Vlasta Štěpová,Czech Republic,,,left_only
614,789546079.0,Start,Egon Lánský,Czech Republic,,,left_only
615,789546102.0,Stub,Antonín Prachař,Czech Republic,,,left_only
616,789546147.0,Stub,Milan Horálek,Czech Republic,,,left_only
617,790372008.0,C,Antonín Novotný,Czech Republic,,,left_only
618,790608148.0,Stub,Zuzana Brzobohatá,Czech Republic,,,left_only
619,790608180.0,Stub,Alena Palečková,Czech Republic,,,left_only
620,790608186.0,Start,Zuzana Roithová,Czech Republic,,,left_only
621,790838510.0,Stub,"List of MPs elected in the Czech legislative election, 2017",Czech Republic,,,left_only
622,791374581.0,Start,Martin Jahn,Czech Republic,,,left_only
623,792417439.0,Stub,Pavel Rychetský,Czech Republic,,,left_only
624,792476721.0,Start,Gustáv Slamečka,Czech Republic,,,left_only
625,793087579.0,Stub,Edvard Kožušník,Czech Republic,,,left_only
626,793642926.0,C,Jan Masaryk,Czech Republic,,,left_only
627,794146543.0,Stub,Jan Koukal,Czech Republic,,,left_only
628,794995687.0,Start,Pavel Bém,Czech Republic,,,left_only
629,795098385.0,C,"List of MPs elected in the Czech legislative election, 2013",Czech Republic,,,left_only
630,795377941.0,Stub,Vít Bárta,Czech Republic,,,left_only
631,795807571.0,C,Karl Kautsky,Czech Republic,,,left_only
632,795809115.0,Stub,Karl von Czyhlarz,Czech Republic,,,left_only
633,796253432.0,Stub,Václav Fresl,Czech Republic,,,left_only
634,796403608.0,Start,Josef Václav Frič,Czech Republic,,,left_only
635,796749458.0,C,Tomáš Zdechovský,Czech Republic,,,left_only
636,796751775.0,Stub,Andrea Češková,Czech Republic,,,left_only
637,796752629.0,Stub,Dana Kuchtová,Czech Republic,,,left_only
638,796825099.0,C,Rudolf Margolius,Czech Republic,,,left_only
639,797539957.0,C,František Ladislav Rieger,Czech Republic,,,left_only
640,797842545.0,Start,Petr Mach,Czech Republic,,,left_only
641,798490261.0,Start,Jaroslava Moserová,Czech Republic,,,left_only
642,798648973.0,Stub,Vávra Suk,Czech Republic,,,left_only
643,798686948.0,C,Vojtěch Náprstek,Czech Republic,,,left_only
644,798705619.0,Start,Lubomír Štrougal,Czech Republic,,,left_only
645,798796793.0,B,Jan Krejčí,Czech Republic,,,left_only
646,798944631.0,Stub,Radek John,Czech Republic,,,left_only
647,799301686.0,C,Jan Jesenius,Czech Republic,,,left_only
648,800555146.0,Start,Josef Ježek,Czech Republic,,,left_only
649,800754664.0,Start,Jana Bobošíková,Czech Republic,,,left_only
650,800883412.0,Start,Franz Anton von Kolowrat-Liebsteinsky,Czech Republic,,,left_only
651,800925236.0,C,Viktor Dyk,Czech Republic,,,left_only
652,800925518.0,C,Alois Jirásek,Czech Republic,,,left_only
653,801939668.0,Start,"Alexander von Mensdorff-Pouilly, Prince Dietrichstein von Nicolsburg",Czech Republic,,,left_only
654,801972898.0,Start,Adriana Krnáčová,Czech Republic,,,left_only
655,802013967.0,Stub,Ondřej Liška,Czech Republic,,,left_only
656,802054500.0,Stub,Marcel Chládek,Czech Republic,,,left_only
657,802055280.0,Stub,Miroslava Kopicová,Czech Republic,,,left_only
658,802060218.0,Stub,Milan Chovanec,Czech Republic,,,left_only
659,802060471.0,Stub,František Bublan,Czech Republic,,,left_only
660,802069244.0,C,Jiří Dienstbier Jr.,Czech Republic,,,left_only
661,802360196.0,C,Táňa Fischerová,Czech Republic,,,left_only
662,802365998.0,Stub,Václav Jehlička,Czech Republic,,,left_only
663,802416926.0,Stub,Viliam Široký,Czech Republic,,,left_only
664,802531379.0,Start,Miroslav Lidinský,Czech Republic,,,left_only
665,802834939.0,Start,Petr Cibulka,Czech Republic,,,left_only
666,802875800.0,Stub,Anna Šabatová,Czech Republic,,,left_only
667,803332354.0,C,Adolph Aloys von Braun,Czech Republic,,,left_only
668,803438779.0,Stub,Dana Bérová,Czech Republic,,,left_only
669,803658529.0,C,František Palacký,Czech Republic,,,left_only
670,803709959.0,Stub,Miroslav Kostelka,Czech Republic,,,left_only
671,803793256.0,Stub,Martin Barták,Czech Republic,,,left_only
672,803794383.0,Start,Karolína Peake,Czech Republic,,,left_only
673,803983301.0,Start,Petr Ježek,Czech Republic,,,left_only
674,804093764.0,Stub,František Udržal,Czech Republic,,,left_only
675,804569724.0,C,Václav Havel,Czech Republic,,,left_only
676,804582256.0,Stub,Pavel Fischer,Czech Republic,,,left_only
677,804591494.0,Stub,Eva Tylová,Czech Republic,,,left_only
678,804715205.0,Stub,Dana Jurásková,Czech Republic,,,left_only
679,804715467.0,Stub,Svatopluk Němeček,Czech Republic,,,left_only
680,804820949.0,Stub,Richard Brabec,Czech Republic,,,left_only
681,804868436.0,C,Jan Fischer (politician),Czech Republic,,,left_only
682,804869147.0,Stub,Martin Pecina,Czech Republic,,,left_only
683,804871394.0,Stub,Vlasta Parkanová,Czech Republic,,,left_only
684,804879673.0,Start,Martin Bursík,Czech Republic,,,left_only
685,805037426.0,Start,Lubomír Zaorálek,Czech Republic,,,left_only
686,805084705.0,C,Radola Gajda,Czech Republic,,,left_only
687,805176779.0,C,Karel Schwarzenberg,Czech Republic,,,left_only
688,805179298.0,Stub,Vlasta Svobodová,Czech Republic,,,left_only
689,805352758.0,Start,Ondřej Přikryl,Czech Republic,,,left_only
690,805439919.0,C,Milada Horáková,Czech Republic,,,left_only
691,805824502.0,Stub,Martin Holcát,Czech Republic,,,left_only
692,805946007.0,Stub,Alena Dernerová,Czech Republic,,,left_only
693,806049453.0,Stub,Marian Jurečka,Czech Republic,,,left_only
694,806085100.0,Stub,Pavel Bělobrádek,Czech Republic,,,left_only
695,806231200.0,Stub,Dan Ťok,Czech Republic,,,left_only
696,806490518.0,Stub,Jiří Dienstbier,Czech Republic,,,left_only
697,806504904.0,C,Rudolf Slánský,Czech Republic,,,left_only
698,806537585.0,C,Alexandr Vondra,Czech Republic,,,left_only
699,806538241.0,Stub,Jaroslav Šedivý,Czech Republic,,,left_only
700,806538320.0,C,Cyril Svoboda,Czech Republic,,,left_only
701,806539480.0,Stub,Jan Kohout,Czech Republic,,,left_only
702,806558617.0,Stub,Miloš Vystrčil,Czech Republic,,,left_only
703,806566913.0,C,Alois Eliáš,Czech Republic,,,left_only
704,806569308.0,Stub,Jan Skopeček (politician),Czech Republic,,,left_only
705,806586185.0,Stub,Miloslav Ludvík,Czech Republic,,,left_only
706,806636602.0,Stub,Martin Kupka,Czech Republic,,,left_only
707,806650264.0,Stub,Matěj Stropnický,Czech Republic,,,left_only
708,806669645.0,Stub,Petr Šimerka,Czech Republic,,,left_only
709,806669709.0,Stub,Jaromír Drábek,Czech Republic,,,left_only
710,806669752.0,Stub,Ludmila Müllerová,Czech Republic,,,left_only
711,806672899.0,Stub,Jan Veleba (politician),Czech Republic,,,left_only
712,806673245.0,Stub,František Ringo Čech,Czech Republic,,,left_only
713,806673585.0,Stub,Michaela Marksová,Czech Republic,,,left_only
714,806708361.0,Stub,Robert Pelikán,Czech Republic,,,left_only
715,806708532.0,Stub,Karla Šlechtová,Czech Republic,,,left_only
716,806720477.0,C,Stanislav Gross,Czech Republic,,,left_only
717,806729653.0,Stub,Martin Stropnický,Czech Republic,,,left_only
718,806751902.0,Stub,Leoš Heger,Czech Republic,,,left_only
719,806850638.0,Stub,Bohuslav Svoboda,Czech Republic,,,left_only
720,806876791.0,Stub,Miroslava Němcová,Czech Republic,,,left_only
721,806900987.0,Stub,Zbyněk Stanjura,Czech Republic,,,left_only
722,806988445.0,Stub,Drahomíra Miklošová,Czech Republic,,,left_only
723,806991412.0,C,Václav Klaus Jr.,Czech Republic,,,left_only
724,807058182.0,Start,Dominik Feri,Czech Republic,,,left_only
725,807102237.0,Stub,Alexandra Udženija,Czech Republic,,,left_only
726,807333095.0,Stub,Ivan Pilný,Czech Republic,,,left_only
727,807334610.0,Stub,Marta Semelová,Czech Republic,,,left_only
728,807334657.0,Start,Daniel Herman,Czech Republic,,,left_only
729,807353609.0,Stub,Jan Hamáček,Czech Republic,,,left_only
730,807358143.0,C,Michal Horáček,Czech Republic,,,left_only
731,807382193.0,C,Václav Klaus,Czech Republic,,,left_only
732,807394304.0,Stub,Martin Kuba,Czech Republic,,,left_only
733,807394725.0,Stub,Martin Říman,Czech Republic,,,left_only
734,807399097.0,Stub,Kateřina Valachová,Czech Republic,,,left_only
735,807415625.0,Stub,Vladimír Tošovský,Czech Republic,,,left_only
736,807416099.0,Start,Pavel Svoboda,Czech Republic,,,left_only
737,807420515.0,Start,Petr Fiala,Czech Republic,,,left_only
738,807462107.0,C,Vladimír Špidla,Czech Republic,,,left_only
9359,566504165.0,Stub,Timoteo Menéndez,Salvadoran,,,left_only
9360,679294949.0,Stub,Joaquín Escolán y Balibrera,Salvadoran,,,left_only
9361,705353491.0,Stub,Fermín Palacios,Salvadoran,,,left_only
9362,705353565.0,Stub,Eugenio Aguilar,Salvadoran,,,left_only
9363,705353584.0,Stub,Tomás Medina,Salvadoran,,,left_only
9364,705353647.0,Stub,Ramón Rodríguez (Salvadoran politician),Salvadoran,,,left_only
9365,705353678.0,Stub,Vicente Gómez,Salvadoran,,,left_only
9366,705353843.0,Stub,Lorenzo Zepeda,Salvadoran,,,left_only
9367,705353896.0,Stub,José María Peralta,Salvadoran,,,left_only
9368,705353975.0,Stub,Francisco Menéndez,Salvadoran,,,left_only
9369,705354095.0,Stub,Pedro José Escalón,Salvadoran,,,left_only
9370,705354112.0,Stub,Fernando Figueroa,Salvadoran,,,left_only
9371,705354212.0,Stub,Carlos Meléndez (politician),Salvadoran,,,left_only
9372,705385310.0,Stub,Fabio Castillo Figueroa,Salvadoran,,,left_only
9373,706769596.0,Stub,Ricardo Montenegro,Salvadoran,,,left_only
9374,707399758.0,Start,Rafael Campo,Salvadoran,,,left_only
9375,707400213.0,Stub,Miguel Santín del Castillo,Salvadoran,,,left_only
9376,707403482.0,Stub,Osmín Aguirre y Salinas,Salvadoran,,,left_only
9377,707404888.0,Stub,Eusebio Rodolfo Cordón Cea,Salvadoran,,,left_only
9378,707519272.0,Stub,Juan José Guzmán,Salvadoran,,,left_only
9379,708089470.0,Stub,Juan José Cañas,Salvadoran,,,left_only
9380,710543364.0,Start,José Gregorio Salazar,Salvadoran,,,left_only
9381,710555824.0,Start,Diego Vigil Cocaña,Salvadoran,,,left_only
9382,710578840.0,Start,Nicolás Espinoza,Salvadoran,,,left_only
9383,710677703.0,Start,Pedro Barriere,Salvadoran,,,left_only
9384,710828020.0,Start,Joaquín de San Martín,Salvadoran,,,left_only
9385,714256648.0,Stub,José Félix Quirós,Salvadoran,,,left_only
9386,717903674.0,Stub,Edgardo Carlos Suárez Mallagray,Salvadoran,,,left_only
9387,720419598.0,Stub,Aníbal Portillo,Salvadoran,,,left_only
9388,720478176.0,Stub,José Francisco Valiente,Salvadoran,,,left_only
9389,720623176.0,Stub,Diego de Holguín,Salvadoran,,,left_only
9390,720633452.0,Start,Sigfrido Reyes Morales,Salvadoran,,,left_only
9391,723277343.0,Start,Manuel Enrique Araujo,Salvadoran,,,left_only
9392,730854147.0,Stub,Joaquín Eufrasio Guzmán,Salvadoran,,,left_only
9393,730864227.0,Stub,Francisco Malespín,Salvadoran,,,left_only
9394,733791467.0,Start,Rodrigo Ávila,Salvadoran,,,left_only
9395,736491718.0,Start,Mario Aguiñada Carranza,Salvadoran,,,left_only
9396,738362225.0,Start,David Rodríguez Rivera,Salvadoran,,,left_only
9397,741190933.0,Stub,Carlos Ezeta,Salvadoran,,,left_only
9398,742279612.0,Stub,Andrés Ignacio Menéndez,Salvadoran,,,left_only
9399,743252984.0,Start,Gerardo Barrios,Salvadoran,,,left_only
9400,748418081.0,Start,Rubén Zamora,Salvadoran,,,left_only
9401,749973666.0,Start,Antonio José Cañas,Salvadoran,,,left_only
9402,749976455.0,Stub,José Atilio Benítez Parada,Salvadoran,,,left_only
9403,757618572.0,Start,Violeta Menjívar,Salvadoran,,,left_only
9404,757977772.0,Stub,Santiago González (politician),Salvadoran,,,left_only
9405,758287489.0,Start,Rosa Amelia Guzmán,Salvadoran,,,left_only
9406,758288293.0,C,Gloria Salguero Gross,Salvadoran,,,left_only
9407,765528693.0,Start,David Joaquín Guzmán,Salvadoran,,,left_only
9408,766757526.0,Start,Francisco Gómez (El Salvador President),Salvadoran,,,left_only
9409,769575358.0,Stub,Francisco Dueñas,Salvadoran,,,left_only
9410,770682721.0,Start,Rafael Zaldívar,Salvadoran,,,left_only
9411,774857245.0,Stub,Óscar Ortiz (El Salvador),Salvadoran,,,left_only
9412,777601256.0,Start,José Damián Villacorta,Salvadoran,,,left_only
9413,777602660.0,Stub,José Escolástico Marín,Salvadoran,,,left_only
9414,777612972.0,Start,José María Cornejo,Salvadoran,,,left_only
9415,777613551.0,Stub,José María Peralta Lagos,Salvadoran,,,left_only
9416,777613737.0,Start,José María San Martín,Salvadoran,,,left_only
9417,777613786.0,Start,José María Silva,Salvadoran,,,left_only
9418,777685186.0,Start,Juan Manuel Rodríguez,Salvadoran,,,left_only
9419,777698313.0,Start,Juan Vicente Villacorta Díaz,Salvadoran,,,left_only
9420,778564487.0,C,Juan José Daboub,Salvadoran,,,left_only
9421,779894617.0,Stub,José Arturo Vásquez Machado,Salvadoran,,,left_only
9422,779931580.0,Start,Andrés del Valle,Salvadoran,,,left_only
9423,780552804.0,Start,Lilian Mercedes Letona,Salvadoran,,,left_only
9424,780701356.0,Stub,Carlos Quintanilla Schmidt,Salvadoran,,,left_only
9425,781102914.0,Stub,Enrique Álvarez Córdova,Salvadoran,,,left_only
9426,782520448.0,Stub,Arturo Araujo,Salvadoran,,,left_only
9427,782652818.0,Start,Rubén Alonso Rosales,Salvadoran,,,left_only
9428,783472679.0,Start,Mariano Prado,Salvadoran,,,left_only
9429,784506431.0,Stub,Pío Romero Bosque,Salvadoran,,,left_only
9430,785229840.0,Stub,Alfonso Quiñónez Molina,Salvadoran,,,left_only
9431,786063735.0,Stub,Jorge Meléndez,Salvadoran,,,left_only
9432,786068145.0,Stub,Carmen Elena Figueroa,Salvadoran,,,left_only
9433,786492357.0,Stub,Felipe Codallos,Salvadoran,,,left_only
9434,786492366.0,Stub,Tomás Regalado (Salvadoran politician),Salvadoran,,,left_only
9435,788264133.0,GA,Doroteo Vasconcelos,Salvadoran,,,left_only
9436,788447923.0,C,Alfredo Cristiani,Salvadoran,,,left_only
9437,791821555.0,Start,Óscar Osorio,Salvadoran,,,left_only
9438,791907279.0,Stub,Lourdes Rodríguez de Flores,Salvadoran,,,left_only
9439,791907345.0,Stub,Álvaro Magaña,Salvadoran,,,left_only
9440,791911972.0,B,Salvador Castaneda Castro,Salvadoran,,,left_only
9441,792385744.0,Start,Julio Adalberto Rivera Carballo,Salvadoran,,,left_only
9442,793184472.0,Start,Carlos Salazar Castro,Salvadoran,,,left_only
9443,793642670.0,C,Maximiliano Hernández Martínez,Salvadoran,,,left_only
9444,794052085.0,Stub,Reynaldo Galindo Pohl,Salvadoran,,,left_only
9445,794459622.0,Start,Ciro Cruz Zepeda,Salvadoran,,,left_only
9446,794561394.0,Start,Ana Ligia Mixco Sol de Saca,Salvadoran,,,left_only
9447,794988963.0,Start,Carlos Humberto Romero,Salvadoran,,,left_only
9448,795573859.0,Start,Ana María,Salvadoran,,,left_only
9449,796131598.0,Stub,Arturo Armando Molina,Salvadoran,,,left_only
9450,797151261.0,C,Carlos Eugenio Vides Casanova,Salvadoran,,,left_only
9451,798306895.0,Stub,Miguel Álvarez Castro,Salvadoran,,,left_only
9452,798460321.0,Start,José Guillermo García,Salvadoran,,,left_only
9453,798896224.0,Start,Marisol Argueta de Barillas,Salvadoran,,,left_only
9454,799918049.0,Stub,René Emilio Ponce,Salvadoran,,,left_only
9455,800478736.0,Stub,Guillermo Ungo,Salvadoran,,,left_only
9456,802075785.0,C,Antonio Saca,Salvadoran,,,left_only
9457,802944082.0,Start,Hugo Lindo,Salvadoran,,,left_only
9458,803674894.0,Start,Schafik Handal,Salvadoran,,,left_only
9459,803927035.0,C,Ana Vilma de Escobar,Salvadoran,,,left_only
9460,804134156.0,Start,Juan Lindo,Salvadoran,,,left_only
9461,804528819.0,GA,Mauricio Funes,Salvadoran,,,left_only
9462,804538892.0,Start,Vice President of El Salvador,Salvadoran,,,left_only
9463,804606321.0,C,Francisco Flores Pérez,Salvadoran,,,left_only
9464,804809409.0,C,José Napoleón Duarte,Salvadoran,,,left_only
9465,804991452.0,Start,Armando Calderón Sol,Salvadoran,,,left_only
9466,805353238.0,Start,Fidel Sánchez Hernández,Salvadoran,,,left_only
9467,805474907.0,Start,Rafael Antonio Gutiérrez,Salvadoran,,,left_only
9468,806010405.0,Start,Irma Dimas,Salvadoran,,,left_only
9469,806057984.0,Start,Manuel José Arce,Salvadoran,,,left_only
9470,806101149.0,Stub,President of El Salvador,Salvadoran,,,left_only
9471,806731535.0,C,José Matías Delgado,Salvadoran,,,left_only
9472,806958982.0,B,Vanda Pignato,Salvadoran,,,left_only
9473,807175924.0,Stub,José María Lemus,Salvadoran,,,left_only
9474,807210786.0,C,Salvador Sánchez Cerén,Salvadoran,,,left_only
9475,574571582.0,Stub,Gervas Clay,Rhodesian,,,left_only
9476,669387487.0,Start,Harry Davies (politician),Rhodesian,,,left_only
9477,682576258.0,Start,William Fairbridge,Rhodesian,,,left_only
9478,711506001.0,Stub,Washington Malianga,Rhodesian,,,left_only
9479,712233907.0,Stub,Ronald Snapper,Rhodesian,,,left_only
9480,747497059.0,Stub,Gerald B. Clarke,Rhodesian,,,left_only
9481,763530115.0,Stub,Francis Chaplin,Rhodesian,,,left_only
9482,763533706.0,Start,Roger Hawkins (politician),Rhodesian,,,left_only
9483,763540238.0,Stub,George Mitchell (Rhodesia),Rhodesian,,,left_only
9484,763870152.0,Stub,John Landau,Rhodesian,,,left_only
9485,763951988.0,Start,Byron Hove,Rhodesian,,,left_only
9486,766847256.0,Stub,Hilary Squires,Rhodesian,,,left_only
9487,774837666.0,Stub,Cecil Dennistoun Burney,Rhodesian,,,left_only
9488,780260926.0,Stub,Mark Partridge,Rhodesian,,,left_only
9489,782602484.0,Start,Prime Minister of Rhodesia,Rhodesian,,,left_only
9490,783150296.0,Start,Leo Cardwell Ross,Rhodesian,,,left_only
9491,783150589.0,C,Josiah Gondo,Rhodesian,,,left_only
9492,783301534.0,B,Dunduzu Chisiza,Rhodesian,,,left_only
9493,784562559.0,C,Allan Ross Welsh,Rhodesian,,,left_only
9494,784757829.0,Start,John Moore Caldicott,Rhodesian,,,left_only
9495,784758963.0,Start,John Ralph Beaumont,Rhodesian,,,left_only
9496,784769027.0,Start,Leonard Ray Morgan,Rhodesian,,,left_only
9497,784826325.0,Start,Raleigh Grey,Rhodesian,,,left_only
9498,784830601.0,Start,Robert Clarkson Tredgold,Rhodesian,,,left_only
9499,784831407.0,B,Robert James Hudson,Rhodesian,,,left_only
9500,784870217.0,FA,William Harper (Rhodesian politician),Rhodesian,,,left_only
9501,784974615.0,GA,Rowan Cronjé,Rhodesian,,,left_only
9502,786601705.0,Start,Edgar Whitehead,Rhodesian,,,left_only
9503,786659504.0,Start,Henry Hamilton Beamish,Rhodesian,,,left_only
9504,787105083.0,Start,Lionel Cripps,Rhodesian,,,left_only
9505,787147677.0,Start,A. R. Colquhoun,Rhodesian,,,left_only
9506,787854502.0,Stub,John McChlery,Rhodesian,,,left_only
9507,789545107.0,Stub,Jeremiah Chirau,Rhodesian,,,left_only
9508,789689591.0,C,Winston Field,Rhodesian,,,left_only
9509,790010191.0,Start,Howard Unwin Moffat,Rhodesian,,,left_only
9510,794528943.0,Start,Ken Flower,Rhodesian,,,left_only
9511,795348776.0,Stub,Andrew Skeen (Rhodesia),Rhodesian,,,left_only
9512,795369277.0,FA,Hugh Beadle,Rhodesian,,,left_only
9513,795483112.0,Start,Hugh Marshall Hole,Rhodesian,,,left_only
9514,797314307.0,FA,Roy Welensky,Rhodesian,,,left_only
9515,797407618.0,C,Abel Muzorewa,Rhodesian,,,left_only
9516,797546082.0,Start,Signatories of Rhodesia's Unilateral Declaration of Independence,Rhodesian,,,left_only
9517,798384751.0,Stub,Jack Howman,Rhodesian,,,left_only
9518,798492985.0,Start,Ethel Tawse Jollie,Rhodesian,,,left_only
9519,799332728.0,Start,Alan David Butler,Rhodesian,,,left_only
9520,799548505.0,Start,Jack William Pithey,Rhodesian,,,left_only
9521,799548556.0,C,President of Rhodesia,Rhodesian,,,left_only
9522,799608339.0,C,Denis Walker,Rhodesian,,,left_only
9523,800407772.0,Stub,James Cowden,Rhodesian,,,left_only
9524,800416336.0,C,Herbert Chitepo,Rhodesian,,,left_only
9525,800479460.0,Start,Thomas Nangle,Rhodesian,,,left_only
9526,800986051.0,C,Timothy Stamps,Rhodesian,,,left_only
9527,801716406.0,Start,Sam Levy,Rhodesian,,,left_only
9528,801718040.0,C,Humphrey Gibbs,Rhodesian,,,left_only
9529,801795215.0,FA,P. K. van der Byl,Rhodesian,,,left_only
9530,801876681.0,C,Clifford Dupont,Rhodesian,,,left_only
9531,802151785.0,GA,Lance Smith (politician),Rhodesian,,,left_only
9532,802930161.0,B,Desmond Lardner-Burke,Rhodesian,,,left_only
9533,803620246.0,C,John Bredenkamp,Rhodesian,,,left_only
9534,804040348.0,Start,Frank Rhodes (British Army officer),Rhodesian,,,left_only
9535,804101492.0,FA,Ernest Lucas Guest,Rhodesian,,,left_only
9536,804650400.0,Start,Godfrey Chidyausiku,Rhodesian,,,left_only
9537,804743937.0,GA,Richard Hope Hall,Rhodesian,,,left_only
9538,804806363.0,Start,Crosaire,Rhodesian,,,left_only
9539,804877226.0,Start,Gaston Thornicroft,Rhodesian,,,left_only
9540,805372073.0,C,"James Graham, 7th Duke of Montrose",Rhodesian,,,left_only
9541,805960143.0,C,Ahrn Palley,Rhodesian,,,left_only
9542,806153816.0,GA,Allan Savory,Rhodesian,,,left_only
9543,806532780.0,FA,Ian Smith,Rhodesian,,,left_only
9544,807097467.0,C,Garfield Todd,Rhodesian,,,left_only
9545,807159903.0,C,Douglas Hamilton Ritchie,Rhodesian,,,left_only
9546,807160082.0,C,Godfrey Huggins,Rhodesian,,,left_only
9547,807283218.0,C,George Hackwill,Rhodesian,,,left_only
9548,807425613.0,Start,Henry Everard,Rhodesian,,,left_only
9549,807425747.0,C,John Wrathall,Rhodesian,,,left_only
10344,592289232.0,Stub,Mavua Mudima,"Congo, Dem. Rep. of",,,left_only
10345,663088604.0,Stub,List of provincial governors of the Democratic Republic of the Congo,"Congo, Dem. Rep. of",,,left_only
10346,705390654.0,Stub,Eugène Diomi Ndongala Nzomambu,"Congo, Dem. Rep. of",,,left_only
10347,705707214.0,Stub,Théophile Mbemba Fundu,"Congo, Dem. Rep. of",,,left_only
10348,705723187.0,Stub,Ntumba Luaba,"Congo, Dem. Rep. of",,,left_only
10349,705723441.0,Stub,Myra Ndjoku Manianga,"Congo, Dem. Rep. of",,,left_only
10350,708009445.0,Start,André-Philippe Futa,"Congo, Dem. Rep. of",,,left_only
10351,708358969.0,Stub,Gérard Gifuza,"Congo, Dem. Rep. of",,,left_only
10352,708359204.0,Stub,Koloso Sumaili,"Congo, Dem. Rep. of",,,left_only
10353,713195149.0,Stub,Célestin Cibalonza Byaterana,"Congo, Dem. Rep. of",,,left_only
10354,713198718.0,Stub,Emmanuel Leku Apuobo,"Congo, Dem. Rep. of",,,left_only
10355,713583472.0,Stub,Kisula Ngoy,"Congo, Dem. Rep. of",,,left_only
10356,714150941.0,Stub,Jean Collins Musonda Kalusambo,"Congo, Dem. Rep. of",,,left_only
10357,714220527.0,Start,Denis Kalume Numbi,"Congo, Dem. Rep. of",,,left_only
10358,718961623.0,Stub,Delphin Kyubwa,"Congo, Dem. Rep. of",,,left_only
10359,720858135.0,Start,Sylvain Ngabu Chumbu,"Congo, Dem. Rep. of",,,left_only
10360,721206007.0,Stub,José Endundo Bononge,"Congo, Dem. Rep. of",,,left_only
10361,723913158.0,Stub,Richard Muyej Mangez,"Congo, Dem. Rep. of",,,left_only
10362,725141090.0,Stub,Sébastien Impeto Pengo,"Congo, Dem. Rep. of",,,left_only
10363,733051797.0,Stub,Clovis Kabongo Malemba,"Congo, Dem. Rep. of",,,left_only
10364,737533634.0,Stub,François Nicéphore Kakese,"Congo, Dem. Rep. of",,,left_only
10365,742707920.0,Stub,Raymond Ramazani Baya,"Congo, Dem. Rep. of",,,left_only
10366,743061455.0,Stub,Mulumba Lukoji,"Congo, Dem. Rep. of",,,left_only
10367,749397818.0,Stub,Alexandre Luba Ntambo,"Congo, Dem. Rep. of",,,left_only
10368,749419078.0,Start,Oscar Kashala,"Congo, Dem. Rep. of",,,left_only
10369,750725157.0,Stub,Jean-Marie Runiga Lugerero,"Congo, Dem. Rep. of",,,left_only
10370,751152656.0,C,Christian Malanga,"Congo, Dem. Rep. of",,,left_only
10371,751361476.0,Stub,Faustin Birindwa,"Congo, Dem. Rep. of",,,left_only
10372,753704394.0,Stub,Chikez Diemu,"Congo, Dem. Rep. of",,,left_only
10373,754344309.0,Start,Minister of Foreign Affairs (Democratic Republic of the Congo),"Congo, Dem. Rep. of",,,left_only
10374,756510063.0,Stub,Edouard Kiove Kola,"Congo, Dem. Rep. of",,,left_only
10375,757821887.0,Stub,Daniel Mukoko Samba,"Congo, Dem. Rep. of",,,left_only
10376,763323939.0,Stub,Dolly Makambo Nawezi,"Congo, Dem. Rep. of",,,left_only
10377,763943185.0,Stub,Germain Kambinga,"Congo, Dem. Rep. of",,,left_only
10378,764771546.0,Stub,Richard Ndambu Wolang,"Congo, Dem. Rep. of",,,left_only
10379,764771615.0,C,Simon Mbatshi Batshia,"Congo, Dem. Rep. of",,,left_only
10380,764771652.0,Stub,José Makila Sumanda,"Congo, Dem. Rep. of",,,left_only
10381,764771697.0,Stub,Trésor Kapuku Ngoy,"Congo, Dem. Rep. of",,,left_only
10382,764791046.0,Stub,Charles Mwando Simba,"Congo, Dem. Rep. of",,,left_only
10383,765570258.0,Start,Jules Fontaine Sambwa,"Congo, Dem. Rep. of",,,left_only
10384,765799138.0,Stub,Mabi Mulumba,"Congo, Dem. Rep. of",,,left_only
10385,765799213.0,Stub,N'Singa Udjuu,"Congo, Dem. Rep. of",,,left_only
10386,765834828.0,Stub,Sultani Makenga,"Congo, Dem. Rep. of",,,left_only
10387,765871730.0,Stub,Josué Alex Mukendi,"Congo, Dem. Rep. of",,,left_only
10388,765923988.0,Start,Raymond Tshibanda,"Congo, Dem. Rep. of",,,left_only
10389,765924619.0,Start,Banza Mukalay,"Congo, Dem. Rep. of",,,left_only
10390,765925554.0,Stub,Évariste Boshab,"Congo, Dem. Rep. of",,,left_only
10391,766647953.0,Stub,Marie-Ange Mushobekwa,"Congo, Dem. Rep. of",,,left_only
10392,768228272.0,Stub,Jean Andeka,"Congo, Dem. Rep. of",,,left_only
10393,768670214.0,C,Aimé Ngoy Mukena,"Congo, Dem. Rep. of",,,left_only
10394,772045942.0,Stub,Aimé Boji,"Congo, Dem. Rep. of",,,left_only
10395,772317052.0,Start,Léonard Mulamba,"Congo, Dem. Rep. of",,,left_only
10396,772818039.0,C,Noel K Tshiani Muadiamvita,"Congo, Dem. Rep. of",,,left_only
10397,774263410.0,Start,Kasongo Ilunga,"Congo, Dem. Rep. of",,,left_only
10398,774679596.0,Start,Pierre Lumbi Okongo,"Congo, Dem. Rep. of",,,left_only
10399,776372644.0,Stub,Jeannette Kavira Mapera,"Congo, Dem. Rep. of",,,left_only
10400,780035740.0,Stub,Vice-Presidents of the Democratic Republic of the Congo,"Congo, Dem. Rep. of",,,left_only
10401,780757242.0,Start,Odilon Kafitwe wa pa Bowa,"Congo, Dem. Rep. of",,,left_only
10402,782350026.0,Start,Louis Alphonse Koyagialo,"Congo, Dem. Rep. of",,,left_only
10403,782618365.0,Start,Luzolo Bambi Lessa,"Congo, Dem. Rep. of",,,left_only
10404,782825984.0,Start,Jonas Mukamba Kadiata Nzemba,"Congo, Dem. Rep. of",,,left_only
10405,783354232.0,Stub,Arthur Z'ahidi Ngoma,"Congo, Dem. Rep. of",,,left_only
10406,784182810.0,Start,Emile Mota,"Congo, Dem. Rep. of",,,left_only
10407,786579616.0,Stub,Lambert Mende Omalanga,"Congo, Dem. Rep. of",,,left_only
10408,786751925.0,Start,Justine Kasa-Vubu,"Congo, Dem. Rep. of",,,left_only
10409,786874201.0,C,Cléophas Kamitatu,"Congo, Dem. Rep. of",,,left_only
10410,787378464.0,Start,Jean Nguza Karl-i-Bond,"Congo, Dem. Rep. of",,,left_only
10411,787602247.0,Stub,Adam Bombolé,"Congo, Dem. Rep. of",,,left_only
10412,787715913.0,Stub,Adolphe Lumanu,"Congo, Dem. Rep. of",,,left_only
10413,787716080.0,Start,Adolphe Muzito cabinet,"Congo, Dem. Rep. of",,,left_only
10414,787797355.0,Start,Justin Marie Bomboko,"Congo, Dem. Rep. of",,,left_only
10415,787978838.0,Stub,Christian Atoki Ileka,"Congo, Dem. Rep. of",,,left_only
10416,788024194.0,C,Paul Joseph Mukungubila Mutombo,"Congo, Dem. Rep. of",,,left_only
10417,788054013.0,Stub,Ferdinand Essandja,"Congo, Dem. Rep. of",,,left_only
10418,788465848.0,Start,Martin Kabwelulu,"Congo, Dem. Rep. of",,,left_only
10419,789437538.0,Start,Antipas Mbusa,"Congo, Dem. Rep. of",,,left_only
10420,789487250.0,Start,Laurent Mbariko,"Congo, Dem. Rep. of",,,left_only
10421,789898887.0,Start,Union of Congolese Patriots,"Congo, Dem. Rep. of",,,left_only
10422,790305725.0,Start,Azarias Ruberwa,"Congo, Dem. Rep. of",,,left_only
10423,790586686.0,Start,Banyingela Kasonga,"Congo, Dem. Rep. of",,,left_only
10424,790738130.0,Stub,Anicet Kashamura,"Congo, Dem. Rep. of",,,left_only
10425,790942655.0,Start,Sophie Kanza,"Congo, Dem. Rep. of",,,left_only
10426,791074307.0,Stub,Bertrand Bisimwa,"Congo, Dem. Rep. of",,,left_only
10427,792037043.0,Start,Charles Kisolokele,"Congo, Dem. Rep. of",,,left_only
10428,793411567.0,Start,Antoine Ghonda,"Congo, Dem. Rep. of",,,left_only
10429,794072384.0,Start,Abdoulaye Yerodia Ndombasi,"Congo, Dem. Rep. of",,,left_only
10430,794134715.0,Start,Paul Bolya,"Congo, Dem. Rep. of",,,left_only
10431,796099032.0,C,Freddy Matungulu,"Congo, Dem. Rep. of",,,left_only
10432,797348410.0,C,Emmanuel Dungia,"Congo, Dem. Rep. of",,,left_only
10433,797435100.0,Stub,Munga Mibindo,"Congo, Dem. Rep. of",,,left_only
10434,797446004.0,Start,Eric Lenge,"Congo, Dem. Rep. of",,,left_only
10435,798185563.0,Stub,Guy-Patrice Lumumba,"Congo, Dem. Rep. of",,,left_only
10436,798455633.0,GA,Joseph Kabila,"Congo, Dem. Rep. of",,,left_only
10437,798489264.0,Stub,Kavidi Wivine N'Landu,"Congo, Dem. Rep. of",,,left_only
10438,798859637.0,Stub,Jeannot Bemba Saolona,"Congo, Dem. Rep. of",,,left_only
10439,798948484.0,C,Medard Mulangala,"Congo, Dem. Rep. of",,,left_only
10440,799044574.0,Stub,Mpinga Kasenda,"Congo, Dem. Rep. of",,,left_only
10441,799328311.0,Start,Fernand Kazadi,"Congo, Dem. Rep. of",,,left_only
10442,799328685.0,Stub,Antoine-Roger Bolamba,"Congo, Dem. Rep. of",,,left_only
10443,799331221.0,Start,Odette Babandoa Etoa,"Congo, Dem. Rep. of",,,left_only
10444,799533831.0,Start,Monique Mukuna Mutombo,"Congo, Dem. Rep. of",,,left_only
10445,799913697.0,Start,Ekila Liyonda,"Congo, Dem. Rep. of",,,left_only
10446,799930121.0,Start,Augustin Matata Ponyo,"Congo, Dem. Rep. of",,,left_only
10447,800087105.0,Stub,Nkulu Mitumba Kilombo,"Congo, Dem. Rep. of",,,left_only
10448,800298783.0,C,Laurent Nkunda,"Congo, Dem. Rep. of",,,left_only
10449,800537411.0,Start,Christophe Gbenye,"Congo, Dem. Rep. of",,,left_only
10450,801107444.0,Start,Minister of Defence (Democratic Republic of the Congo),"Congo, Dem. Rep. of",,,left_only
10451,801110165.0,C,Moïse Tshombe,"Congo, Dem. Rep. of",,,left_only
10452,801112469.0,Start,Godefroid Munongo,"Congo, Dem. Rep. of",,,left_only
10453,801348128.0,GA,Thomas Kanza,"Congo, Dem. Rep. of",,,left_only
10454,801770255.0,Start,Joseph Okito,"Congo, Dem. Rep. of",,,left_only
10455,801936063.0,C,President of the Democratic Republic of the Congo,"Congo, Dem. Rep. of",,,left_only
10456,801968131.0,Start,Alexis Thambwe Mwamba,"Congo, Dem. Rep. of",,,left_only
10457,802154801.0,C,Alphonse Songolo,"Congo, Dem. Rep. of",,,left_only
10458,802197658.0,Start,List of heads of state of the Democratic Republic of the Congo,"Congo, Dem. Rep. of",,,left_only
10459,802411491.0,Start,Jules Mutebusi,"Congo, Dem. Rep. of",,,left_only
10460,803335436.0,C,Pierre Mulele,"Congo, Dem. Rep. of",,,left_only
10461,803421580.0,C,Kasongo Munganga,"Congo, Dem. Rep. of",,,left_only
10462,804197745.0,GA,Joseph Kasa-Vubu,"Congo, Dem. Rep. of",,,left_only
10463,804359582.0,GA,Frédéric Kibassa Maliba,"Congo, Dem. Rep. of",,,left_only
10464,804587534.0,GA,Tabu Ley Rochereau,"Congo, Dem. Rep. of",,,left_only
10465,804709167.0,Stub,Leonard Mashako Mamba,"Congo, Dem. Rep. of",,,left_only
10466,804943836.0,C,Franck Mwe di Malila,"Congo, Dem. Rep. of",,,left_only
10467,805038023.0,B,Mobutu Sese Seko,"Congo, Dem. Rep. of",,,left_only
10468,805086693.0,C,Maurice Mpolo,"Congo, Dem. Rep. of",,,left_only
10469,805279692.0,Start,Georges Minsay Booka,"Congo, Dem. Rep. of",,,left_only
10470,805368981.0,GA,Germain Katanga,"Congo, Dem. Rep. of",,,left_only
10471,805523382.0,Start,Daniel Kanza,"Congo, Dem. Rep. of",,,left_only
10472,805835265.0,C,Gilbert Pongo,"Congo, Dem. Rep. of",,,left_only
10473,805923394.0,C,Laurent-Désiré Kabila,"Congo, Dem. Rep. of",,,left_only
10474,806071312.0,Stub,Prospère Mushobekwa,"Congo, Dem. Rep. of",,,left_only
10475,806189185.0,Start,Eugène Serufuli Ngayabaseka,"Congo, Dem. Rep. of",,,left_only
10476,806189633.0,C,Julien Paluku Kahongya,"Congo, Dem. Rep. of",,,left_only
10477,806372703.0,Stub,List of mayors of Goma,"Congo, Dem. Rep. of",,,left_only
10478,806383479.0,Start,Victor Nendaka Bika,"Congo, Dem. Rep. of",,,left_only
10479,806524828.0,Start,Antoine Gizenga cabinet,"Congo, Dem. Rep. of",,,left_only
10480,806545614.0,Start,André Lubaya,"Congo, Dem. Rep. of",,,left_only
10481,806947596.0,C,Jean-Chrysostome Werengemere,"Congo, Dem. Rep. of",,,left_only
10482,807193274.0,GA,Jean-Pierre Bemba,"Congo, Dem. Rep. of",,,left_only
10483,807243537.0,C,Jason Sendwe,"Congo, Dem. Rep. of",,,left_only
10484,807258156.0,Stub,Gérard Kamanda wa Kamanda,"Congo, Dem. Rep. of",,,left_only
10485,807273861.0,FA,Patrice Lumumba,"Congo, Dem. Rep. of",,,left_only
16366,638566016.0,Start,"List of members of the parliament of East Timor, 2001–07",East Timorese,,,left_only
16367,699698855.0,Stub,José Abel,East Timorese,,,left_only
16368,712249441.0,Start,Rogerio Lobato,East Timorese,,,left_only
16369,720011934.0,Stub,Manuel Magalhaes de Oliveira,East Timorese,,,left_only
16370,737687072.0,Start,João Viegas Carrascalão,East Timorese,,,left_only
16371,753061850.0,Stub,Manuel Carrascalão,East Timorese,,,left_only
16372,755908563.0,Stub,Adalgisa Magno Guterres,East Timorese,,,left_only
16373,755908564.0,Start,María do Céu,East Timorese,,,left_only
16374,757539934.0,Stub,Ana Pessoa Pinto,East Timorese,,,left_only
16375,760534473.0,Stub,Rosa Bonaparte,East Timorese,,,left_only
16376,765600414.0,Stub,Fernanda Borges,East Timorese,,,left_only
16377,772890380.0,Stub,Nicolau dos Reis Lobato,East Timorese,,,left_only
16378,779579546.0,Stub,Adalgisa Ximenes,East Timorese,,,left_only
16379,788017619.0,Start,Milena Pires,East Timorese,,,left_only
16380,788450147.0,Stub,Alfredo Pires,East Timorese,,,left_only
16381,793270640.0,B,Mário Viegas Carrascalão,East Timorese,,,left_only
16382,793454583.0,Start,José Abílio Osório Soares,East Timorese,,,left_only
16383,796722416.0,Stub,Roque Rodrigues,East Timorese,,,left_only
16384,796886084.0,Stub,Avelino Coelho da Silva,East Timorese,,,left_only
16385,797040695.0,Stub,Manuel Tilman,East Timorese,,,left_only
16386,797279277.0,C,Isabel da Costa Ferreira,East Timorese,,,left_only
16387,797438594.0,C,Emília Pires,East Timorese,,,left_only
16388,798242613.0,C,Xanana Gusmão,East Timorese,,,left_only
16389,798334210.0,Start,José Luís Guterres,East Timorese,,,left_only
16390,798969127.0,Stub,Arsénio Bano,East Timorese,,,left_only
16391,799059687.0,Stub,Nino Konis Santana,East Timorese,,,left_only
16392,799570306.0,Start,President of East Timor,East Timorese,,,left_only
16393,802072802.0,C,Estanislau da Silva,East Timorese,,,left_only
16394,802765398.0,C,José Ramos-Horta,East Timorese,,,left_only
16395,803043434.0,C,Fernando de Araújo (East Timorese politician),East Timorese,,,left_only
16396,803615826.0,C,Taur Matan Ruak,East Timorese,,,left_only
16397,803664269.0,Start,Lúcia Lobato,East Timorese,,,left_only
16398,803969836.0,C,Francisco Xavier do Amaral,East Timorese,,,left_only
16399,804966906.0,Start,Vicente Guterres,East Timorese,,,left_only
16400,805183458.0,Start,Rui Maria de Araújo,East Timorese,,,left_only
16401,806140876.0,Start,Francisco Guterres,East Timorese,,,left_only
18816,643932216.0,Start,"List of members of the Løgting, 1974–78",Faroese,,,left_only
18817,643932220.0,Start,"List of members of the Løgting, 1978–80",Faroese,,,left_only
18818,643932225.0,Start,"List of members of the Løgting, 1980–84",Faroese,,,left_only
18819,643932226.0,Start,"List of members of the Løgting, 1984–88",Faroese,,,left_only
18820,643932239.0,Start,"List of members of the Løgting, 1990–94",Faroese,,,left_only
18821,643932242.0,Start,"List of members of the Løgting, 1994–98",Faroese,,,left_only
18822,698865505.0,Start,"List of members of the Løgting, 1998–2002",Faroese,,,left_only
18823,700400143.0,Stub,Tórbjørn Poulsen,Faroese,,,left_only
18824,701771698.0,Start,Demmus Hentze,Faroese,,,left_only
18825,714088539.0,Start,Andrias Christian Evensen,Faroese,,,left_only
18826,715330944.0,Stub,Hákun Djurhuus,Faroese,,,left_only
18827,715490721.0,Stub,Jógvan Justinusson,Faroese,,,left_only
18828,716137698.0,Stub,Andrass Samuelsen,Faroese,,,left_only
18829,721938213.0,Stub,Álvur Kirke,Faroese,,,left_only
18830,722336332.0,Start,Rikard Long,Faroese,,,left_only
18831,722336979.0,Start,Sigurð Joensen,Faroese,,,left_only
18832,722590461.0,Start,Jógvan Poulsen (1854–1941),Faroese,,,left_only
18833,724674137.0,Start,Jacob Vestergaard,Faroese,,,left_only
18834,725030656.0,Stub,Johan Simonsen,Faroese,,,left_only
18835,725288194.0,Start,Kári P. Højgaard,Faroese,,,left_only
18836,729422866.0,C,Kristin Michelsen,Faroese,,,left_only
18837,734668075.0,Start,Lisbeth L. Petersen,Faroese,,,left_only
18838,735578210.0,Stub,Símun av Skarði,Faroese,,,left_only
18839,748477895.0,Start,Finnbogi Ísakson,Faroese,,,left_only
18840,750074079.0,Start,"List of members of the Løgting, 1988–90",Faroese,,,left_only
18841,750167873.0,Start,Brandur Sandoy,Faroese,,,left_only
18842,754952121.0,Start,"List of members of the Løgting, 2015–19",Faroese,,,left_only
18843,754952298.0,Start,"List of members of the Løgting, 2011–15",Faroese,,,left_only
18844,754952557.0,Start,"List of members of the Løgting, 2008–11",Faroese,,,left_only
18845,754952620.0,Start,"List of members of the Løgting, 2004–08",Faroese,,,left_only
18846,754952690.0,Start,"List of members of the Løgting, 2002–04",Faroese,,,left_only
18847,756602743.0,Start,Bárður á Steig Nielsen,Faroese,,,left_only
18848,756654638.0,Stub,Edmund Joensen,Faroese,,,left_only
18849,756654880.0,Stub,Jørgen Niclasen,Faroese,,,left_only
18850,765947137.0,Start,Jóannes Eidesgaard,Faroese,,,left_only
18851,765947416.0,Start,Jógvan á Lakjuni,Faroese,,,left_only
18852,773895078.0,Start,Anfinn Kallsberg,Faroese,,,left_only
18853,780361487.0,Start,Kaj Leo Johannesen,Faroese,,,left_only
18854,780543271.0,Start,Rigmor Dam,Faroese,,,left_only
18855,780543417.0,Start,Hanna Jensen,Faroese,,,left_only
18856,780543635.0,Start,Sonja Jógvansdóttir,Faroese,,,left_only
18857,780543692.0,Start,Karin Kjølbro,Faroese,,,left_only
18858,781915668.0,Start,Jóannes Patursson,Faroese,,,left_only
18859,784440060.0,Start,Erlendur Patursson,Faroese,,,left_only
18860,789029085.0,Stub,Niels Winther Poulsen,Faroese,,,left_only
18861,789306157.0,Start,Bjørt Samuelsen,Faroese,,,left_only
18862,789307497.0,Start,Jenis av Rana,Faroese,,,left_only
18863,789307569.0,Start,Heðin Mortensen,Faroese,,,left_only
18864,789307632.0,Start,Rasmus Effersøe,Faroese,,,left_only
18865,789308387.0,Start,Trygvi Samuelsen,Faroese,,,left_only
18866,789308554.0,Stub,Eilif Samuelsen,Faroese,,,left_only
18867,789310556.0,Start,Jógvan Skorheim,Faroese,,,left_only
18868,789708924.0,Start,Louis Zachariasen,Faroese,,,left_only
18869,792595685.0,Start,Annika Olsen,Faroese,,,left_only
18870,793276089.0,Start,Páll á Reynatúgvu,Faroese,,,left_only
18871,793277402.0,Start,Atli Dam,Faroese,,,left_only
18872,793353435.0,Start,Henrik Old,Faroese,,,left_only
18873,793394960.0,Start,Marita Petersen,Faroese,,,left_only
18874,796170338.0,Start,Pauli Ellefsen,Faroese,,,left_only
18875,796170437.0,C,Rasmus Rasmussen (writer),Faroese,,,left_only
18876,797450160.0,Stub,Peter Mohr Dam,Faroese,,,left_only
18877,797493287.0,Start,Knút Wang,Faroese,,,left_only
18878,797493405.0,C,Sjúrður Skaale,Faroese,,,left_only
18879,800723683.0,Start,Høgni Hoydal,Faroese,,,left_only
18880,801638146.0,Start,Kristina Háfoss,Faroese,,,left_only
18881,802476681.0,Start,Sirið Stenberg,Faroese,,,left_only
18882,802515495.0,Start,Eyðgunn Samuelsen,Faroese,,,left_only
18883,802925425.0,Stub,Edva Jacobsen,Faroese,,,left_only
18884,803145744.0,Start,Aksel V. Johannesen,Faroese,,,left_only
18885,803656387.0,Start,Djóni í Geil,Faroese,,,left_only
18886,804422035.0,Stub,Elsebeth Mercedis Gunnleygsdóttur,Faroese,,,left_only
18887,806011231.0,Start,Annita á Fríðriksmørk,Faroese,,,left_only
18888,806909915.0,Start,Katrin Kallsberg,Faroese,,,left_only
18889,807297374.0,Start,H. C .W. Tórgarð,Faroese,,,left_only
21181,647367482.0,Start,James Bisset (mayor),Cape Colony,,,left_only
21182,651250302.0,Stub,Augustus Joseph Tancred,Cape Colony,,,left_only
21183,653467222.0,Stub,Johan Conrad Silberbauer,Cape Colony,,,left_only
21184,666596918.0,Stub,James Cotterell Hoole,Cape Colony,,,left_only
21185,670210734.0,Start,Patrick Goold,Cape Colony,,,left_only
21186,676828191.0,B,Andries Botha,Cape Colony,,,left_only
21187,680205631.0,C,Charles William Hutton,Cape Colony,,,left_only
21188,693624260.0,Stub,John Blades Currey,Cape Colony,,,left_only
21189,715016315.0,C,Joseph Orpen,Cape Colony,,,left_only
21190,718462130.0,Stub,Klaas Afrikaner,Cape Colony,,,left_only
21191,723563811.0,B,Christian Groepe,Cape Colony,,,left_only
21192,724976433.0,Start,William Hume (Cape politician),Cape Colony,,,left_only
21193,731817397.0,C,James Sivewright,Cape Colony,,,left_only
21194,731908828.0,Start,William Downes Griffith,Cape Colony,,,left_only
21195,737348283.0,Start,John Sweet Distin,Cape Colony,,,left_only
21196,746923352.0,C,John Thomas Eustace,Cape Colony,,,left_only
21197,750299694.0,Start,Jeremias Ziervogel,Cape Colony,,,left_only
21198,757832561.0,Start,Henry Latham Currey,Cape Colony,,,left_only
21199,765333482.0,Stub,Henry Juta,Cape Colony,,,left_only
21200,767856232.0,C,Simeon Jacobs,Cape Colony,,,left_only
21201,771024710.0,Start,William Schreiner,Cape Colony,,,left_only
21202,775481498.0,Start,George Strahan,Cape Colony,,,left_only
21203,776725178.0,Start,John Bardwell Ebden,Cape Colony,,,left_only
21204,779046359.0,C,Jan Hendrik Hofmeyr (Onze Jan),Cape Colony,,,left_only
21205,783249147.0,C,Charles Abercrombie Smith,Cape Colony,,,left_only
21206,783250295.0,C,Charles Brownlee,Cape Colony,,,left_only
21207,784693349.0,Start,George Cathcart,Cape Colony,,,left_only
21208,784726341.0,Start,Henry Torrens,Cape Colony,,,left_only
21209,784765242.0,Start,Frederick Schermbrucker,Cape Colony,,,left_only
21210,784829553.0,Start,Richard Solomon (Attorney General),Cape Colony,,,left_only
21211,784862369.0,Start,Walter Hely-Hutchinson,Cape Colony,,,left_only
21212,785566972.0,C,Henry White (Cape Treasurer General),Cape Colony,,,left_only
21213,786142993.0,C,Jacobus Wilhelmus Sauer,Cape Colony,,,left_only
21214,786803200.0,Start,Charles Lennox Stretch,Cape Colony,,,left_only
21215,786916027.0,Start,John Tengo Jabavu,Cape Colony,,,left_only
21216,786972727.0,Start,Philip John Stigant,Cape Colony,,,left_only
21217,787552653.0,C,Henry Pottinger,Cape Colony,,,left_only
21218,788098639.0,C,Thomas Charles Scanlen,Cape Colony,,,left_only
21219,788361321.0,C,Saul Solomon,Cape Colony,,,left_only
21220,788717893.0,C,Thomas Upington,Cape Colony,,,left_only
21221,789120101.0,C,Andries Stockenström (judge),Cape Colony,,,left_only
21222,789258720.0,C,Robert Wynyard,Cape Colony,,,left_only
21223,789675927.0,C,"John de Villiers, 1st Baron de Villiers",Cape Colony,,,left_only
21224,792178662.0,C,Philip Edmond Wodehouse,Cape Colony,,,left_only
21225,793643575.0,Stub,Charles Aken Fairbridge,Cape Colony,,,left_only
21226,794193433.0,Start,William Howley Goodenough,Cape Colony,,,left_only
21227,794346758.0,Start,George Thomas Napier,Cape Colony,,,left_only
21228,794705198.0,C,William Butler (British Army officer),Cape Colony,,,left_only
21229,795625420.0,C,"Sir George Yonge, 5th Baronet",Cape Colony,,,left_only
21230,796352977.0,C,Christoffel Brand,Cape Colony,,,left_only
21231,796646347.0,C,Henry Barkly,Cape Colony,,,left_only
21232,797029963.0,Start,Lord Charles Somerset,Cape Colony,,,left_only
21233,797735815.0,C,Benjamin D'Urban,Cape Colony,,,left_only
21234,797978795.0,C,John Charles Molteno,Cape Colony,,,left_only
21235,798165649.0,C,"George Macartney, 1st Earl Macartney",Cape Colony,,,left_only
21236,798383131.0,C,William Porter (Attorney General),Cape Colony,,,left_only
21237,798742813.0,C,David Tennant (politician),Cape Colony,,,left_only
21238,799373837.0,B,Andries Stockenström,Cape Colony,,,left_only
21239,799472552.0,C,"Sir Harry Smith, 1st Baronet",Cape Colony,,,left_only
21240,800159179.0,Start,Charles Henry Darling,Cape Colony,,,left_only
21241,800767317.0,C,John Paterson (Cape politician),Cape Colony,,,left_only
21242,801351302.0,C,John X. Merriman,Cape Colony,,,left_only
21243,801417570.0,Start,Mpilo Walter Benson Rubusana,Cape Colony,,,left_only
21244,801856640.0,C,Henry Hugh Clifford,Cape Colony,,,left_only
21245,801935094.0,C,James Tennant Molteno,Cape Colony,,,left_only
21246,803177433.0,C,Leander Starr Jameson,Cape Colony,,,left_only
21247,803288472.0,B,Henry Bartle Frere,Cape Colony,,,left_only
21248,803303116.0,C,"Hercules Robinson, 1st Baron Rosmead",Cape Colony,,,left_only
21249,803618569.0,C,"Henry Loch, 1st Baron Loch",Cape Colony,,,left_only
21250,803908887.0,Start,Francis Dundas,Cape Colony,,,left_only
21251,804277547.0,Start,Lowry Cole,Cape Colony,,,left_only
21252,804362436.0,C,"Sir David Baird, 1st Baronet",Cape Colony,,,left_only
21253,804497413.0,GA,James Rose Innes,Cape Colony,,,left_only
21254,805157563.0,Stub,Nicolaas Frederic de Waal,Cape Colony,,,left_only
21255,805678535.0,C,"John Charles Molteno, Jr.",Cape Colony,,,left_only
21256,805962015.0,C,"Alfred Milner, 1st Viscount Milner",Cape Colony,,,left_only
21257,806340214.0,C,Gordon Sprigg,Cape Colony,,,left_only
21258,806647373.0,B,Cecil Rhodes,Cape Colony,,,left_only
21259,807290539.0,FA,George Grey,Cape Colony,,,left_only
21260,807330872.0,C,Peregrine Maitland,Cape Colony,,,left_only
21261,807401513.0,C,Thomas Francis Wade,Cape Colony,,,left_only
24492,663348266.0,Stub,"List of members of the National Assembly (South Korea), 1950–54",South Korean,,,left_only
24493,703478926.0,Stub,Park In-won,South Korean,,,left_only
24494,716323288.0,Stub,Kim Seung-kew,South Korean,,,left_only
24495,717405394.0,Start,Seo Young-kyo,South Korean,,,left_only
24496,723064614.0,Stub,Lee Wu-jong,South Korean,,,left_only
24497,760062536.0,Start,Yu In-chon,South Korean,,,left_only
24498,770622878.0,Stub,Kim Wan-ju,South Korean,,,left_only
24499,770623036.0,Start,Park Yong-jin,South Korean,,,left_only
24500,770757174.0,Stub,Lee Jong-kul,South Korean,,,left_only
24501,770760118.0,Stub,Kim Hyun-jong,South Korean,,,left_only
24502,774367693.0,Stub,Shin Ki-ha,South Korean,,,left_only
24503,775234175.0,Stub,Lee Chunhee,South Korean,,,left_only
24504,775458263.0,Stub,Ahn Dae-hee,South Korean,,,left_only
24505,775458608.0,Start,Ahn Gyu-baek,South Korean,,,left_only
24506,775458639.0,Start,Park Hong-keun,South Korean,,,left_only
24507,777008205.0,Stub,Ahn Sang-yeong,South Korean,,,left_only
24508,777070214.0,Stub,Jang Deok-jin,South Korean,,,left_only
24509,778915319.0,Stub,Kim Jae-soon,South Korean,,,left_only
24510,778916810.0,Stub,Kim Jin-sun,South Korean,,,left_only
24511,779544705.0,Stub,Kim Il-ung,South Korean,,,left_only
24512,779544873.0,Stub,Koo Kyo-hyun,South Korean,,,left_only
24513,780227423.0,Start,Ji Sang-wook,South Korean,,,left_only
24514,781133659.0,Start,Chung Hong-won,South Korean,,,left_only
24515,781134255.0,Stub,Kim Byong-joon,South Korean,,,left_only
24516,782498395.0,Start,Hong Ihk-pyo,South Korean,,,left_only
24517,782649404.0,Stub,Jeon Soon-ok,South Korean,,,left_only
24518,785317852.0,Start,Lee Hae-chan,South Korean,,,left_only
24519,790178486.0,Stub,Yu Myung-hwan,South Korean,,,left_only
24520,790178940.0,Start,Yoon Young-kwan,South Korean,,,left_only
24521,790179508.0,Stub,Yoon Jeung-hyun,South Korean,,,left_only
24522,790180349.0,Start,Suh Sang-chul,South Korean,,,left_only
24523,790471224.0,C,Bak Maeng-woo,South Korean,,,left_only
24524,791389950.0,Start,Lee Wan-koo,South Korean,,,left_only
24525,792037093.0,Start,Kim Chang-ryong,South Korean,,,left_only
24526,794638210.0,Stub,Yun Duk-min,South Korean,,,left_only
24527,795546187.0,Stub,Cheong Yang-seog,South Korean,,,left_only
24528,795546191.0,Start,Chin Young,South Korean,,,left_only
24529,795546228.0,Start,Kim Kwan-yong,South Korean,,,left_only
24530,795546245.0,Stub,Lee Hahn-koo,South Korean,,,left_only
24531,795546256.0,Stub,Lee Jung-hyun (politician),South Korean,,,left_only
24532,797806095.0,Stub,Kim Chong-hoh,South Korean,,,left_only
24533,798295710.0,Stub,Chung Ho-yong,South Korean,,,left_only
24534,798611948.0,Stub,Lee Jae-myung,South Korean,,,left_only
24535,799083872.0,C,Lee Nak-hoon,South Korean,,,left_only
24536,799945764.0,Stub,Yoo Il-ho,South Korean,,,left_only
24537,800258105.0,Start,Park Young-sun,South Korean,,,left_only
24538,800896932.0,Start,Kwon Young-ghil,South Korean,,,left_only
24539,800896981.0,Stub,In Jae-keun,South Korean,,,left_only
24540,802728876.0,Stub,Kang Kum-sil,South Korean,,,left_only
24541,802955917.0,Stub,Park Yong-ok,South Korean,,,left_only
24542,803383030.0,Stub,Jeon Hye-sook,South Korean,,,left_only
24543,803838269.0,Start,Kim Un-yong,South Korean,,,left_only
24544,804816596.0,C,Sim Sang-jung,South Korean,,,left_only
24545,804817210.0,C,Kim So-yeon (activist),South Korean,,,left_only
24546,804962117.0,Stub,Yi Yun-yong,South Korean,,,left_only
24547,804962160.0,Stub,Byeon Yeong-tae,South Korean,,,left_only
24548,804962170.0,Stub,Lee Beom-seok (foreign minister),South Korean,,,left_only
24549,804968129.0,Stub,Yoo Chang-soon,South Korean,,,left_only
24550,804968364.0,Stub,Lee Hyun-jae,South Korean,,,left_only
24551,804968483.0,Stub,Hyun Soong-jong,South Korean,,,left_only
24552,804971432.0,Stub,Yun Byung-se,South Korean,,,left_only
24553,804971477.0,Stub,Kim Sung-hwan (politician),South Korean,,,left_only
24554,804971686.0,Stub,Kim Suk-soo,South Korean,,,left_only
24555,804971888.0,C,Kim Hwang-sik,South Korean,,,left_only
24556,804972263.0,Stub,Chang Sang,South Korean,,,left_only
24557,805053478.0,Start,Chang Taek-sang,South Korean,,,left_only
24558,805158721.0,Stub,"List of members of the South Korean Constituent Assembly, 1948–50",South Korean,,,left_only
24559,805293256.0,C,Lim Su-kyung,South Korean,,,left_only
24560,805956890.0,Start,Ki Dong-min,South Korean,,,left_only
24561,805991409.0,Stub,Shin Sung-mo,South Korean,,,left_only
24562,806073279.0,Start,Chun Jung-bae,South Korean,,,left_only
24563,806073996.0,Start,"List of members of the National Assembly (South Korea), 2012–2016",South Korean,,,left_only
24564,806124709.0,Start,Han Duck-soo,South Korean,,,left_only
24565,806145466.0,C,Roh Tae-woo,South Korean,,,left_only
24566,806182207.0,C,Han Myeong-sook,South Korean,,,left_only
24567,806184478.0,C,Choo Mi-ae,South Korean,,,left_only
24568,806319565.0,Start,Na Kyung-won,South Korean,,,left_only
24569,806399005.0,Start,Min Byung-doo,South Korean,,,left_only
24570,806439224.0,Stub,Choe Kwang-shik,South Korean,,,left_only
24571,806462613.0,C,Choi Kyu-hah,South Korean,,,left_only
24572,806511942.0,Stub,Won Sei-hoon,South Korean,,,left_only
24573,806512047.0,Stub,Won Yoo-chul,South Korean,,,left_only
24574,806555857.0,Start,Kim Boo-kyum,South Korean,,,left_only
24575,806590508.0,Stub,Baek Du-jin,South Korean,,,left_only
24576,806749773.0,Start,"List of members of the National Assembly (South Korea), 2016–present",South Korean,,,left_only
24577,806801805.0,C,Park Chung-hee,South Korean,,,left_only
24578,806846283.0,C,Chun Doo-hwan,South Korean,,,left_only
24579,806852494.0,B,Roh Moo-hyun,South Korean,,,left_only
24580,807021657.0,Start,Lee Jung-hee,South Korean,,,left_only
24581,807029190.0,Stub,Song Yo-chan,South Korean,,,left_only
24582,807057020.0,Start,Kitack Lim,South Korean,,,left_only
24583,807060237.0,B,Park Geun-hye,South Korean,,,left_only
24584,807122658.0,C,Do Jong-hwan,South Korean,,,left_only
24585,807142261.0,C,Assassination of Park Chung-hee,South Korean,,,left_only
24586,807404528.0,Stub,Geum Min,South Korean,,,left_only
24587,807423123.0,Stub,Nam Duck-woo,South Korean,,,left_only
32098,671515606.0,Stub,Toluono Feti,Samoan,,,left_only
32099,704919844.0,B,James Ah Koy,Samoan,,,left_only
32100,705218371.0,Start,Va'aelua Eti Alesana,Samoan,,,left_only
32101,706207837.0,Start,Misa Telefoni Retzlaff,Samoan,,,left_only
32102,706804758.0,Stub,Luagalau Levaula Kamu,Samoan,,,left_only
32103,706837234.0,Stub,Leafa Vitale,Samoan,,,left_only
32104,707525246.0,Stub,Niko Lee Hang,Samoan,,,left_only
32105,707525315.0,Stub,Tuu'u Anasi'i Leota,Samoan,,,left_only
32106,707750982.0,Stub,Tuiloma Pule Lameko,Samoan,,,left_only
32107,714244543.0,Stub,Laauli Leuatea Polataivao,Samoan,,,left_only
32108,717442173.0,Stub,To’alepaiali’i Toeolesulusulu Salesa III,Samoan,,,left_only
32109,718995854.0,Stub,Namulau’ulu Vavae Tuilagi,Samoan,,,left_only
32110,719691980.0,Stub,Lefau Harry Schuster,Samoan,,,left_only
32111,723152770.0,Stub,Tuitama Talalelei Tuitama,Samoan,,,left_only
32112,726724077.0,Stub,Le Mamea Matatumua Ata,Samoan,,,left_only
32113,726724455.0,Stub,Tole’afoa Solomona To’ailoa,Samoan,,,left_only
32114,738999542.0,Start,Lealailepule Rimoni Aiafi,Samoan,,,left_only
32115,739170575.0,Start,Va'ai Papu Vailupe,Samoan,,,left_only
32116,739170586.0,Start,Palusalue Fa’apo II,Samoan,,,left_only
32117,739170620.0,Start,Tolofuaivalelei Falemoe Lei’ataua,Samoan,,,left_only
32118,739170646.0,Start,A'eau Peniamina,Samoan,,,left_only
32119,739170663.0,Stub,Patu Ativalu,Samoan,,,left_only
32120,740773350.0,C,Sua Sulu'ape Paulo II,Samoan,,,left_only
32121,745204530.0,Stub,Asiata Sale'imoa Va'ai,Samoan,,,left_only
32122,748298776.0,Stub,Aiono Nonumalo Sofara,Samoan,,,left_only
32123,748384437.0,Start,Mata'afa Faumuina Fiame Mulinu'u I,Samoan,,,left_only
32124,748477510.0,C,Fiame Mata'afa Faumuina Mulinu'u II,Samoan,,,left_only
32125,757107378.0,Start,Matatumua Maimoana,Samoan,,,left_only
32126,757107952.0,C,Laulu Fetauimalemau Mata'afa,Samoan,,,left_only
32127,757562316.0,Start,Fiame Naomi Mata'afa,Samoan,,,left_only
32128,757616961.0,Stub,Safuneitu'uga Pa'aga Neri,Samoan,,,left_only
32129,758953501.0,Stub,Gatoloaifaana Amataga Alesana-Gidlow,Samoan,,,left_only
32130,762572848.0,Stub,Tuala Ainiu Iusitino,Samoan,,,left_only
32131,767363297.0,C,Paul Alan Cox,Samoan,,,left_only
32132,771267864.0,Stub,Tuala Falenaoti Tiresa Malietoa,Samoan,,,left_only
32133,771651038.0,Stub,Toi Aukuso Cain,Samoan,,,left_only
32134,780759402.0,Stub,Muagututagata Peter Ah Him,Samoan,,,left_only
32135,782134923.0,Start,Sua Rimoni Ah Chong,Samoan,,,left_only
32136,782465136.0,Start,Luamanuvao Winnie Laban,Samoan,,,left_only
32137,782768517.0,Stub,Order of Merit of Samoa,Samoan,,,left_only
32138,783679600.0,Stub,Sapa'u Ruperake Petaia,Samoan,,,left_only
32139,784413731.0,Start,Le Mamea Ropati,Samoan,,,left_only
32140,785553682.0,Start,Tui Manuʻa Elisala,Samoan,,,left_only
32141,786776338.0,Start,Mata'afa,Samoan,,,left_only
32142,787519332.0,C,Polataivao Fosi,Samoan,,,left_only
32143,788649434.0,Start,Tony Tuimavave,Samoan,,,left_only
32144,791884820.0,Stub,Tuimaleali'ifano,Samoan,,,left_only
32145,793129536.0,Start,Dave Solomon (rugby),Samoan,,,left_only
32146,793294077.0,Start,Va'ai Kolone,Samoan,,,left_only
32147,793926721.0,Stub,Tamaseu Leni Warren,Samoan,,,left_only
32148,794202189.0,Start,Mata'afa Iosefo,Samoan,,,left_only
32149,796309750.0,Stub,Ale Vena Ale,Samoan,,,left_only
32150,796377891.0,Stub,Keneti Sio,Samoan,,,left_only
32151,797760961.0,C,Prime Minister of Samoa,Samoan,,,left_only
32152,798166885.0,Stub,Tupua Tamasese Lealofi IV,Samoan,,,left_only
32153,798166951.0,Start,Tofilau Eti Alesana,Samoan,,,left_only
32154,798494387.0,Start,Aiono Fanaafi Le Tagaloa,Samoan,,,left_only
32155,798807561.0,Start,Le Tagaloa Pita,Samoan,,,left_only
32156,801057378.0,Stub,Aveau Niko Palamo,Samoan,,,left_only
32157,801142102.0,C,Mark Gosche,Samoan,,,left_only
32158,801175876.0,C,Lauaki Namulauulu Mamoe,Samoan,,,left_only
32159,801182300.0,C,Tufuga Efi,Samoan,,,left_only
32160,801186581.0,Start,Salamasina,Samoan,,,left_only
32161,801213484.0,Stub,Tupua Tamasese Meaʻole,Samoan,,,left_only
32162,801564093.0,Start,Emma Kruse Va'ai,Samoan,,,left_only
32163,801570141.0,C,Tuilaepa Aiono Sailele Malielegaoi,Samoan,,,left_only
32164,801746626.0,Stub,Tupua Tamasese,Samoan,,,left_only
32165,801944573.0,Start,Tupua Tamasese Lealofi III,Samoan,,,left_only
32166,802011301.0,Start,Olaf Frederick Nelson,Samoan,,,left_only
32167,802218035.0,Start,Va'aletoa Sualauvi II,Samoan,,,left_only
32168,802850235.0,Start,Faumuina Tiatia Liuga,Samoan,,,left_only
32169,804303257.0,C,Malietoa Tanumafili II,Samoan,,,left_only
32170,804379271.0,Stub,Fuimaono Naoia Tei,Samoan,,,left_only
32171,804379277.0,Stub,Fuiono Senio,Samoan,,,left_only
32172,806055721.0,GA,O le Ao o le Malo,Samoan,,,left_only
32173,807177019.0,C,William Sio,Samoan,,,left_only
34569,674919905.0,Stub,Speaker of the Legislative Assembly of Montserrat,Montserratian,,,left_only
34570,712713704.0,Stub,Peter Waterworth,Montserratian,,,left_only
34571,719256142.0,Start,Christopher J. Turner,Montserratian,,,left_only
34572,725980651.0,Start,Howard Fergus,Montserratian,,,left_only
34573,737169369.0,Start,Ashley Greenwood,Montserratian,,,left_only
34574,757086597.0,Stub,Teresina Bodkin,Montserratian,,,left_only
34575,757086621.0,Stub,Shirley Osborne,Montserratian,,,left_only
34576,762009545.0,Stub,Adrian Davis (governor),Montserratian,,,left_only
34577,768679602.0,Start,David G. P. Taylor,Montserratian,,,left_only
34578,770131970.0,Start,Sarita Francis,Montserratian,,,left_only
34579,771351774.0,Stub,David Brandt (politician),Montserratian,,,left_only
34580,771351955.0,Stub,Bertrand Osborne,Montserratian,,,left_only
34581,771352057.0,Stub,Percival Austin Bramble,Montserratian,,,left_only
34582,781452925.0,Stub,Winston Pond,Montserratian,,,left_only
34583,783821985.0,Start,Mary Rose Tuitt,Montserratian,,,left_only
34584,784856577.0,Stub,Tony Longrigg,Montserratian,,,left_only
34585,784875662.0,Start,Deborah Barnes-Jones,Montserratian,,,left_only
34586,788976365.0,C,William Henry Bramble,Montserratian,,,left_only
34587,789918293.0,Stub,John Kemys Spencer-Churchill,Montserratian,,,left_only
34588,790614135.0,Start,Reuben Meade,Montserratian,,,left_only
34589,791981452.0,Start,Wilfred Bennett Davidson-Houston,Montserratian,,,left_only
34590,793896767.0,Stub,Elizabeth Carriere,Montserratian,,,left_only
34591,798265888.0,Start,"Government House, Montserrat",Montserratian,,,left_only
34592,799317293.0,Start,Donaldson Romeo,Montserratian,,,left_only
34593,801175821.0,Start,Premier of Montserrat,Montserratian,,,left_only
34594,806415676.0,Start,Governor of Montserrat,Montserratian,,,left_only
34595,806730593.0,Stub,Tony Abbott (governor),Montserratian,,,left_only
35662,680532939.0,Stub,Chairman of the Island Council (Pitcairn),Pitcairn Islands,,,left_only
35663,715823848.0,Stub,Edgar Allen Christian,Pitcairn Islands,,,left_only
35664,715823876.0,Stub,Frederick Martin Christian,Pitcairn Islands,,,left_only
35665,715823908.0,Stub,John Lorenzo Christian,Pitcairn Islands,,,left_only
35666,717259837.0,Stub,Benjamin Stanley Young,Pitcairn Islands,,,left_only
35667,717338734.0,Stub,Edward Quintal,Pitcairn Islands,,,left_only
35668,717340951.0,Stub,Arthur Quintal I,Pitcairn Islands,,,left_only
35669,717340996.0,Stub,Fletcher Christian II,Pitcairn Islands,,,left_only
35670,717341064.0,Stub,Moses Young,Pitcairn Islands,,,left_only
35671,717345596.0,Stub,Matthew McCoy (Magistrate),Pitcairn Islands,,,left_only
35672,717346443.0,Stub,Arthur Quintal II,Pitcairn Islands,,,left_only
35673,717350782.0,Stub,Charles Christian II,Pitcairn Islands,,,left_only
35674,717867039.0,Stub,Norris Henry Young,Pitcairn Islands,,,left_only
35675,719706841.0,Stub,Arthur Galsworthy,Pitcairn Islands,,,left_only
35676,731458576.0,Stub,Jonathan Sinclair,Pitcairn Islands,,,left_only
35677,748179514.0,Stub,Simon Young (magistrate),Pitcairn Islands,,,left_only
35678,749046736.0,Stub,Brian Young (magistrate),Pitcairn Islands,,,left_only
35679,751464749.0,Stub,Joshua Hill (Pitcairn Island leader),Pitcairn Islands,,,left_only
35680,754790610.0,C,George Fergusson (diplomat),Pitcairn Islands,,,left_only
35681,754935959.0,Start,James Russell McCoy,Pitcairn Islands,,,left_only
35682,754935982.0,Stub,Matthew Edmond McCoy,Pitcairn Islands,,,left_only
35683,764601118.0,Start,Richard Fell,Pitcairn Islands,,,left_only
35684,779056744.0,Stub,William Alfred Young,Pitcairn Islands,,,left_only
35685,782764117.0,Start,Governor of Pitcairn,Pitcairn Islands,,,left_only
35686,783746509.0,Stub,Martin Williams (diplomat),Pitcairn Islands,,,left_only
35687,785508390.0,Start,David Aubrey Scott,Pitcairn Islands,,,left_only
35688,788318957.0,Start,Harold Smedley,Pitcairn Islands,,,left_only
35689,790881651.0,Start,List of high commissioners of the United Kingdom to New Zealand,Pitcairn Islands,,,left_only
35690,791265995.0,Start,Betty Christian,Pitcairn Islands,,,left_only
35691,794905581.0,C,Meralda Warren,Pitcairn Islands,,,left_only
35692,795649021.0,Start,Victoria Treadell,Pitcairn Islands,,,left_only
35693,796203049.0,Stub,Charles Richard Parkin Christian,Pitcairn Islands,,,left_only
35694,796203180.0,Stub,Warren Clive Christian,Pitcairn Islands,,,left_only
35695,796203252.0,Start,Jay Warren,Pitcairn Islands,,,left_only
35696,796592041.0,Stub,Robert Alston,Pitcairn Islands,,,left_only
35697,797221428.0,Start,Butterworth Stavely,Pitcairn Islands,,,left_only
35698,799551777.0,Stub,Gerard Bromley Robert Christian,Pitcairn Islands,,,left_only
35699,799551778.0,Stub,Ivan Christian,Pitcairn Islands,,,left_only
35700,799551779.0,Stub,Pervis Ferris Young,Pitcairn Islands,,,left_only
35701,799551780.0,Start,Thursday October Christian II,Pitcairn Islands,,,left_only
35702,799551784.0,Start,Brenda Christian,Pitcairn Islands,,,left_only
35703,800137512.0,Start,Shawn Christian (mayor),Pitcairn Islands,,,left_only
35704,801175970.0,Start,List of rulers of the Pitcairn Islands,Pitcairn Islands,,,left_only
38470,687127320.0,Stub,Earl Asim Martin,Saint Kitts and Nevis,,,left_only
38471,703666654.0,Start,Paul Southwell,Saint Kitts and Nevis,,,left_only
38472,709078753.0,Stub,Lee Moore (politician),Saint Kitts and Nevis,,,left_only
38473,709078817.0,Start,Joseph Parry (politician),Saint Kitts and Nevis,,,left_only
38474,710428915.0,Stub,Robert James Dugu Gordon,Saint Kitts and Nevis,,,left_only
38475,720360218.0,Stub,Sam Condor,Saint Kitts and Nevis,,,left_only
38476,720572188.0,Stub,Joseph Nathaniel France,Saint Kitts and Nevis,,,left_only
38477,723892438.0,Start,Shawn Richards,Saint Kitts and Nevis,,,left_only
38478,737165159.0,Stub,Patrice Nisbett,Saint Kitts and Nevis,,,left_only
38479,757950077.0,Stub,Premier of Nevis,Saint Kitts and Nevis,,,left_only
38480,774778329.0,C,Vance Amory,Saint Kitts and Nevis,,,left_only
38481,778464259.0,Start,Edmund Wickham Lawrence (Governor-General),Saint Kitts and Nevis,,,left_only
38482,779378782.0,Start,Ada Mae Edwards,Saint Kitts and Nevis,,,left_only
38483,779379168.0,Start,Constance V. Mitcham,Saint Kitts and Nevis,,,left_only
38484,783358108.0,Start,Marcella Liburd,Saint Kitts and Nevis,,,left_only
38485,784208810.0,Start,Mark Brantley,Saint Kitts and Nevis,,,left_only
38486,787971501.0,Start,Attorney General of Saint Kitts and Nevis,Saint Kitts and Nevis,,,left_only
38487,788231533.0,Start,Clement Arrindell,Saint Kitts and Nevis,,,left_only
38488,792406694.0,Start,Tapley Seaton,Saint Kitts and Nevis,,,left_only
38489,794794927.0,Stub,Konris Maynard,Saint Kitts and Nevis,,,left_only
38490,796076948.0,C,Robert Llewellyn Bradshaw,Saint Kitts and Nevis,,,left_only
38491,797053483.0,Start,Simeon Daniel,Saint Kitts and Nevis,,,left_only
38492,797760842.0,Start,List of Prime Ministers of Saint Kitts and Nevis,Saint Kitts and Nevis,,,left_only
38493,798766032.0,Stub,Kennedy Simmonds,Saint Kitts and Nevis,,,left_only
38494,799339256.0,Start,Timothy Harris,Saint Kitts and Nevis,,,left_only
38495,799930780.0,Stub,Ouboutou Tegremante,Saint Kitts and Nevis,,,left_only
38496,802273418.0,Stub,Eustace John,Saint Kitts and Nevis,,,left_only
38497,804081241.0,Start,Denzil Douglas,Saint Kitts and Nevis,,,left_only
38498,804862608.0,Start,Governor-General of Saint Kitts and Nevis,Saint Kitts and Nevis,,,left_only
38499,804942241.0,Start,Cuthbert Sebastian,Saint Kitts and Nevis,,,left_only
39573,690088836.0,Stub,List of mayors of Radoviš,Macedonia,,,left_only
39574,711339559.0,Start,Trifun Kostovski,Macedonia,,,left_only
39575,714327408.0,Start,Dimitar Dimitrov (writer),Macedonia,,,left_only
39576,715648720.0,Start,Jagnula Kunovska,Macedonia,,,left_only
39577,717927538.0,Start,Stevo Pendarovski,Macedonia,,,left_only
39578,724075817.0,Stub,Gordan Georgiev,Macedonia,,,left_only
39579,724421215.0,Stub,Slobodan Čašule,Macedonia,,,left_only
39580,724502588.0,Stub,Spiro Ristovski,Macedonia,,,left_only
39581,725551017.0,Start,Valon Saracini,Macedonia,,,left_only
39582,725560890.0,Stub,Mile Zechevikj,Macedonia,,,left_only
39583,725570133.0,Stub,Nikola Spasovski,Macedonia,,,left_only
39584,725570918.0,Stub,Vančo Šontevski,Macedonia,,,left_only
39585,725570977.0,Stub,Risto Gjorgjiev,Macedonia,,,left_only
39586,725577168.0,Stub,Vlado Misajlovski,Macedonia,,,left_only
39587,728545577.0,Stub,Ksente Bogoev,Macedonia,,,left_only
39588,736545789.0,Stub,Ferdinand Odžakov,Macedonia,,,left_only
39589,738375479.0,Stub,Slobodan Bogoevski,Macedonia,,,left_only
39590,738431228.0,Stub,Ministry of Environment and Physical Planning,Macedonia,,,left_only
39591,751054819.0,Stub,Vangel Ajanovski-Oče,Macedonia,,,left_only
39592,756341426.0,Stub,Emil Kirjas,Macedonia,,,left_only
39593,762110004.0,Stub,Abdylaqim Ademi,Macedonia,,,left_only
39594,763061803.0,Stub,Dobri Veličkovski,Macedonia,,,left_only
39595,764411930.0,Stub,Stanko Mladenovski,Macedonia,,,left_only
39596,765551331.0,Start,Siljan Avramovski,Macedonia,,,left_only
39597,771736771.0,Stub,Goran Mitevski,Macedonia,,,left_only
39598,774773036.0,Stub,Stevčo Jakimovski,Macedonia,,,left_only
39599,774773200.0,Stub,Mile Janakieski,Macedonia,,,left_only
39600,779048199.0,Stub,Ilija Dimovski,Macedonia,,,left_only
39601,780424320.0,C,Todor Petrov,Macedonia,,,left_only
39602,781819701.0,Start,Metodija Andonov-Čento,Macedonia,,,left_only
39603,783955998.0,Start,Vera Aceva,Macedonia,,,left_only
39604,784214010.0,Stub,Dragan Bogdanovski,Macedonia,,,left_only
39605,786138077.0,Stub,Ljupco Andonovski,Macedonia,,,left_only
39606,787391041.0,Start,Abdilaqim Ademi,Macedonia,,,left_only
39607,787914897.0,Start,Timco Mucunski,Macedonia,,,left_only
39608,787991725.0,Stub,Gabriela Konevska-Trajkovska,Macedonia,,,left_only
39609,787991780.0,Stub,Ilinka Mitreva,Macedonia,,,left_only
39610,788000145.0,Stub,Igor Džundev,Macedonia,,,left_only
39611,788026057.0,C,Ljube Boškoski,Macedonia,,,left_only
39612,788727080.0,Stub,Zoran Veruševski,Macedonia,,,left_only
39613,789073582.0,Start,Andrej Žernovski,Macedonia,,,left_only
39614,790065914.0,Stub,Mincho Jordanov,Macedonia,,,left_only
39615,790422718.0,Stub,Gordana Jankuloska,Macedonia,,,left_only
39616,790441999.0,Start,Sašo Mijalkov,Macedonia,,,left_only
39617,791059536.0,Stub,Maksim Dimitrievski,Macedonia,,,left_only
39618,791879937.0,Stub,Bojan Bojanovski,Macedonia,,,left_only
39619,791970429.0,C,Boris Trajkovski,Macedonia,,,left_only
39620,791991542.0,Start,Mirvan Xhemaili,Macedonia,,,left_only
39621,792146742.0,Start,Branko Crvenkovski,Macedonia,,,left_only
39622,792571494.0,Stub,Bujar Osmani,Macedonia,,,left_only
39623,795362031.0,Stub,Zoran Stavreski,Macedonia,,,left_only
39624,797194590.0,Start,Adnan Jashari,Macedonia,,,left_only
39625,797194679.0,Start,Radmila Šekerinska,Macedonia,,,left_only
39626,800739330.0,Start,Džordže Arsov,Macedonia,,,left_only
39627,801846630.0,Stub,Savo Klimovski,Macedonia,,,left_only
39628,803102189.0,Stub,Alajdin Demiri,Macedonia,,,left_only
39629,804647547.0,C,President of Macedonia,Macedonia,,,left_only
39630,804752356.0,C,Kiro Gligorov,Macedonia,,,left_only
39631,805813045.0,C,Mayor of the City of Skopje,Macedonia,,,left_only
39632,805874186.0,GA,Gjorge Ivanov,Macedonia,,,left_only
39633,806155912.0,Start,Josif Mihajlović Jurukovski,Macedonia,,,left_only
39634,806217021.0,C,Zoran Jolevski,Macedonia,,,left_only
39635,806504184.0,C,Zoran Zaev,Macedonia,,,left_only
39636,806835501.0,Start,Teuta Arifi,Macedonia,,,left_only
39637,807092813.0,Start,Koce Trajanovski,Macedonia,,,left_only
39928,694519009.0,Start,Zaur Avidzba,Abkhazia,,,left_only
39929,704938340.0,Start,Zaur Ardzinba,Abkhazia,,,left_only
39930,721094337.0,Stub,Zurab Achba,Abkhazia,,,left_only
39931,723736482.0,Stub,Shota Shamatava,Abkhazia,,,left_only
39932,755193428.0,Stub,Sumbat Saakian,Abkhazia,,,left_only
39933,786203824.0,Start,Zakan Jugelia,Abkhazia,,,left_only
39934,789039267.0,Stub,Raul Eshba,Abkhazia,,,left_only
39935,789818648.0,Start,Bagrat Shinkuba,Abkhazia,,,left_only
39936,789818730.0,Start,Samson Chanba,Abkhazia,,,left_only
39937,798644673.0,Stub,Efrem Eshba,Abkhazia,,,left_only
39938,799618550.0,Start,Garri Aiba,Abkhazia,,,left_only
39939,802029007.0,Start,Zhiuli Shartava,Abkhazia,,,left_only
39940,803018106.0,Stub,Yuri Voronov,Abkhazia,,,left_only
39941,805063877.0,Stub,Gennadi Berulava,Abkhazia,,,left_only
39942,805775169.0,Start,Guram Gabiskiria,Abkhazia,,,left_only
39943,805967589.0,C,Nestor Lakoba,Abkhazia,,,left_only
42509,703037968.0,Start,Young Vivian,Niuean,,,left_only
42510,763768679.0,Start,Robert Rex,Niuean,,,left_only
42511,766068997.0,Stub,Atapana Siakimotu,Niuean,,,left_only
42512,766068998.0,Stub,Ahohiva Levi,Niuean,,,left_only
42513,766069253.0,Stub,Bill Vakaafi Motufoou,Niuean,,,left_only
42514,766069256.0,Stub,Pokotoa Sipeli,Niuean,,,left_only
42515,766069372.0,Stub,Terry Coe,Niuean,,,left_only
42516,766069407.0,Stub,Togiavalu Pihigia,Niuean,,,left_only
42517,766069520.0,Stub,Hima Douglas,Niuean,,,left_only
42518,766069576.0,Stub,Dalton Tagelagi,Niuean,,,left_only
42519,770018880.0,Start,Michael Jackson (journalist),Niuean,,,left_only
42520,771152922.0,Stub,Enetama Lipitoa,Niuean,,,left_only
42521,775947817.0,Stub,Sani Lakatani,Niuean,,,left_only
42522,779369629.0,C,O'Love Jacobsen,Niuean,,,left_only
42523,779369671.0,Stub,Sisilia Talagi,Niuean,,,left_only
42524,779369724.0,Stub,Salilo Tongia,Niuean,,,left_only
42525,779369750.0,Stub,Va'aiga Tukuitonga,Niuean,,,left_only
42526,796747380.0,Stub,Togia Sioneholo,Niuean,,,left_only
42527,797757076.0,Start,Premier of Niue,Niuean,,,left_only
42528,803392432.0,C,Toke Talagi,Niuean,,,left_only
42529,804027488.0,Start,Frank Lui,Niuean,,,left_only
42530,806666816.0,Stub,Joan Viliamu,Niuean,,,left_only
42678,703133769.0,Stub,Noel Ahipeaud,Ivorian,,,left_only
42679,708711840.0,Start,Tuo Fozié,Ivorian,,,left_only
42680,710585105.0,Stub,Léon Emmanuel Monnet,Ivorian,,,left_only
42681,713176326.0,Stub,Pierre Djédji Amondji,Ivorian,,,left_only
42682,714183793.0,Stub,Auguste Denise,Ivorian,,,left_only
42683,714200423.0,Stub,Philippe Yacé,Ivorian,,,left_only
42684,714822110.0,Stub,Jean-Baptiste Mockey,Ivorian,,,left_only
42685,725560428.0,Start,Séry Bailly,Ivorian,,,left_only
42686,729142061.0,Stub,Laurent Akoun,Ivorian,,,left_only
42687,733596387.0,Stub,Daniel Aka Ahizi,Ivorian,,,left_only
42688,735408389.0,Stub,Bamba Mamadou,Ivorian,,,left_only
42689,743428650.0,Start,Simeon Aké,Ivorian,,,left_only
42690,744522699.0,Stub,Martial Joseph Ahipeaud,Ivorian,,,left_only
42691,744920472.0,Start,Innocent Anaky,Ivorian,,,left_only
42692,749766207.0,Stub,First Lady of Ivory Coast,Ivorian,,,left_only
42693,750972336.0,Start,Queen Pokou,Ivorian,,,left_only
42694,755479236.0,C,Émile Boga Doudou,Ivorian,,,left_only
42695,756060260.0,Stub,Adrien Jules Jean Bonhoure,Ivorian,,,left_only
42696,760303900.0,Start,Seydou Diarra,Ivorian,,,left_only
42697,760304267.0,Stub,Gilbert Aké,Ivorian,,,left_only
42698,760393381.0,Start,Jeannot Ahoussou-Kouadio,Ivorian,,,left_only
42699,764345360.0,B,Henri Konan Bédié,Ivorian,,,left_only
42700,766524815.0,Start,Affoussiata Bamba-Lamine,Ivorian,,,left_only
42701,767265950.0,Stub,Lambert Amon Tanoh,Ivorian,,,left_only
42702,768302622.0,Start,Jean-Louis Billon,Ivorian,,,left_only
42703,769591168.0,Stub,Robert Beugré Mambé,Ivorian,,,left_only
42704,770710515.0,C,Abdourahmane Cissé,Ivorian,,,left_only
42705,774756970.0,Start,Vice-President of Ivory Coast,Ivorian,,,left_only
42706,776348888.0,Start,Jean Konan Banny,Ivorian,,,left_only
42707,779741800.0,C,Jacqueline Oble,Ivorian,,,left_only
42708,784395089.0,Stub,Ernest Boka,Ivorian,,,left_only
42709,787310676.0,Stub,François Amichia,Ivorian,,,left_only
42710,787437447.0,Stub,Aboubakar Diaby Ouattara,Ivorian,,,left_only
42711,788065543.0,Stub,Youssouf Bakayoko,Ivorian,,,left_only
42712,788330706.0,GA,Chantal Compaoré,Ivorian,,,left_only
42713,788421683.0,Start,Désiré Tagro,Ivorian,,,left_only
42714,788462808.0,C,Mamadou Koulibaly,Ivorian,,,left_only
42715,788498433.0,C,Pascal Affi N'Guessan,Ivorian,,,left_only
42716,788825623.0,Stub,Étienne Djaument,Ivorian,,,left_only
42717,788825785.0,Stub,Victor Biaka Boda,Ivorian,,,left_only
42718,788827789.0,Stub,Loubo Augustin Djessou,Ivorian,,,left_only
42719,789476691.0,Stub,Aké Loba,Ivorian,,,left_only
42720,790279945.0,C,Aya Virginie Toure,Ivorian,,,left_only
42721,791177695.0,Stub,Bernard Zadi Zaourou,Ivorian,,,left_only
42722,793682835.0,Start,Charles Konan Banny,Ivorian,,,left_only
42723,794194775.0,Stub,Christine Adjobi,Ivorian,,,left_only
42724,797168824.0,C,Charles Blé Goudé,Ivorian,,,left_only
42725,797736207.0,Stub,Sékou Sanogo,Ivorian,,,left_only
42726,797737768.0,Start,Paul Antoine Bohoun Bouabré,Ivorian,,,left_only
42727,799061508.0,Stub,Léon Konan Koffi,Ivorian,,,left_only
42728,799484902.0,C,Paul Yao N'Dré,Ivorian,,,left_only
42729,799873303.0,Start,Daniel Kablan Duncan,Ivorian,,,left_only
42730,800116906.0,Start,Augustin Thiam,Ivorian,,,left_only
42731,800169882.0,C,Simone Gbagbo,Ivorian,,,left_only
42732,800750399.0,Start,Henriette Diabaté,Ivorian,,,left_only
42733,801282263.0,B,Félix Houphouët-Boigny,Ivorian,,,left_only
42734,802048749.0,Start,List of heads of government of Ivory Coast,Ivorian,,,left_only
42735,802374350.0,Stub,Michel Amani N'Guessan,Ivorian,,,left_only
42736,802893546.0,Stub,Jeanne Gervais,Ivorian,,,left_only
42737,802893568.0,Stub,Gladys Anoma,Ivorian,,,left_only
42738,803820918.0,Start,Robert Guéï,Ivorian,,,left_only
42739,803821448.0,Start,List of heads of state of Ivory Coast,Ivorian,,,left_only
42740,803941004.0,C,Francis Wodié,Ivorian,,,left_only
42741,804108433.0,Stub,List of vice-presidents of Ivory Coast,Ivorian,,,left_only
42742,805044583.0,Start,Amadou Gon Coulibaly,Ivorian,,,left_only
42743,806218350.0,B,Alassane Ouattara,Ivorian,,,left_only
42744,806287770.0,Start,Hortense Aka-Anghui,Ivorian,,,left_only
42745,806421729.0,Start,Dagobert Banzio,Ivorian,,,left_only
42746,806973935.0,C,Guillaume Soro,Ivorian,,,left_only
42747,807159456.0,C,Laurent Gbagbo,Ivorian,,,left_only
42748,807296683.0,Stub,Patrick Achi,Ivorian,,,left_only
42831,703436823.0,Start,Simon Jenko,Carniolan,,,left_only
42832,713766077.0,C,Ivan Hribar,Carniolan,,,left_only
42833,716507073.0,Start,Gregor Žerjav,Carniolan,,,left_only
42834,716574519.0,C,Karel Dežman,Carniolan,,,left_only
42835,717350390.0,B,Josip Vilfan,Carniolan,,,left_only
42836,717669055.0,Start,Luka Svetec,Carniolan,,,left_only
42837,726434981.0,Start,Janez Evangelist Krek,Carniolan,,,left_only
42838,729435354.0,Start,Etbin Henrik Costa,Carniolan,,,left_only
42839,738955897.0,Stub,Mihael Preiss,Carniolan,,,left_only
42840,741794691.0,C,Karel Lavrič,Carniolan,,,left_only
42841,744636212.0,Start,Lovro Toman,Carniolan,,,left_only
42842,747945423.0,Start,Bogumil Vošnjak,Carniolan,,,left_only
42843,755713654.0,Start,Fran Levstik,Carniolan,,,left_only
42844,769425247.0,C,Ivan Tavčar,Carniolan,,,left_only
42845,777587526.0,Stub,Josip Jurčič,Carniolan,,,left_only
42846,777588436.0,Start,Josip Vošnjak,Carniolan,,,left_only
42847,780281974.0,Start,Janez Bleiweis,Carniolan,,,left_only
42848,789072979.0,Start,Andrej Einspieler,Carniolan,,,left_only
42849,789263095.0,Start,Ivan Lorković,Carniolan,,,left_only
42850,789273199.0,Start,Janko Kersnik,Carniolan,,,left_only
42851,789681987.0,Start,Ivan Šusteršič,Carniolan,,,left_only
42852,790213148.0,Start,Philipp von Cobenzl,Carniolan,,,left_only
42984,703819839.0,Stub,Petrus Compton,Saint Lucian,,,left_only
42985,709912281.0,Stub,Harold Dalson,Saint Lucian,,,left_only
42986,709912316.0,C,Keith Mondesir,Saint Lucian,,,left_only
42987,709914459.0,Start,Rufus Bousquet,Saint Lucian,,,left_only
42988,716376965.0,Stub,Len Ishmael,Saint Lucian,,,left_only
42989,725910626.0,Stub,Dominic Fedee,Saint Lucian,,,left_only
42990,726374537.0,Stub,Philip Pierre,Saint Lucian,,,left_only
42991,730756593.0,Stub,Hunter J. Francois,Saint Lucian,,,left_only
42992,736890123.0,Start,Vincent Floissac,Saint Lucian,,,left_only
42993,736890129.0,GA,George Odlum,Saint Lucian,,,left_only
42994,757044849.0,Stub,Ezechiel Joseph,Saint Lucian,,,left_only
42995,757615710.0,Start,Menissa Rambally,Saint Lucian,,,left_only
42996,760443772.0,Stub,Damian Greaves,Saint Lucian,,,left_only
42997,770812205.0,Start,Richard Frederick,Saint Lucian,,,left_only
42998,770813700.0,Stub,Oliver Plunkett (judge),Saint Lucian,,,left_only
42999,770814043.0,Stub,Gale Rigobert,Saint Lucian,,,left_only
43000,773251387.0,Start,Heraldine Rock,Saint Lucian,,,left_only
43001,775241473.0,Start,Peter Josie,Saint Lucian,,,left_only
43002,776374386.0,Stub,Jeannine Compton-Antoine,Saint Lucian,,,left_only
43003,780250934.0,Start,Lenard Montoute,Saint Lucian,,,left_only
43004,782356881.0,Stub,Louis George (politician),Saint Lucian,,,left_only
43005,783539672.0,Start,Mario Michel,Saint Lucian,,,left_only
43006,785101569.0,C,Marie Grace Augustin,Saint Lucian,,,left_only
43007,788727127.0,Stub,Alvina Reynolds,Saint Lucian,,,left_only
43008,789789654.0,Stub,Arsene James,Saint Lucian,,,left_only
43009,790422420.0,Start,Sarah Flood-Beaubrun,Saint Lucian,,,left_only
43010,797760898.0,Start,List of Prime Ministers of Saint Lucia,Saint Lucian,,,left_only
43011,797914672.0,Start,Allan Louisy,Saint Lucian,,,left_only
43012,797914793.0,Start,Allen Montgomery Lewis,Saint Lucian,,,left_only
43013,797970479.0,Stub,Boswell Williams,Saint Lucian,,,left_only
43014,798164824.0,Start,George Charles,Saint Lucian,,,left_only
43015,798165675.0,Start,George Mallet,Saint Lucian,,,left_only
43016,798468800.0,Start,Julian Hunte,Saint Lucian,,,left_only
43017,799034545.0,Stub,Morella Joseph,Saint Lucian,,,left_only
43018,799842307.0,C,Pearlette Louisy,Saint Lucian,,,left_only
43019,800680583.0,Start,Stanislaus A. James,Saint Lucian,,,left_only
43020,800696547.0,C,Stephenson King,Saint Lucian,,,left_only
43021,801070713.0,Stub,Edmund Estephane,Saint Lucian,,,left_only
43022,801096569.0,Start,Vaughan Lewis,Saint Lucian,,,left_only
43023,801276622.0,Stub,Winston Cenac,Saint Lucian,,,left_only
43024,801563305.0,Stub,Emma Hippolyte,Saint Lucian,,,left_only
43025,803737879.0,B,John Compton,Saint Lucian,,,left_only
43026,803917686.0,C,Kenny Anthony,Saint Lucian,,,left_only
43027,805577053.0,Stub,Michael Pilgrim,Saint Lucian,,,left_only
43028,805945778.0,Start,Allen Chastanet,Saint Lucian,,,left_only
43029,806408228.0,C,Governor-General of Saint Lucia,Saint Lucian,,,left_only
43030,807198874.0,Stub,Guy Joseph,Saint Lucian,,,left_only
43031,704636517.0,C,Thomas François Burgers,South African Republic,,,left_only
43032,716703178.0,Start,Willem Cornelis Janse van Rensburg,South African Republic,,,left_only
43033,736854878.0,Start,Harry Struben,South African Republic,,,left_only
43034,772410051.0,Stub,"Kruger House, Pretoria",South African Republic,,,left_only
43035,776299184.0,Start,Boekenhoutfontein,South African Republic,,,left_only
43036,783371989.0,Start,State President of the South African Republic,South African Republic,,,left_only
43037,787611475.0,C,Transvaal Civil War,South African Republic,,,left_only
43038,793010122.0,Start,"Heroes' Acre, Pretoria",South African Republic,,,left_only
43039,794593079.0,Start,"Clarens, Switzerland",South African Republic,,,left_only
43040,800488968.0,Start,"Statue of Paul Kruger, Church Square",South African Republic,,,left_only
43041,801877418.0,C,Krugersdorp,South African Republic,,,left_only
43042,804250196.0,C,Ben Viljoen,South African Republic,,,left_only
43043,804713000.0,C,Krugerrand,South African Republic,,,left_only
43044,805927999.0,GA,Kruger National Park,South African Republic,,,left_only
43045,807269619.0,C,Piet Joubert,South African Republic,,,left_only
43046,704789339.0,Stub,Céleo Arias,Hondura,,,left_only
43047,705346284.0,Stub,Juan Francisco de Molina,Hondura,,,left_only
43048,705346304.0,Stub,Felipe Neri Medina,Hondura,,,left_only
43049,705346378.0,Stub,Mariano Garrigó,Hondura,,,left_only
43050,705346396.0,Stub,José María Bustillo (Honduran),Hondura,,,left_only
43051,705346462.0,Stub,Francisco Gómez (acting president),Hondura,,,left_only
43052,705346724.0,Stub,Salvador Aguirre (Honduras),Hondura,,,left_only
43053,705346741.0,Stub,Francisco Bográn,Hondura,,,left_only
43054,707824636.0,Stub,Juan Ramón Salgado,Hondura,,,left_only
43055,710598059.0,Stub,Juan José Alvarado,Hondura,,,left_only
43056,711170881.0,Stub,Juan Ángel Almendares Bonilla,Hondura,,,left_only
43057,715365023.0,Stub,Oscar Kilgore,Hondura,,,left_only
43058,716882219.0,Stub,Roberto Flores Bermúdez,Hondura,,,left_only
43059,717808509.0,Start,María Josefa Lastiri,Hondura,,,left_only
43060,718132526.0,Stub,Eduardo Bueso,Hondura,,,left_only
43061,719637124.0,Start,Elvin Santos,Hondura,,,left_only
43062,722006681.0,Stub,Marlon Pascua,Hondura,,,left_only
43063,722195895.0,Stub,Domingo Vásquez,Hondura,,,left_only
43064,722442093.0,Stub,Enrique Flores Lanza,Hondura,,,left_only
43065,723153856.0,Stub,Renan Inestroza,Hondura,,,left_only
43066,723304712.0,Stub,Mauricio Oliva,Hondura,,,left_only
43067,725105423.0,Stub,Armando Calidonio,Hondura,,,left_only
43068,725343188.0,Stub,Carlos Urbizo,Hondura,,,left_only
43069,725459626.0,Stub,Mauricio Villeda,Hondura,,,left_only
43070,725591760.0,Stub,Miguel Andonie Fernández,Hondura,,,left_only
43071,726246603.0,Stub,Yolani Batres,Hondura,,,left_only
43072,726766670.0,Stub,Manuel Antonio Alberto Zelaya,Hondura,,,left_only
43073,742298045.0,Stub,Abraham Alvarenga Urbina,Hondura,,,left_only
43074,745838578.0,Start,Agapito Robleda Castro,Hondura,,,left_only
43075,746117875.0,Stub,César Castellanos (politician),Hondura,,,left_only
43076,748832681.0,Stub,Adolfo Lionel Sevilla,Hondura,,,left_only
43077,749185736.0,Start,Vicente Tosta,Hondura,,,left_only
43078,749663646.0,Start,Aníbal Delgado Fiallos,Hondura,,,left_only
43079,749695259.0,Stub,Toribio Aguilera,Hondura,,,left_only
43080,757092750.0,Stub,Nora Gúnera de Melgar,Hondura,,,left_only
43081,757561950.0,Start,Elizabeth Azcona Bocock,Hondura,,,left_only
43082,757617005.0,Stub,Sandra Midence,Hondura,,,left_only
43083,764646645.0,Stub,Juan Alberto Melgar Castro,Hondura,,,left_only
43084,773563309.0,Stub,Vilma Cecilia Morales,Hondura,,,left_only
43085,777334919.0,Start,Carlos Zúñiga Figueroa,Hondura,,,left_only
43086,777592070.0,Stub,José Adolfo Alvarado Lara,Hondura,,,left_only
43087,777669643.0,Stub,Juan Carlos Zuniga,Hondura,,,left_only
43088,777796210.0,Stub,Julio Lozano Díaz,Hondura,,,left_only
43089,779557210.0,Stub,Juan Carlos Valenzuela (politician),Hondura,,,left_only
43090,783532382.0,Stub,Mario Alexander Barahona Martínez,Hondura,,,left_only
43091,783534612.0,Stub,Mario Canahuati,Hondura,,,left_only
43092,784048015.0,Start,Matías Funes,Hondura,,,left_only
43093,786165176.0,Stub,María Antonieta de Bográn,Hondura,,,left_only
43094,789599196.0,Stub,Orle Solís,Hondura,,,left_only
43095,789599235.0,Stub,Sergio Arturo Castellanos,Hondura,,,left_only
43096,789599241.0,Stub,Hipólita Rodríguez,Hondura,,,left_only
43097,789599248.0,Stub,German Leitzelar,Hondura,,,left_only
43098,789599260.0,Stub,Marco Antonio Andino,Hondura,,,left_only
43099,789599265.0,Stub,Lisandro Mauricio Arias,Hondura,,,left_only
43100,789599272.0,Stub,José Azcona Bocock,Hondura,,,left_only
43101,789599288.0,Stub,Yadira Bendaña,Hondura,,,left_only
43102,789599294.0,Stub,José Rosario Bonano,Hondura,,,left_only
43103,789599300.0,Stub,Romualdo Bueso Melghem,Hondura,,,left_only
43104,789599316.0,Stub,Teófilo Enamorado,Hondura,,,left_only
43105,789599319.0,Stub,Gabo Alfredo Jalil,Hondura,,,left_only
43106,789599323.0,Stub,Eleazar Alexander Juárez,Hondura,,,left_only
43107,789599331.0,Stub,Carlos Alfredo Lara Watson,Hondura,,,left_only
43108,789599336.0,Stub,Wenceslao Lara Orellana,Hondura,,,left_only
43109,789599343.0,Stub,Maria Aracely Leiva,Hondura,,,left_only
43110,789599348.0,Stub,Fredy Renán Nájera,Hondura,,,left_only
43111,789599355.0,Stub,Waldina Paz,Hondura,,,left_only
43112,789599360.0,Stub,Jesús Dagoberto Perdomo,Hondura,,,left_only
43113,789599369.0,Stub,Modesto Rodas Alvarado,Hondura,,,left_only
43114,789599374.0,Stub,Erick Mauricio Rodríguez,Hondura,,,left_only
43115,789599381.0,Stub,Víctor Rolando Sabillón,Hondura,,,left_only
43116,789599388.0,Stub,Dennis Antonio Sánchez,Hondura,,,left_only
43117,789599393.0,Stub,Elman Joel Sandoval,Hondura,,,left_only
43118,789599398.0,Stub,Mario Edgardo Segura,Hondura,,,left_only
43119,789599401.0,Stub,Perla Simons,Hondura,,,left_only
43120,789599406.0,Stub,Felipe Zúniga del Cid,Hondura,,,left_only
43121,789599415.0,Stub,Juan Francisco Argeñal,Hondura,,,left_only
43122,789599418.0,Stub,Nasry Asfura,Hondura,,,left_only
43123,789599427.0,Stub,Yaudet Burbara,Hondura,,,left_only
43124,789599429.0,Stub,Oscar Orlando Burgos,Hondura,,,left_only
43125,789599434.0,Stub,Wilfredo Bustillo Castellanos,Hondura,,,left_only
43126,789599444.0,Stub,Victoria Carrasco,Hondura,,,left_only
43127,789599449.0,Stub,Gladys Bernarda Casco,Hondura,,,left_only
43128,789599455.0,Stub,Rigoberto Chang Castillo,Hondura,,,left_only
43129,789599463.0,Stub,María Teresa Chávez,Hondura,,,left_only
43130,789599476.0,Stub,Alberto Chedrani,Hondura,,,left_only
43131,789599485.0,Stub,Celín Discua,Hondura,,,left_only
43132,789599488.0,Stub,Martha Concepción Figueroa,Hondura,,,left_only
43133,789599496.0,Stub,Brenda Mercedes Flores,Hondura,,,left_only
43134,789599506.0,Stub,Julio César Gámez Interiano,Hondura,,,left_only
43135,789599509.0,Stub,Roberto Gámez Panchamé,Hondura,,,left_only
43136,789599513.0,Stub,Miguel Ángel Gámez,Hondura,,,left_only
43137,789599522.0,Stub,Lorena Enriqueta Herrera,Hondura,,,left_only
43138,789599528.0,Stub,Rodolfo Irias Navas,Hondura,,,left_only
43139,789599532.0,Stub,Abraham Kafati Díaz,Hondura,,,left_only
43140,789599542.0,Stub,Juan Fernando Lobo,Hondura,,,left_only
43141,789599547.0,Stub,Miguel Edgardo Martínez,Hondura,,,left_only
43142,789599561.0,Stub,Eliseo Noel Mejía,Hondura,,,left_only
43143,789599562.0,Stub,Oscar Ramón Nájera,Hondura,,,left_only
43144,789599568.0,Stub,Claudio Roberto Perdomo,Hondura,,,left_only
43145,789599570.0,Stub,Mario Alonso Pérez López,Hondura,,,left_only
43146,789599575.0,Stub,Milton Jesús Puerto,Hondura,,,left_only
43147,789599581.0,Stub,Oswaldo Ramos Soto,Hondura,,,left_only
43148,789599586.0,Stub,Donaldo Ernesto Reyes,Hondura,,,left_only
43149,789599589.0,Stub,Antonio Rivera Callejas,Hondura,,,left_only
43150,789599594.0,Stub,José Juan Rivera Ramos,Hondura,,,left_only
43151,789599607.0,Stub,Salvador Valeriano Pineda,Hondura,,,left_only
43152,789599609.0,Stub,Welsy Vásquez,Hondura,,,left_only
43153,789599615.0,Stub,José Rodolfo Zelaya,Hondura,,,left_only
43154,789599618.0,Stub,Yessenia Coely Zelaya,Hondura,,,left_only
43155,789599620.0,Stub,Adela Elizabeth Zúñiga,Hondura,,,left_only
43156,789600726.0,Stub,Ramón Villeda Bermúdez,Hondura,,,left_only
43157,789600760.0,Stub,Jorge Aguilar Paredes,Hondura,,,left_only
43158,789600953.0,Stub,Andrés Pavón,Hondura,,,left_only
43159,789600975.0,Stub,Marvin Ponce,Hondura,,,left_only
43160,789601015.0,Stub,Jorge Elvir,Hondura,,,left_only
43161,789601536.0,Stub,Rodolfo Padilla Sunseri,Hondura,,,left_only
43162,790412309.0,Start,Mireya Agüero,Hondura,,,left_only
43163,790412332.0,Start,María Dolores Agüero,Hondura,,,left_only
43164,791906998.0,Stub,Rosa Elena Bonilla,Hondura,,,left_only
43165,791907048.0,C,Xiomara Castro,Hondura,,,left_only
43166,792070727.0,Stub,Eduardo Gauggel Medina,Hondura,,,left_only
43167,793178396.0,Start,Carlos Escaleras,Hondura,,,left_only
43168,793179072.0,Stub,Carlos Gabriel Kattán,Hondura,,,left_only
43169,793183704.0,Stub,Carlos Ramón Aguilar Guifarro,Hondura,,,left_only
43170,794482135.0,Stub,José Alfredo Saavedra,Hondura,,,left_only
43171,795765167.0,Stub,César Ham,Hondura,,,left_only
43172,796180350.0,Start,Mario Fernando Hernández,Hondura,,,left_only
43173,796291215.0,Stub,Eduardo Gauggel Rivas,Hondura,,,left_only
43174,796597000.0,Start,Bernard Martínez Valerio,Hondura,,,left_only
43175,796635107.0,Stub,Felicito Ávila,Hondura,,,left_only
43176,796709335.0,Start,Patricia Rodas,Hondura,,,left_only
43177,797385790.0,Start,Carlos Humberto Reyes,Hondura,,,left_only
43178,797499354.0,Stub,Carlos López Contreras,Hondura,,,left_only
43179,797677168.0,Stub,Sadia Argueta,Hondura,,,left_only
43180,797684912.0,Start,Margarita Dabdoub Sikaffi,Hondura,,,left_only
43181,798394355.0,Stub,José Tomás Ponce,Hondura,,,left_only
43182,798401950.0,Start,Mary Elizabeth Flores,Hondura,,,left_only
43183,798460200.0,C,José Cecilio del Valle,Hondura,,,left_only
43184,799220342.0,Start,David Romero Ellner,Hondura,,,left_only
43185,799300330.0,Stub,Norma Haydee Calderón,Hondura,,,left_only
43186,799341541.0,Stub,Olman Danery Maldonado,Hondura,,,left_only
43187,800166969.0,Stub,Silvia Ayala,Hondura,,,left_only
43188,800643446.0,Stub,Ricardo Álvarez Arias,Hondura,,,left_only
43189,801194944.0,Stub,Efraín Bu Girón,Hondura,,,left_only
43190,801414837.0,Stub,Walter Antonio Chávez,Hondura,,,left_only
43191,801499755.0,Stub,Elvia Josefina Amador,Hondura,,,left_only
43192,802009929.0,C,Marlon Tábora Muñoz,Hondura,,,left_only
43193,802955117.0,Start,Marco Aurelio Soto,Hondura,,,left_only
43194,803808871.0,Stub,Arnoldo José Avilés García,Hondura,,,left_only
43195,803835401.0,Stub,Coronado Chávez,Hondura,,,left_only
43196,803835755.0,Start,Florencio Xatruch,Hondura,,,left_only
43197,803836305.0,Start,Ramón Villeda Morales,Hondura,,,left_only
43198,803836472.0,Stub,Roberto Suazo Córdova,Hondura,,,left_only
43199,803836551.0,C,Rafael Leonardo Callejas Romero,Hondura,,,left_only
43200,804127803.0,Stub,Vicente Mejía Colindres,Hondura,,,left_only
43201,804127877.0,Stub,Miguel Paz Barahona,Hondura,,,left_only
43202,804128734.0,Stub,Rafael López Gutiérrez,Hondura,,,left_only
43203,804129698.0,Stub,Francisco Bertrand,Hondura,,,left_only
43204,804130200.0,Stub,Miguel R. Dávila,Hondura,,,left_only
43205,804130440.0,Stub,Manuel Bonilla,Hondura,,,left_only
43206,804131272.0,Stub,Terencio Sierra,Hondura,,,left_only
43207,804131604.0,Start,Policarpo Bonilla,Hondura,,,left_only
43208,804131948.0,Stub,Ponciano Leiva,Hondura,,,left_only
43209,804133123.0,Start,José María Medina,Hondura,,,left_only
43210,804133555.0,Start,José Santos Guardiola,Hondura,,,left_only
43211,804138803.0,Stub,José Lino Matute,Hondura,,,left_only
43212,804139010.0,Stub,José Santiago Bueso,Hondura,,,left_only
43213,804139208.0,Stub,Francisco de Aguilar (politician),Hondura,,,left_only
43214,804139258.0,Stub,José Francisco Montes,Hondura,,,left_only
43215,804139730.0,Start,Victoriano Castellanos,Hondura,,,left_only
43216,804139800.0,Stub,Francisco Inestroza,Hondura,,,left_only
43217,804139868.0,Stub,Francisco Cruz Castro,Hondura,,,left_only
43218,804140099.0,Stub,Marcelino Mejía,Hondura,,,left_only
43219,804140159.0,Stub,Crescencio Gómez,Hondura,,,left_only
43220,804140314.0,Stub,Miguel Oquelí Bustillo,Hondura,,,left_only
43221,804140447.0,Stub,Francisco Bueso,Hondura,,,left_only
43222,804587565.0,Start,Gabriela Nuñez,Hondura,,,left_only
43223,805055004.0,Stub,Augusto Coello,Hondura,,,left_only
43224,805248828.0,Stub,George Romeo Silvestri,Hondura,,,left_only
43225,805625721.0,Start,Salvador Nasralla,Hondura,,,left_only
43226,805984131.0,Stub,Edmundo Orellana,Hondura,,,left_only
43227,806178799.0,C,Rafael Pineda Ponce,Hondura,,,left_only
43228,806796619.0,Stub,Selvin Laínez,Hondura,,,left_only
43229,806875293.0,Stub,Ana Julia García,Hondura,,,left_only
43230,806948506.0,Stub,Francisco Ferrera,Hondura,,,left_only
43231,807445333.0,Start,Juan Ángel Arias Boquín,Hondura,,,left_only
43232,807445395.0,Stub,Francisco Zelaya y Ayes,Hondura,,,left_only
44036,706771757.0,Stub,Vicente Flores,Incan,,,left_only
44037,783850857.0,Start,María Sumire,Incan,,,left_only
44038,801587917.0,C,Túpac Amaru,Incan,,,left_only
44039,803601556.0,C,Pachacuti,Incan,,,left_only
44040,804527512.0,C,Túpac Katari,Incan,,,left_only
44041,805475200.0,C,Hilaria Supa,Incan,,,left_only
44042,806761543.0,C,Túpac Amaru II,Incan,,,left_only
44327,707217873.0,C,Khozh-Ahmed Noukhayev,Chechen,,,left_only
44328,762868684.0,Stub,Alibek Delimkhanov,Chechen,,,left_only
44329,765616552.0,Start,Beibulat Taimiev,Chechen,,,left_only
44330,772274868.0,Stub,Isa Gendergenoevsky,Chechen,,,left_only
44331,782430810.0,Stub,Ibragim Khultygov,Chechen,,,left_only
44332,783907075.0,C,Movladi Udugov,Chechen,,,left_only
44333,784167327.0,Start,Doku Zavgayev,Chechen,,,left_only
44334,786231010.0,Start,Head of the Chechen Republic,Chechen,,,left_only
44335,787163671.0,Stub,Mairbek Sheripov,Chechen,,,left_only
44336,789327678.0,C,Alu Alkhanov,Chechen,,,left_only
44337,789328171.0,Start,Adam Delimkhanov,Chechen,,,left_only
44338,789949907.0,Stub,Aslambek Aslakhanov,Chechen,,,left_only
44339,791803238.0,Start,Ruslan Khasbulatov,Chechen,,,left_only
44340,794171049.0,Stub,Sergey Abramov (politician),Chechen,,,left_only
44341,794893770.0,Start,Malik Saidullaev,Chechen,,,left_only
44342,797214106.0,B,Akhmed Zakayev,Chechen,,,left_only
44343,797258871.0,Start,Sheikh Mansur,Chechen,,,left_only
44344,798580067.0,Start,Ali Mitayev,Chechen,,,left_only
44345,801036587.0,Start,Turpal-Ali Atgeriyev,Chechen,,,left_only
44346,802665757.0,C,Akhmad Kadyrov,Chechen,,,left_only
44347,802950350.0,C,Dzhokhar Dudayev,Chechen,,,left_only
44348,803177211.0,Start,Ilyas Akhmadov,Chechen,,,left_only
44349,803469952.0,B,Ruslan Gelayev,Chechen,,,left_only
44350,804275742.0,Start,President of Ichkeria,Chechen,,,left_only
44351,804276832.0,Stub,Said-Khasanom Abumuslimov,Chechen,,,left_only
44352,804276940.0,C,Vakha Arsanov,Chechen,,,left_only
44353,804277603.0,B,Shamil Basayev,Chechen,,,left_only
44354,804277842.0,Start,Supyan Abdullayev,Chechen,,,left_only
44355,804279009.0,C,Zelimkhan Yandarbiyev,Chechen,,,left_only
44356,804279119.0,C,Aslan Maskhadov,Chechen,,,left_only
44357,804279165.0,C,Abdul-Halim Sadulayev,Chechen,,,left_only
44358,804279341.0,B,Dokka Umarov,Chechen,,,left_only
44359,804557776.0,Start,Tapa Tchermoeff,Chechen,,,left_only
44360,805794113.0,C,Umar Dzhabrailov,Chechen,,,left_only
44361,805869321.0,FA,Ramzan Kadyrov,Chechen,,,left_only
44362,807180397.0,Stub,Idris Gaibov,Chechen,,,left_only
44363,807354708.0,Start,Ruslan Alikhadzhiyev,Chechen,,,left_only
44364,807454176.0,B,Ruslan Yamadayev,Chechen,,,left_only
44592,708727189.0,Start,Terry Le Main,Jersey,,,left_only
44593,708727221.0,Start,Paul Routier,Jersey,,,left_only
44594,708766654.0,Start,Mike Vibert,Jersey,,,left_only
44595,710334019.0,Stub,Sean Power (Jersey),Jersey,,,left_only
44596,710503170.0,Start,Leonard Norman,Jersey,,,left_only
44597,717911161.0,Start,Ben Shenton,Jersey,,,left_only
44598,720430005.0,Stub,Robert Le Masurier,Jersey,,,left_only
44599,722988899.0,Stub,Kevin C. Lewis,Jersey,,,left_only
44600,724891592.0,Stub,Rob Duhamel,Jersey,,,left_only
44601,725737326.0,Stub,Patrick J. D. Ryan,Jersey,,,left_only
44602,737014330.0,Start,Philippe de Carteret II,Jersey,,,left_only
44603,740998059.0,Start,Connétable (Jersey and Guernsey),Jersey,,,left_only
44604,742413962.0,Stub,Alan J. H. Maclean,Jersey,,,left_only
44605,745348113.0,Start,Michel Couriard,Jersey,,,left_only
44606,754330569.0,Start,Guy de Faye,Jersey,,,left_only
44607,766480006.0,Start,Vernon Tomes,Jersey,,,left_only
44608,773230341.0,C,Philip Bailhache,Jersey,,,left_only
44609,773316732.0,Start,Jean Poingdestre,Jersey,,,left_only
44610,774568909.0,Start,Peter Hanning,Jersey,,,left_only
44611,784051930.0,Start,Dean of Jersey,Jersey,,,left_only
44612,784462137.0,C,"Alexander Coutanche, Baron Coutanche",Jersey,,,left_only
44613,784849252.0,Stub,Terry Le Sueur,Jersey,,,left_only
44614,786175308.0,Stub,Don Filleul,Jersey,,,left_only
44615,787012860.0,Start,Augustus Asplet Le Gros,Jersey,,,left_only
44616,787046159.0,Stub,Philippe Langlois,Jersey,,,left_only
44617,787955357.0,Start,Sarah Craig Ferguson,Jersey,,,left_only
44618,787955613.0,Stub,Wendy Kinnard,Jersey,,,left_only
44619,787956265.0,Start,Iris Le Feuvre,Jersey,,,left_only
44620,787956300.0,Stub,Judy Martin (politician),Jersey,,,left_only
44621,787956364.0,Start,Kristina Moore,Jersey,,,left_only
44622,787956392.0,Stub,Susan Pinel,Jersey,,,left_only
44623,787956492.0,Stub,Shona Pitman,Jersey,,,left_only
44624,787956513.0,Stub,Anne Pryke,Jersey,,,left_only
44625,787956597.0,Stub,Corrie Stein,Jersey,,,left_only
44626,787957954.0,Stub,Tracey Vallois,Jersey,,,left_only
44627,789753704.0,Stub,"Sir Philip Carteret, 1st Baronet",Jersey,,,left_only
44628,789753711.0,Stub,"Sir Philip Carteret, 2nd Baronet",Jersey,,,left_only
44629,790484914.0,C,"Henry Carteret, 1st Baron Carteret",Jersey,,,left_only
44630,792567273.0,Start,Frank Walker (Jersey politician),Jersey,,,left_only
44631,793221391.0,Stub,Carolyn Labey,Jersey,,,left_only
44632,793405839.0,Stub,Cecil Stanley Harrison,Jersey,,,left_only
44633,795069319.0,Start,List of Bailiffs of Jersey,Jersey,,,left_only
44634,795676915.0,C,John Le Couteur,Jersey,,,left_only
44635,796095584.0,Start,Jim Perchard,Jersey,,,left_only
44636,796170389.0,Start,Bryan Ian Le Marquand,Jersey,,,left_only
44637,797693636.0,Stub,Andrew Green (Jersey politician),Jersey,,,left_only
44638,797746493.0,Start,Geraint Jennings,Jersey,,,left_only
44639,798244483.0,Start,Ian Gorst,Jersey,,,left_only
44640,799514955.0,C,George Carteret,Jersey,,,left_only
44641,800714278.0,GA,Stuart Syvret,Jersey,,,left_only
44642,801172575.0,Start,Edward Trevor (Jersey),Jersey,,,left_only
44643,801284949.0,C,Philip Ozouf Jr,Jersey,,,left_only
44644,802532217.0,C,Peter Crill,Jersey,,,left_only
44645,802912550.0,C,"John Carteret, 2nd Earl Granville",Jersey,,,left_only
44646,803416400.0,C,Darius J. Pearce,Jersey,,,left_only
44647,804372746.0,Start,Alan Simon Crowcroft,Jersey,,,left_only
44648,805135198.0,Stub,William Bailhache,Jersey,,,left_only
44649,805136001.0,Start,Michael Birt (barrister),Jersey,,,left_only
44650,805136113.0,Start,Frank Ereaut,Jersey,,,left_only
44651,805136184.0,Start,Robert Pipon Marett,Jersey,,,left_only
44652,805499715.0,C,Freddie Cohen,Jersey,,,left_only
45320,710546915.0,Stub,Mike Torode,Guernsey,,,left_only
45321,719122168.0,Stub,Laurie Morgan,Guernsey,,,left_only
45322,722295712.0,Stub,Peter Harwood,Guernsey,,,left_only
45323,722806951.0,Stub,Martin Storey (politician),Guernsey,,,left_only
45324,725970969.0,Stub,William Carey (Bailiff of Guernsey),Guernsey,,,left_only
45325,729428763.0,Stub,David Jones (Guernsey politician),Guernsey,,,left_only
45326,742737553.0,Stub,Lyndon Trott,Guernsey,,,left_only
45327,742872067.0,Start,Jonathan Le Tocq,Guernsey,,,left_only
45328,742872751.0,Stub,Graham Dorey,Guernsey,,,left_only
45329,748457839.0,Start,De Vic Carey,Guernsey,,,left_only
45330,762910285.0,GA,Bailiff of Guernsey,Guernsey,,,left_only
45331,768625520.0,C,Ambrose Sherwill,Guernsey,,,left_only
45332,784691815.0,Start,Geoffrey Rowland,Guernsey,,,left_only
45333,784770354.0,Start,List of Bailiffs of Guernsey,Guernsey,,,left_only
45334,787954113.0,Stub,Diane Lewis (Guernsey legislator),Guernsey,,,left_only
45335,787954138.0,Stub,Wendy Morgan (politician),Guernsey,,,left_only
45336,788446515.0,C,Peter de Havilland,Guernsey,,,left_only
45337,789938377.0,Stub,Gavin St Pier,Guernsey,,,left_only
45338,791169532.0,C,Francis Weston,Guernsey,,,left_only
45339,792424069.0,Start,Richard Collas,Guernsey,,,left_only
45340,793355768.0,C,Victor Carey,Guernsey,,,left_only
45341,798315235.0,C,Daniel de Lisle Brock,Guernsey,,,left_only
45342,802409654.0,C,Richard Weston (treasurer),Guernsey,,,left_only
45343,804532628.0,Start,Havilland de Sausmarez,Guernsey,,,left_only
45344,805755298.0,B,Edmund Andros,Guernsey,,,left_only
45800,716335437.0,Start,Joseph Lambert Eustace,Saint Vincent and the Grenadines,,,left_only
45801,725462724.0,Start,Duvalle,Saint Vincent and the Grenadines,,,left_only
45802,739296460.0,Stub,Charles Antrobus,Saint Vincent and the Grenadines,,,left_only
45803,745928420.0,Stub,David Emmanuel Jack,Saint Vincent and the Grenadines,,,left_only
45804,762906552.0,Stub,Sydney Gun-Munro,Saint Vincent and the Grenadines,,,left_only
45805,770827509.0,C,Frederick Ballantyne,Saint Vincent and the Grenadines,,,left_only
45806,770829069.0,Start,Terrance Ollivierre,Saint Vincent and the Grenadines,,,left_only
45807,771015590.0,Start,Milton Cato,Saint Vincent and the Grenadines,,,left_only
45808,784724223.0,Start,Henry Harvey Williams,Saint Vincent and the Grenadines,,,left_only
45809,784784479.0,Stub,Monica Dacon,Saint Vincent and the Grenadines,,,left_only
45810,787976333.0,Start,Camillo Gonsalves,Saint Vincent and the Grenadines,,,left_only
45811,788672768.0,Start,Alphonso Theodore Roberts,Saint Vincent and the Grenadines,,,left_only
45812,789761357.0,C,Arnhim Eustace,Saint Vincent and the Grenadines,,,left_only
45813,795283194.0,Start,Joseph Chatoyer,Saint Vincent and the Grenadines,,,left_only
45814,795343481.0,Start,Louis Straker,Saint Vincent and the Grenadines,,,left_only
45815,797760926.0,Start,List of Prime Ministers of Saint Vincent and the Grenadines,Saint Vincent and the Grenadines,,,left_only
45816,798864996.0,Start,Ebenezer Joshua,Saint Vincent and the Grenadines,,,left_only
45817,800257111.0,Start,James Fitz-Allen Mitchell,Saint Vincent and the Grenadines,,,left_only
45818,800881284.0,Start,Inga Rhonda King,Saint Vincent and the Grenadines,,,left_only
45819,801288101.0,Start,Governor-General of Saint Vincent and the Grenadines,Saint Vincent and the Grenadines,,,left_only
45820,804164057.0,C,Ralph Gonsalves,Saint Vincent and the Grenadines,,,left_only
45821,717215546.0,Start,Stanislav Kochiev,South Ossetian,,,left_only
45822,717241760.0,Start,Valeriy Hubulov,South Ossetian,,,left_only
45823,721687759.0,Start,Rostislav Khugayev,South Ossetian,,,left_only
45824,748071193.0,Stub,Boris Chochiev,South Ossetian,,,left_only
45825,749962491.0,Start,Yury Morozov,South Ossetian,,,left_only
45826,760473086.0,Stub,Aleksandr Shavlokhov,South Ossetian,,,left_only
45827,760473130.0,Stub,Merab Chigoev,South Ossetian,,,left_only
45828,760473192.0,Start,Gerasim Khugayev,South Ossetian,,,left_only
45829,760473237.0,Stub,Igor Sanakoyev,South Ossetian,,,left_only
45830,760473273.0,Stub,Zurab Kokoyev,South Ossetian,,,left_only
45831,766130279.0,Stub,Lyudvig Chibirov,South Ossetian,,,left_only
45832,789950396.0,Start,Aslanbek Bulatsev,South Ossetian,,,left_only
45833,795669553.0,Start,President of South Ossetia,South Ossetian,,,left_only
45834,797825875.0,Start,Prime Minister of South Ossetia,South Ossetian,,,left_only
45835,799335775.0,Start,Leonid Tibilov,South Ossetian,,,left_only
45836,801087048.0,C,Eduard Kokoity,South Ossetian,,,left_only
45837,801560549.0,Start,Dmitry Sanakoyev,South Ossetian,,,left_only
45838,802882186.0,GA,Vadim Brovtsev,South Ossetian,,,left_only
45839,717545630.0,Stub,Tou Travel Ariki,Cook Island,,,left_only
45840,717593716.0,Start,Piho Rua,Cook Island,,,left_only
45841,717897925.0,Start,Robert Woonton,Cook Island,,,left_only
45842,719186872.0,Stub,Ngereteina Puna,Cook Island,,,left_only
45843,728378933.0,Stub,List of Presidents of the House of Ariki,Cook Island,,,left_only
45844,737975585.0,Start,Tangaroa Tangaroa,Cook Island,,,left_only
45845,755442454.0,Start,Speaker of the Cook Islands Parliament,Cook Island,,,left_only
45846,757064438.0,Stub,Maria Heather,Cook Island,,,left_only
45847,757064793.0,Stub,Tetangi Matapo,Cook Island,,,left_only
45848,757064845.0,Stub,Selina Napa,Cook Island,,,left_only
45849,757065079.0,B,Dorice Reid,Cook Island,,,left_only
45850,757065152.0,Stub,Ngai Tupa,Cook Island,,,left_only
45851,757540405.0,Stub,Cassey Eggelton,Cook Island,,,left_only
45852,763769083.0,Start,Norman George,Cook Island,,,left_only
45853,763769086.0,Stub,John Tangi,Cook Island,,,left_only
45854,763769088.0,Stub,Vai Peua,Cook Island,,,left_only
45855,763769233.0,Start,Teariki Heather,Cook Island,,,left_only
45856,763769688.0,Stub,George Angene,Cook Island,,,left_only
45857,763770488.0,Stub,Albert (Peto) Nicholas,Cook Island,,,left_only
45858,763774025.0,Stub,Tupou Faireka,Cook Island,,,left_only
45859,763774066.0,Stub,Mark Brown (Cook Islands),Cook Island,,,left_only
45860,763774069.0,Stub,Nandi Glassie,Cook Island,,,left_only
45861,763775030.0,Stub,Apii Piho,Cook Island,,,left_only
45862,763775034.0,Stub,Winton Pickering,Cook Island,,,left_only
45863,763775035.0,Stub,Albert Nicholas (Cook Islands),Cook Island,,,left_only
45864,763775867.0,Start,Vincent Ingram,Cook Island,,,left_only
45865,763775893.0,Stub,Terepai Maoate Jnr,Cook Island,,,left_only
45866,763776103.0,Stub,Toanui Isamaela,Cook Island,,,left_only
45867,763776191.0,Start,Tangata Vavia,Cook Island,,,left_only
45868,763776193.0,Stub,Taunga Toka,Cook Island,,,left_only
45869,763776229.0,Stub,Teremoana Tapi Taio,Cook Island,,,left_only
45870,763776231.0,Start,Tepure Tapaitau,Cook Island,,,left_only
45871,763776235.0,Stub,Mapu Taia,Cook Island,,,left_only
45872,763776270.0,Start,Pupuke Robati,Cook Island,,,left_only
45873,763776271.0,Start,Wilkie Rasmussen,Cook Island,,,left_only
45874,763776737.0,Stub,Tai Tura,Cook Island,,,left_only
45875,763776768.0,Stub,Tekii Lazaro,Cook Island,,,left_only
45876,763776806.0,Stub,Kura Strickland,Cook Island,,,left_only
45877,763776808.0,Stub,Mii Parima,Cook Island,,,left_only
45878,763776856.0,Start,Joe Williams (Cook Islands politician),Cook Island,,,left_only
45879,763776860.0,Stub,Kiriau Turepu,Cook Island,,,left_only
45880,766806728.0,Start,Inatio Akaruru,Cook Island,,,left_only
45881,767048874.0,Start,Terepai Maoate,Cook Island,,,left_only
45882,767048881.0,Start,Deputy Prime Minister of the Cook Islands,Cook Island,,,left_only
45883,767994335.0,Stub,Atatoa Herman,Cook Island,,,left_only
45884,778717694.0,Start,Kete Ioane,Cook Island,,,left_only
45885,778763952.0,C,Tom Davis (Cook Islands politician),Cook Island,,,left_only
45886,778789714.0,Stub,Niki Rattle,Cook Island,,,left_only
45887,784686871.0,Start,Frederick Tutu Goodwin,Cook Island,,,left_only
45888,784786128.0,Start,Ngamau Munokoa,Cook Island,,,left_only
45889,786648340.0,C,Henry Puna,Cook Island,,,left_only
45890,787050138.0,Stub,Moana Ioane,Cook Island,,,left_only
45891,787227714.0,Start,Marguerite Story,Cook Island,,,left_only
45892,788240713.0,Start,Apenera Short,Cook Island,,,left_only
45893,788499686.0,Start,Mana Strickland,Cook Island,,,left_only
45894,788897273.0,Start,William (Smiley) Heather,Cook Island,,,left_only
45895,788897549.0,Stub,Rose Toki-Brown,Cook Island,,,left_only
45896,788898457.0,Start,Teina Bishop,Cook Island,,,left_only
45897,788899523.0,Stub,Pumati Israela,Cook Island,,,left_only
45898,794802546.0,Start,Robert Wigmore,Cook Island,,,left_only
45899,794802590.0,Stub,Pukeiti Pukeiti,Cook Island,,,left_only
45900,797303432.0,Stub,John Henry (Cook Islands politician),Cook Island,,,left_only
45901,797303508.0,Start,Geoffrey Henry,Cook Island,,,left_only
45902,797303536.0,C,Albert Henry (politician),Cook Island,,,left_only
45903,799769949.0,C,Jim Marurai,Cook Island,,,left_only
45904,805657875.0,C,Pa Tepaeru Terito Ariki,Cook Island,,,left_only
45905,806739780.0,Start,Tom Marsters,Cook Island,,,left_only
46051,717915660.0,Stub,Hilal Al Sarmi,Omani,,,left_only
46052,722258362.0,Stub,Mohammed Al Rumhi,Omani,,,left_only
46053,726862168.0,Stub,Yahya Al Khusaibi,Omani,,,left_only
46054,729426899.0,Start,Sayyid Badr bin Hamad bin Hamood AlBusaidi,Omani,,,left_only
46055,757164616.0,Stub,Fahd bin Mahmoud al Said,Omani,,,left_only
46056,760558966.0,Stub,Rawya Saud Al Busaidi,Omani,,,left_only
46057,767183600.0,Stub,"Azzan bin Qais, Sultan of Muscat and Oman",Omani,,,left_only
46058,767885927.0,Start,Taimur bin Feisal,Omani,,,left_only
46059,774877670.0,Stub,"Turki bin Said, Sultan of Muscat and Oman",Omani,,,left_only
46060,783116680.0,Stub,Badr bin Saud al Busaidi,Omani,,,left_only
46061,787929352.0,Start,"Salim bin Thuwaini, Sultan of Muscat and Oman",Omani,,,left_only
46062,788828342.0,Stub,Rahila Al Riyami,Omani,,,left_only
46063,789761641.0,B,List of rulers of Oman,Omani,,,left_only
46064,794599835.0,Stub,Malek Bin Sulaiman Al Ma'amari,Omani,,,left_only
46065,794725141.0,C,"Said bin Sultan, Sultan of Muscat and Oman",Omani,,,left_only
46066,797805284.0,Start,Yusuf bin Alawi bin Abdullah,Omani,,,left_only
46067,797947292.0,Stub,Samira bint Mohamed Al-Moosa,Omani,,,left_only
46068,799540696.0,C,Moosa AbdulRahman Hassan,Omani,,,left_only
46069,801364408.0,Stub,Abdullah Al Saidi,Omani,,,left_only
46070,802317488.0,C,Said bin Taimur,Omani,,,left_only
46071,803929525.0,Start,"Faisal bin Turki, Sultan of Muscat and Oman",Omani,,,left_only
46072,806665440.0,Stub,"Thuwaini bin Said, Sultan of Muscat and Oman",Omani,,,left_only
46073,806904421.0,C,Qaboos bin Said al Said,Omani,,,left_only
46074,807451487.0,Stub,Haitham bin Tariq Al Said,Omani,,,left_only
46123,720435378.0,Stub,John Allen (diplomat),Tokelauan,,,left_only
46124,732100626.0,Start,Neil Walter,Tokelauan,,,left_only
46125,744394596.0,Stub,Tim Francis,Tokelauan,,,left_only
46126,770994352.0,C,Duncan MacIntyre (New Zealand politician),Tokelauan,,,left_only
46127,771460602.0,C,Russell Marshall,Tokelauan,,,left_only
46128,786375181.0,C,Guy Powles,Tokelauan,,,left_only
46129,790644183.0,Stub,Salesio Lui,Tokelauan,,,left_only
46130,790644216.0,Stub,Kuresa Nasau,Tokelauan,,,left_only
46131,790644404.0,Stub,Patuki Isaako,Tokelauan,,,left_only
46132,790647368.0,Stub,Kolouei O'Brien,Tokelauan,,,left_only
46133,795631781.0,Stub,Afega Gaualofa,Tokelauan,,,left_only
46134,795633170.0,Stub,Siopili Perez,Tokelauan,,,left_only
46135,799209983.0,Stub,David Payton,Tokelauan,,,left_only
46136,801375710.0,Start,Head of Government of Tokelau,Tokelauan,,,left_only
46137,801630990.0,Stub,Falima Teao,Tokelauan,,,left_only
46138,806257719.0,Stub,Jonathan Kings,Tokelauan,,,left_only
46139,806258588.0,Start,Administrator of Tokelau,Tokelauan,,,left_only
46160,723121670.0,Stub,Themba N. Masuku,Swaziland,,,left_only
46161,747579157.0,Start,Moses Mathendele Dlamini,Swaziland,,,left_only
46162,757540600.0,C,Constance Simelane,Swaziland,,,left_only
46163,785654533.0,C,Ntfombi of Swaziland,Swaziland,,,left_only
46164,790010530.0,Stub,Bheki Dlamini,Swaziland,,,left_only
46165,790010540.0,Stub,Bhekimpi Dlamini,Swaziland,,,left_only
46166,790010556.0,Stub,Jameson Mbilini Dlamini,Swaziland,,,left_only
46167,790010558.0,Stub,Lutfo Dlamini,Swaziland,,,left_only
46168,790010563.0,Stub,Mabandla Dlamini,Swaziland,,,left_only
46169,790010573.0,Stub,Makhosini Dlamini,Swaziland,,,left_only
46170,790010577.0,Stub,Mphiwa Dlamini,Swaziland,,,left_only
46171,790010578.0,Stub,Obed Dlamini,Swaziland,,,left_only
46172,790010579.0,Stub,Paul Dlamini,Swaziland,,,left_only
46173,790010705.0,Stub,Themba Dlamini,Swaziland,,,left_only
46174,790010716.0,Stub,Njabulo Mabuza,Swaziland,,,left_only
46175,790010723.0,Stub,Charles Myeza,Swaziland,,,left_only
46176,790010729.0,Stub,Sishayi Nxumalo,Swaziland,,,left_only
46177,790010732.0,Stub,Paul Shabangu,Swaziland,,,left_only
46178,790010783.0,Stub,Trusty Gina,Swaziland,,,left_only
46179,790010820.0,Stub,Marwick Khumalo,Swaziland,,,left_only
46180,790090661.0,B,Prince Sozisa Dlamini,Swaziland,,,left_only
46181,790636139.0,Stub,Andreas Fakudze,Swaziland,,,left_only
46182,793428048.0,Stub,Ndumiso Mamba,Swaziland,,,left_only
46183,796256782.0,Start,Dzeliwe of Swaziland,Swaziland,,,left_only
46184,797494822.0,Stub,Ben Nsibandze,Swaziland,,,left_only
46185,797904256.0,Start,List of Prime Ministers of Swaziland,Swaziland,,,left_only
46186,798454144.0,Start,Barnabas Sibusiso Dlamini,Swaziland,,,left_only
46187,800650407.0,Stub,Sotsha Dlamini,Swaziland,,,left_only
46188,802149787.0,C,Labotsibeni Mdluli,Swaziland,,,left_only
46189,804656330.0,Start,Tsandzile Dlamini,Swaziland,,,left_only
46190,807175486.0,Stub,Maphevu Dlamini,Swaziland,,,left_only
46191,723563977.0,Start,Karim Mammadbeyov,Dagestani,,,left_only
46192,785202362.0,C,Aziz Aliyev,Dagestani,,,left_only
46193,785532389.0,Start,Mukhu Aliyev,Dagestani,,,left_only
46194,789329935.0,Start,Magomedali Magomedov,Dagestani,,,left_only
46195,792949749.0,Start,Magomedsalam Magomedov,Dagestani,,,left_only
46196,796896055.0,Start,Sagid Murtazaliev,Dagestani,,,left_only
46197,803611453.0,Start,Head of the Republic of Dagestan,Dagestani,,,left_only
46198,728026000.0,Stub,List of Danish High Commissioners in Greenland,Greenlandic,,,left_only
46199,742150479.0,Stub,Gunnar Martens,Greenlandic,,,left_only
46200,756830216.0,Stub,Sara Olsvig,Greenlandic,,,left_only
46201,757102071.0,Start,Kathrine Chemnitz,Greenlandic,,,left_only
46202,757103267.0,Stub,Augusta Salling,Greenlandic,,,left_only
46203,757539811.0,Stub,Agathe Fontain,Greenlandic,,,left_only
46204,757539958.0,Stub,Ane Hansen (politician),Greenlandic,,,left_only
46205,763742018.0,Stub,Asii Chemnitz Narup,Greenlandic,,,left_only
46206,770757601.0,Start,Aleqa Hammond,Greenlandic,,,left_only
46207,778461046.0,Stub,Katrine Larsen Lenner,Greenlandic,,,left_only
46208,780537008.0,Start,Maliina Abelsen,Greenlandic,,,left_only
46209,787423025.0,Stub,Agnethe Davidsen,Greenlandic,,,left_only
46210,806560929.0,Stub,Mimi Karlsen,Greenlandic,,,left_only
46306,743018109.0,Start,Alan Parastaev,Ossetian,,,left_only
46307,757343822.0,Start,Taymuraz Mamsurov,Ossetian,,,left_only
46308,774555176.0,Stub,Head of the Republic of North Ossetia-Alania,Ossetian,,,left_only
46309,782634776.0,Start,Akhsarbek Galazov,Ossetian,,,left_only
46310,789328182.0,Start,Alexander Dzasokhov,Ossetian,,,left_only
46311,796950389.0,C,Alla Dzhioyeva,Ossetian,,,left_only
46312,804609656.0,Stub,Vyacheslav Bitarov,Ossetian,,,left_only
46313,804609900.0,Stub,Tamerlan Aguzarov,Ossetian,,,left_only
46314,806832826.0,Start,Anatoly Bibilov,Ossetian,,,left_only
46352,757106724.0,Stub,Leilani Reklai,Palauan,,,left_only
46353,762610456.0,Stub,Antonio Bells,Palauan,,,left_only
46354,764341685.0,Stub,Haruo Remeliik,Palauan,,,left_only
46355,765032190.0,GA,Roman Tmetuchl,Palauan,,,left_only
46356,765102210.0,Stub,Vice President of Palau,Palauan,,,left_only
46357,767195006.0,Stub,Surangel Whipps Jr.,Palauan,,,left_only
46358,773405868.0,Stub,Alfonso Oiterong,Palauan,,,left_only
46359,777304756.0,Start,Johnson Toribiong,Palauan,,,left_only
46360,778679721.0,Stub,Kerai Mariur,Palauan,,,left_only
46361,782714724.0,Stub,President of Palau,Palauan,,,left_only
46362,786992351.0,Start,Kuniwo Nakamura,Palauan,,,left_only
46363,788566799.0,C,Tommy Remengesau,Palauan,,,left_only
46364,788566961.0,Stub,Thomas Remengesau Sr.,Palauan,,,left_only
46365,788567219.0,Start,Ngiratkel Etpison,Palauan,,,left_only
46366,789983618.0,Stub,Raynold Oilouch,Palauan,,,left_only
46367,790011394.0,Stub,Lazarus Salii,Palauan,,,left_only
46368,790410665.0,Start,Ngedikes Olai Uludong,Palauan,,,left_only
46369,790423026.0,Stub,Sandra Pierantozzi,Palauan,,,left_only
46370,795139723.0,Start,Elias Camsek Chin,Palauan,,,left_only
46371,797884160.0,Stub,Akiko Sugiyama,Palauan,,,left_only
46372,805961817.0,Start,Baklai Temengil,Palauan,,,left_only
46419,792010538.0,Start,List of Presidents of Somaliland,Somaliland,,,left_only
46420,798692052.0,Start,Dahir Riyale Kahin,Somaliland,,,left_only
46421,804143605.0,Stub,Adan Ahmed Elmi,Somaliland,,,left_only
46422,805840190.0,C,Muhammad Haji Ibrahim Egal,Somaliland,,,left_only
46423,805873719.0,C,Hediya Yousef,Rojava,,,left_only
46424,805873803.0,Stub,Mansur Selum,Rojava,,,left_only
46425,,,,Western Sahara,NORTHERN AFRICA,597000.0,right_only
46426,,,,Cote d'Ivoire,WESTERN AFRICA,26175000.0,right_only
46427,,,,Mayotte,EASTERN AFRICA,284000.0,right_only
46428,,,,Reunion,EASTERN AFRICA,861000.0,right_only
46429,,,,"Congo, Dem. Rep.",MIDDLE AFRICA,89568000.0,right_only
46430,,,,eSwatini,SOUTHERN AFRICA,1104000.0,right_only
46431,,,,El Salvador,CENTRAL AMERICA,6481000.0,right_only
46432,,,,Honduras,CENTRAL AMERICA,9864000.0,right_only
46433,,,,Curacao,CARIBBEAN,155000.0,right_only
46434,,,,Puerto Rico,CARIBBEAN,3189000.0,right_only
46435,,,,St. Kitts-Nevis,CARIBBEAN,54000.0,right_only
46436,,,,Saint Lucia,CARIBBEAN,182000.0,right_only
46437,,,,St. Vincent and the Grenadines,CARIBBEAN,111000.0,right_only
46438,,,,Georgia,WESTERN ASIA,3715000.0,right_only
46439,,,,Oman,WESTERN ASIA,4713000.0,right_only
46440,,,,Brunei,SOUTHEAST ASIA,469000.0,right_only
46441,,,,Timor-Leste,SOUTHEAST ASIA,1318000.0,right_only
46442,,,,"China, Hong Kong SAR",EAST ASIA,7494000.0,right_only
46443,,,,"China, Macao SAR",EAST ASIA,686000.0,right_only
46444,,,,Channel Islands,NORTHERN EUROPE,172000.0,right_only
46445,,,,Czechia,EASTERN EUROPE,10716000.0,right_only
46446,,,,North Macedonia,SOUTHERN EUROPE,2080000.0,right_only
46447,,,,French Polynesia,OCEANIA,280000.0,right_only
46448,,,,Guam,OCEANIA,175000.0,right_only
46449,,,,New Caledonia,OCEANIA,295000.0,right_only
46450,,,,Palau,OCEANIA,18000.0,right_only
46451,,,,Samoa,OCEANIA,200000.0,right_only
