,revision_id,article_quality_est,article_name,country,geographic region,population
0,355319463.0,Stub,Bir I of Kanem,Chad,MIDDLE AFRICA,16877000.0
1,498683267.0,Stub,Abdullah II of Kanem,Chad,MIDDLE AFRICA,16877000.0
2,565745353.0,Stub,Salmama II of Kanem,Chad,MIDDLE AFRICA,16877000.0
3,565745365.0,Stub,Kuri I of Kanem,Chad,MIDDLE AFRICA,16877000.0
4,565745375.0,Stub,Mohammed I of Kanem,Chad,MIDDLE AFRICA,16877000.0
5,669719757.0,Stub,Kuri II of Kanem,Chad,MIDDLE AFRICA,16877000.0
6,670893206.0,Stub,Bir II of Kanem,Chad,MIDDLE AFRICA,16877000.0
7,693055898.0,Stub,Mahamat Hissene,Chad,MIDDLE AFRICA,16877000.0
8,705432607.0,Stub,Othman I,Chad,MIDDLE AFRICA,16877000.0
9,707593108.0,Stub,Alphonse Kotiga,Chad,MIDDLE AFRICA,16877000.0
10,708346649.0,Start,Oueddei Kichidemi,Chad,MIDDLE AFRICA,16877000.0
11,710675092.0,Stub,Dunama I,Chad,MIDDLE AFRICA,16877000.0
12,711388267.0,Stub,Ahmad (Kanem-Bornu king),Chad,MIDDLE AFRICA,16877000.0
13,712971263.0,Stub,Djibrine Kerallah,Chad,MIDDLE AFRICA,16877000.0
14,712971315.0,Stub,Maurice Ngangtar,Chad,MIDDLE AFRICA,16877000.0
15,712971738.0,Stub,Idriss Miskine,Chad,MIDDLE AFRICA,16877000.0
16,716886170.0,Stub,Laoukein Kourayo Médard,Chad,MIDDLE AFRICA,16877000.0
17,716886788.0,Stub,Nadji Madou,Chad,MIDDLE AFRICA,16877000.0
18,716891799.0,Start,Noël Milarew Odingar,Chad,MIDDLE AFRICA,16877000.0
19,717733209.0,Stub,Yaya Dillo Djérou,Chad,MIDDLE AFRICA,16877000.0
20,719821590.0,Start,Acheikh Ibn-Oumar,Chad,MIDDLE AFRICA,16877000.0
21,720066754.0,Stub,Quatre Sou Quatre,Chad,MIDDLE AFRICA,16877000.0
22,722563340.0,Stub,Ali Gazi,Chad,MIDDLE AFRICA,16877000.0
23,725132042.0,Stub,Mahamat Djarma Khatir,Chad,MIDDLE AFRICA,16877000.0
24,731749611.0,Stub,Dunama IX Lefiami,Chad,MIDDLE AFRICA,16877000.0
25,736550266.0,Stub,Dawud of Kanem,Chad,MIDDLE AFRICA,16877000.0
26,738855197.0,Start,Ahmed Koulamallah,Chad,MIDDLE AFRICA,16877000.0
27,741369486.0,C,Abbo Nassour,Chad,MIDDLE AFRICA,16877000.0
28,742213176.0,Stub,Abdel Kader Baba-Laddé,Chad,MIDDLE AFRICA,16877000.0
29,747271475.0,Stub,Hummay,Chad,MIDDLE AFRICA,16877000.0
30,751304544.0,C,Ngarlejy Yorongar,Chad,MIDDLE AFRICA,16877000.0
31,751380073.0,Stub,Saleh Kezabo,Chad,MIDDLE AFRICA,16877000.0
32,757072468.0,Start,Bourkou Louise Kabo,Chad,MIDDLE AFRICA,16877000.0
33,757802238.0,Stub,Brahim Koulamallah,Chad,MIDDLE AFRICA,16877000.0
34,757842614.0,Start,Saadie Goukouni Weddeye,Chad,MIDDLE AFRICA,16877000.0
35,762579466.0,Start,Mahamoud Adam Béchir,Chad,MIDDLE AFRICA,16877000.0
36,764133533.0,Stub,Djidingar Dono Ngardoum,Chad,MIDDLE AFRICA,16877000.0
37,771052289.0,C,Youssouf Saleh Abbas,Chad,MIDDLE AFRICA,16877000.0
38,774223245.0,Start,Koibla Djimasta,Chad,MIDDLE AFRICA,16877000.0
39,774223248.0,C,Nassour Guelendouksia Ouaido,Chad,MIDDLE AFRICA,16877000.0
40,777478442.0,Stub,Joseph Brahim Seid,Chad,MIDDLE AFRICA,16877000.0
41,777550078.0,Start,Joseph Yodoyman,Chad,MIDDLE AFRICA,16877000.0
42,782638002.0,Start,Antoine Bangui,Chad,MIDDLE AFRICA,16877000.0
43,785614014.0,Stub,Ibrahim IV of Bornu,Chad,MIDDLE AFRICA,16877000.0
44,786449636.0,C,Hadjé Halimé,Chad,MIDDLE AFRICA,16877000.0
45,787390241.0,Start,Youssouf Togoïmi,Chad,MIDDLE AFRICA,16877000.0
46,787719236.0,Start,Adoum Younousmi,Chad,MIDDLE AFRICA,16877000.0
47,787738541.0,C,François Tombalbaye,Chad,MIDDLE AFRICA,16877000.0
48,787910771.0,Stub,Ahmat Hassaballah Soubiane,Chad,MIDDLE AFRICA,16877000.0
49,787921293.0,Start,Ahmad Allam-Mi,Chad,MIDDLE AFRICA,16877000.0
50,788009613.0,Stub,Laotegguelnodji Koumtog,Chad,MIDDLE AFRICA,16877000.0
51,788014671.0,Start,Mahamat Ali Adoum,Chad,MIDDLE AFRICA,16877000.0
52,788658822.0,Start,Mahamat Saleh Annadif,Chad,MIDDLE AFRICA,16877000.0
53,788827248.0,Stub,Mohamed Bechir-Sow,Chad,MIDDLE AFRICA,16877000.0
54,788828388.0,Start,Gontchomé Sahoulba,Chad,MIDDLE AFRICA,16877000.0
55,788828519.0,Start,Gabriel Lisette,Chad,MIDDLE AFRICA,16877000.0
56,788999424.0,Stub,Ali II of Bornu,Chad,MIDDLE AFRICA,16877000.0
57,789126126.0,Stub,Arabi El Goni,Chad,MIDDLE AFRICA,16877000.0
58,789935196.0,Start,Dunama Dabbalemi,Chad,MIDDLE AFRICA,16877000.0
59,792734868.0,Start,Idris Alooma,Chad,MIDDLE AFRICA,16877000.0
60,792954115.0,B,Mahamat Nouri,Chad,MIDDLE AFRICA,16877000.0
61,796654025.0,Stub,Idriss Ndele Moussa,Chad,MIDDLE AFRICA,16877000.0
62,796690873.0,Stub,Mbaydoum Simeon,Chad,MIDDLE AFRICA,16877000.0
63,796700718.0,Stub,Ngarindo Milengar,Chad,MIDDLE AFRICA,16877000.0
64,797747674.0,Start,List of Prime Ministers of Chad,Chad,MIDDLE AFRICA,16877000.0
65,798286150.0,C,Idriss Déby,Chad,MIDDLE AFRICA,16877000.0
66,798626040.0,C,Saleh Kebzabo,Chad,MIDDLE AFRICA,16877000.0
67,799043301.0,C,Moussa Faki,Chad,MIDDLE AFRICA,16877000.0
68,799413193.0,Stub,Kalzeubet Pahimi Deubet,Chad,MIDDLE AFRICA,16877000.0
69,799447895.0,Start,Haroun Kabadi,Chad,MIDDLE AFRICA,16877000.0
70,799447995.0,Start,Nagoum Yamassoum,Chad,MIDDLE AFRICA,16877000.0
71,799448338.0,Start,Outel Bono,Chad,MIDDLE AFRICA,16877000.0
72,799902492.0,C,Ahmat Acyl,Chad,MIDDLE AFRICA,16877000.0
73,800133552.0,Start,Djimrangar Dadnadji,Chad,MIDDLE AFRICA,16877000.0
74,801029539.0,C,Delwa Kassiré Koumakoye,Chad,MIDDLE AFRICA,16877000.0
75,801192255.0,C,Fidèle Moungar,Chad,MIDDLE AFRICA,16877000.0
76,801192303.0,B,Jean Alingué Bawoyeu,Chad,MIDDLE AFRICA,16877000.0
77,801573576.0,C,Emmanuel Nadingar,Chad,MIDDLE AFRICA,16877000.0
78,801583221.0,Stub,Roger Djikisna,Chad,MIDDLE AFRICA,16877000.0
79,801583260.0,Stub,Firmin Djidingar,Chad,MIDDLE AFRICA,16877000.0
80,802874918.0,Stub,Idris I of Kanem,Chad,MIDDLE AFRICA,16877000.0
81,803166509.0,Stub,Vice President of Chad,Chad,MIDDLE AFRICA,16877000.0
82,803166806.0,GA,Hissène Habré,Chad,MIDDLE AFRICA,16877000.0
83,803166989.0,Start,Negue Djogo,Chad,MIDDLE AFRICA,16877000.0
84,803167152.0,C,Wadel Abdelkader Kamougué,Chad,MIDDLE AFRICA,16877000.0
85,803167336.0,Start,Félix Malloum,Chad,MIDDLE AFRICA,16877000.0
86,803167424.0,C,Lol Mahamat Choua,Chad,MIDDLE AFRICA,16877000.0
87,803167990.0,C,Goukouni Oueddei,Chad,MIDDLE AFRICA,16877000.0
88,803433107.0,C,Albert Pahimi Padacké,Chad,MIDDLE AFRICA,16877000.0
89,803812011.0,Start,List of heads of state of Chad,Chad,MIDDLE AFRICA,16877000.0
90,804773540.0,Start,Elise Loum,Chad,MIDDLE AFRICA,16877000.0
91,805493169.0,Start,Agnes Allafi,Chad,MIDDLE AFRICA,16877000.0
92,806337653.0,Stub,Christine Georges Diguibaye,Chad,MIDDLE AFRICA,16877000.0
93,806508985.0,Start,Pascal Yoadimnadji,Chad,MIDDLE AFRICA,16877000.0
94,806616268.0,Start,Aissa Koli,Chad,MIDDLE AFRICA,16877000.0
95,807425129.0,Start,Omar I of Kanem,Chad,MIDDLE AFRICA,16877000.0
96,393276188.0,Stub,Information Minister of the Palestinian National Authority,Palestinian Territory,WESTERN ASIA,5008000.0
97,596181202.0,Start,Finance Minister of the Palestinian National Authority,Palestinian Territory,WESTERN ASIA,5008000.0
98,633612729.0,Start,Planning Minister of the Palestinian National Authority,Palestinian Territory,WESTERN ASIA,5008000.0
99,680933208.0,Stub,Hossam Arafat (politician),Palestinian Territory,WESTERN ASIA,5008000.0
100,701106976.0,Start,Tawfik Tirawi,Palestinian Territory,WESTERN ASIA,5008000.0
101,706650943.0,Stub,Isam al-Qadi,Palestinian Territory,WESTERN ASIA,5008000.0
102,707669406.0,Stub,Hussein al-Araj,Palestinian Territory,WESTERN ASIA,5008000.0
103,708269321.0,Stub,Mohammad Barghouti,Palestinian Territory,WESTERN ASIA,5008000.0
104,708495719.0,Stub,Ahmed Khalidi,Palestinian Territory,WESTERN ASIA,5008000.0
105,708817890.0,Stub,Health Minister of the Palestinian National Authority,Palestinian Territory,WESTERN ASIA,5008000.0
106,709529097.0,Stub,Qais Abd al-Karim,Palestinian Territory,WESTERN ASIA,5008000.0
107,709567584.0,Stub,Mahmoud Aloul,Palestinian Territory,WESTERN ASIA,5008000.0
108,709994434.0,Stub,Victor Batarseh,Palestinian Territory,WESTERN ASIA,5008000.0
109,710133339.0,Start,Hanna Nasser (academic),Palestinian Territory,WESTERN ASIA,5008000.0
110,710390049.0,Start,Anastas Hanania,Palestinian Territory,WESTERN ASIA,5008000.0
111,710676772.0,Stub,Joudeh George Murqos,Palestinian Territory,WESTERN ASIA,5008000.0
112,710990363.0,Stub,Ali al-Sartawi,Palestinian Territory,WESTERN ASIA,5008000.0
113,712310215.0,Start,Jamal Tirawi,Palestinian Territory,WESTERN ASIA,5008000.0
114,713203735.0,Stub,Samir Abu Eisheh,Palestinian Territory,WESTERN ASIA,5008000.0
115,713505054.0,Start,Sami Taha,Palestinian Territory,WESTERN ASIA,5008000.0
116,714176771.0,Stub,Ayyub Musallam,Palestinian Territory,WESTERN ASIA,5008000.0
117,714181175.0,Start,Hajj Essa Hamed,Palestinian Territory,WESTERN ASIA,5008000.0
118,714208891.0,Stub,Hasan Tahboub,Palestinian Territory,WESTERN ASIA,5008000.0
119,714586856.0,Stub,Hanna Nasser,Palestinian Territory,WESTERN ASIA,5008000.0
120,715125381.0,Stub,Ghazi Hanania,Palestinian Territory,WESTERN ASIA,5008000.0
121,716425885.0,Stub,Amin Abd al-Hadi,Palestinian Territory,WESTERN ASIA,5008000.0
122,717174805.0,Start,Samir Hulileh,Palestinian Territory,WESTERN ASIA,5008000.0
123,717350346.0,Stub,Hatem Qafisha,Palestinian Territory,WESTERN ASIA,5008000.0
124,717907429.0,Stub,Nayef Rajoub,Palestinian Territory,WESTERN ASIA,5008000.0
125,720225559.0,Stub,Ghassan Shakaa,Palestinian Territory,WESTERN ASIA,5008000.0
126,720541817.0,Stub,Salim Zanoun,Palestinian Territory,WESTERN ASIA,5008000.0
127,725592476.0,Stub,Ahmad Bahar (Palestinian politician),Palestinian Territory,WESTERN ASIA,5008000.0
128,729635985.0,C,Umm Nidal,Palestinian Territory,WESTERN ASIA,5008000.0
129,730565205.0,Start,Aref al-Dajani,Palestinian Territory,WESTERN ASIA,5008000.0
130,730612889.0,Stub,Faed Mustafa,Palestinian Territory,WESTERN ASIA,5008000.0
131,734366909.0,B,Interior Minister of the Palestinian National Authority,Palestinian Territory,WESTERN ASIA,5008000.0
132,737316891.0,Start,Samiha Khalil,Palestinian Territory,WESTERN ASIA,5008000.0
133,738485209.0,Stub,Imil Jarjoui,Palestinian Territory,WESTERN ASIA,5008000.0
134,740251014.0,Stub,Abu Zakaria al-Jamal,Palestinian Territory,WESTERN ASIA,5008000.0
135,740562507.0,Stub,Mustafa al-Khalidi,Palestinian Territory,WESTERN ASIA,5008000.0
136,741240899.0,Start,Samir Ghawshah,Palestinian Territory,WESTERN ASIA,5008000.0
137,742810698.0,Stub,Fuad Kokaly,Palestinian Territory,WESTERN ASIA,5008000.0
138,742930612.0,Stub,Janet Mikhail,Palestinian Territory,WESTERN ASIA,5008000.0
139,744229617.0,Stub,Hind Khoury,Palestinian Territory,WESTERN ASIA,5008000.0
140,744680083.0,Stub,Saloum Cohen,Palestinian Territory,WESTERN ASIA,5008000.0
141,745445418.0,Start,Ahmed Majdalani,Palestinian Territory,WESTERN ASIA,5008000.0
142,746561126.0,Stub,Faidi al-Alami,Palestinian Territory,WESTERN ASIA,5008000.0
143,752269980.0,Stub,Arafat scarf,Palestinian Territory,WESTERN ASIA,5008000.0
144,754951299.0,C,Zuhir al-Qaisi,Palestinian Territory,WESTERN ASIA,5008000.0
145,754960024.0,Start,Mohammed Shabir,Palestinian Territory,WESTERN ASIA,5008000.0
146,755358806.0,C,Said Seyam,Palestinian Territory,WESTERN ASIA,5008000.0
147,756834998.0,Start,Atef Adwan,Palestinian Territory,WESTERN ASIA,5008000.0
148,756836183.0,Start,Moussa Arafat,Palestinian Territory,WESTERN ASIA,5008000.0
149,757565638.0,Start,Khouloud Daibes,Palestinian Territory,WESTERN ASIA,5008000.0
150,759387598.0,Start,Nahid al-Rayyis,Palestinian Territory,WESTERN ASIA,5008000.0
151,760357919.0,Start,Rawhi Fattouh,Palestinian Territory,WESTERN ASIA,5008000.0
152,760375386.0,Stub,Wasfi Kabha,Palestinian Territory,WESTERN ASIA,5008000.0
153,760380012.0,Stub,Omar Hammayil,Palestinian Territory,WESTERN ASIA,5008000.0
154,760380700.0,Stub,Mohammed Milhim,Palestinian Territory,WESTERN ASIA,5008000.0
155,765742925.0,Start,Faisal Husseini,Palestinian Territory,WESTERN ASIA,5008000.0
156,766784372.0,Start,Haidar Abdel-Shafi,Palestinian Territory,WESTERN ASIA,5008000.0
157,766840809.0,Start,Nasser al-Shaer,Palestinian Territory,WESTERN ASIA,5008000.0
158,766847361.0,Stub,Omar Abd al-Razaq,Palestinian Territory,WESTERN ASIA,5008000.0
159,767482479.0,Stub,Adnan al-Husayni,Palestinian Territory,WESTERN ASIA,5008000.0
160,767881055.0,Start,Ziad Abu Amr,Palestinian Territory,WESTERN ASIA,5008000.0
161,768374386.0,Start,Ziad Abuzayyad,Palestinian Territory,WESTERN ASIA,5008000.0
162,769135700.0,Stub,Azzam al-Ahmad,Palestinian Territory,WESTERN ASIA,5008000.0
163,769328020.0,Start,Leila Shahid,Palestinian Territory,WESTERN ASIA,5008000.0
164,771217707.0,Start,Sharm El Sheikh Memorandum,Palestinian Territory,WESTERN ASIA,5008000.0
165,773002344.0,Start,Hussein al-Husayni,Palestinian Territory,WESTERN ASIA,5008000.0
166,773227993.0,Start,Riyad al-Maliki,Palestinian Territory,WESTERN ASIA,5008000.0
167,774821388.0,C,Yasser Abed Rabbo,Palestinian Territory,WESTERN ASIA,5008000.0
168,775535912.0,Start,Isra al-Modallal,Palestinian Territory,WESTERN ASIA,5008000.0
169,775898615.0,C,Jamal Abu Samhadana,Palestinian Territory,WESTERN ASIA,5008000.0
170,776289919.0,Start,Sufian Abu Zaida,Palestinian Territory,WESTERN ASIA,5008000.0
171,776386870.0,Stub,Taysir Khalid,Palestinian Territory,WESTERN ASIA,5008000.0
172,776831011.0,Start,Ibrahim Nassar,Palestinian Territory,WESTERN ASIA,5008000.0
173,777026878.0,Start,Anwar Khatib,Palestinian Territory,WESTERN ASIA,5008000.0
174,779034357.0,Stub,Jamil Majdalawi,Palestinian Territory,WESTERN ASIA,5008000.0
175,779105366.0,Start,Foreign Affairs Minister of the Palestinian National Authority,Palestinian Territory,WESTERN ASIA,5008000.0
176,779367907.0,Stub,Rabiha Diab,Palestinian Territory,WESTERN ASIA,5008000.0
177,782105397.0,C,Ahmed Hilmi Pasha,Palestinian Territory,WESTERN ASIA,5008000.0
178,783041670.0,Stub,Majida Al-Masri,Palestinian Territory,WESTERN ASIA,5008000.0
179,784373796.0,Stub,Emil Ghuri,Palestinian Territory,WESTERN ASIA,5008000.0
180,784662302.0,Start,Ali Jarbawi,Palestinian Territory,WESTERN ASIA,5008000.0
181,784977752.0,Start,Jamal al-Jamal,Palestinian Territory,WESTERN ASIA,5008000.0
182,785938135.0,B,Jamal al-Husayni,Palestinian Territory,WESTERN ASIA,5008000.0
183,785938199.0,B,Musa al-Husayni,Palestinian Territory,WESTERN ASIA,5008000.0
184,785938222.0,Stub,Salim al-Husayni,Palestinian Territory,WESTERN ASIA,5008000.0
185,787198183.0,C,Mustafa Barghouti,Palestinian Territory,WESTERN ASIA,5008000.0
186,787385830.0,Start,Abdel Hafiz Nofal,Palestinian Territory,WESTERN ASIA,5008000.0
187,787447130.0,Stub,Zaki al-Ghul,Palestinian Territory,WESTERN ASIA,5008000.0
188,787453135.0,C,Oslo I Accord,Palestinian Territory,WESTERN ASIA,5008000.0
189,787691185.0,Stub,Adly Yaish,Palestinian Territory,WESTERN ASIA,5008000.0
190,788004334.0,Start,Intissar al-Wazir,Palestinian Territory,WESTERN ASIA,5008000.0
191,788019130.0,C,Muhammad Abu Tir,Palestinian Territory,WESTERN ASIA,5008000.0
192,788023506.0,C,"Palestinian general election, 1996",Palestinian Territory,WESTERN ASIA,5008000.0
193,788026998.0,C,Protocol Concerning the Redeployment in Hebron,Palestinian Territory,WESTERN ASIA,5008000.0
194,788159128.0,Stub,Yousef al-Khalidi,Palestinian Territory,WESTERN ASIA,5008000.0
195,788189214.0,Stub,List of mayors of Nablus,Palestinian Territory,WESTERN ASIA,5008000.0
196,788437086.0,Stub,Khalil al-Hayya,Palestinian Territory,WESTERN ASIA,5008000.0
197,788509815.0,B,President of the Palestinian National Authority,Palestinian Territory,WESTERN ASIA,5008000.0
198,788591724.0,Stub,Fathi Ahmad Hammad,Palestinian Territory,WESTERN ASIA,5008000.0
199,788953220.0,GA,Abdullah Rimawi,Palestinian Territory,WESTERN ASIA,5008000.0
200,788988278.0,Stub,Yahya Hammuda,Palestinian Territory,WESTERN ASIA,5008000.0
201,789228790.0,Start,Hani al-Hassan,Palestinian Territory,WESTERN ASIA,5008000.0
202,790695172.0,Start,Bashir Barghouti,Palestinian Territory,WESTERN ASIA,5008000.0
203,790721748.0,Stub,Bassam as-Salhi,Palestinian Territory,WESTERN ASIA,5008000.0
204,791881528.0,GA,Khalida Jarrar,Palestinian Territory,WESTERN ASIA,5008000.0
205,792611747.0,Start,Kamel al-Budeiri,Palestinian Territory,WESTERN ASIA,5008000.0
206,792615206.0,C,Zuheir Mohsen,Palestinian Territory,WESTERN ASIA,5008000.0
207,793718428.0,Start,Abdel-Razak al-Yehiyeh,Palestinian Territory,WESTERN ASIA,5008000.0
208,794170874.0,Start,Abu Ali Mustafa,Palestinian Territory,WESTERN ASIA,5008000.0
209,794482018.0,C,Salah Khalaf,Palestinian Territory,WESTERN ASIA,5008000.0
210,795004000.0,Start,Kamal Nasser,Palestinian Territory,WESTERN ASIA,5008000.0
211,795648388.0,Start,Current members of Palestinian Legislative Council,Palestinian Territory,WESTERN ASIA,5008000.0
212,796124047.0,Start,Fathi Hamad,Palestinian Territory,WESTERN ASIA,5008000.0
213,796697881.0,C,Musa Alami,Palestinian Territory,WESTERN ASIA,5008000.0
214,796911861.0,C,Palestinian Declaration of Independence,Palestinian Territory,WESTERN ASIA,5008000.0
215,796924085.0,Stub,Ahmad Kurd,Palestinian Territory,WESTERN ASIA,5008000.0
216,796961464.0,Start,Amin al-Majaj,Palestinian Territory,WESTERN ASIA,5008000.0
217,797021613.0,C,Aziz Duwaik,Palestinian Territory,WESTERN ASIA,5008000.0
218,797122322.0,GA,Ahmed Yassin,Palestinian Territory,WESTERN ASIA,5008000.0
219,797806716.0,C,Hanan Ashrawi,Palestinian Territory,WESTERN ASIA,5008000.0
220,798100387.0,B,Cause of Yasser Arafat's death,Palestinian Territory,WESTERN ASIA,5008000.0
221,798262559.0,Start,Kassim Al-Rimawi,Palestinian Territory,WESTERN ASIA,5008000.0
222,798282902.0,C,Ibrahim Abu-Lughod,Palestinian Territory,WESTERN ASIA,5008000.0
223,798331360.0,Start,Islah Jad,Palestinian Territory,WESTERN ASIA,5008000.0
224,798732432.0,C,Issam Sartawi,Palestinian Territory,WESTERN ASIA,5008000.0
225,798913975.0,GA,Marwan Barghouti,Palestinian Territory,WESTERN ASIA,5008000.0
226,799023109.0,C,Mohammad Shtayyeh,Palestinian Territory,WESTERN ASIA,5008000.0
227,799023535.0,C,Mohammed Dahlan,Palestinian Territory,WESTERN ASIA,5008000.0
228,799072017.0,Start,Nabil Shaath,Palestinian Territory,WESTERN ASIA,5008000.0
229,799209138.0,Start,Nabeel Kassis,Palestinian Territory,WESTERN ASIA,5008000.0
230,799802471.0,GA,Mahmoud al-Mabhouh,Palestinian Territory,WESTERN ASIA,5008000.0
231,799858795.0,Stub,Qadura Fares,Palestinian Territory,WESTERN ASIA,5008000.0
232,800067783.0,C,Leila Khaled,Palestinian Territory,WESTERN ASIA,5008000.0
233,800264686.0,C,Muhammad Nimr al-Hawari,Palestinian Territory,WESTERN ASIA,5008000.0
234,800268417.0,Start,Wadie Haddad,Palestinian Territory,WESTERN ASIA,5008000.0
235,800663648.0,C,Munib al-Masri,Palestinian Territory,WESTERN ASIA,5008000.0
236,800718761.0,C,Suha Arafat,Palestinian Territory,WESTERN ASIA,5008000.0
237,800748567.0,C,Taba Summit,Palestinian Territory,WESTERN ASIA,5008000.0
238,800949001.0,C,Sari Nusseibeh,Palestinian Territory,WESTERN ASIA,5008000.0
239,801102332.0,Start,Education Minister of the Palestinian National Authority,Palestinian Territory,WESTERN ASIA,5008000.0
240,801214518.0,Start,Yaqub al-Ghusayn,Palestinian Territory,WESTERN ASIA,5008000.0
241,801299475.0,C,Khaled Mashal,Palestinian Territory,WESTERN ASIA,5008000.0
242,801335922.0,C,Ziad Abu Ein,Palestinian Territory,WESTERN ASIA,5008000.0
243,801507800.0,Start,Zuhdi Labib Terzi,Palestinian Territory,WESTERN ASIA,5008000.0
244,801867039.0,Start,Raghib al-Nashashibi,Palestinian Territory,WESTERN ASIA,5008000.0
245,802082257.0,Stub,Jamila Abdallah Taha al-Shanti,Palestinian Territory,WESTERN ASIA,5008000.0
246,802302873.0,C,Jibril Rajoub,Palestinian Territory,WESTERN ASIA,5008000.0
247,802436402.0,Stub,Abdelrahman al-Dajani,Palestinian Territory,WESTERN ASIA,5008000.0
248,802436510.0,Stub,Ahmad Agha Duzdar,Palestinian Territory,WESTERN ASIA,5008000.0
249,802436655.0,Stub,Musa al-Alami (mayor of Jerusalem),Palestinian Territory,WESTERN ASIA,5008000.0
250,802438226.0,Start,Hussam ad-Din Jarallah,Palestinian Territory,WESTERN ASIA,5008000.0
251,802444446.0,Stub,As'ad Shukeiri,Palestinian Territory,WESTERN ASIA,5008000.0
252,802495061.0,Start,Eyad al-Sarraj,Palestinian Territory,WESTERN ASIA,5008000.0
253,802598153.0,C,Abdel Aziz al-Rantisi,Palestinian Territory,WESTERN ASIA,5008000.0
254,802835604.0,Start,Fatima Bernawi,Palestinian Territory,WESTERN ASIA,5008000.0
255,802968215.0,C,Ahmad Sa'adat,Palestinian Territory,WESTERN ASIA,5008000.0
256,803242304.0,C,Salah Shehade,Palestinian Territory,WESTERN ASIA,5008000.0
257,803433440.0,B,Mahmoud Abbas,Palestinian Territory,WESTERN ASIA,5008000.0
258,804075706.0,FA,Yasser Arafat,Palestinian Territory,WESTERN ASIA,5008000.0
259,804132518.0,Start,Ahmad Shukeiri,Palestinian Territory,WESTERN ASIA,5008000.0
260,804292510.0,Start,10 agorot controversy,Palestinian Territory,WESTERN ASIA,5008000.0
261,804914588.0,B,2000 Camp David Summit,Palestinian Territory,WESTERN ASIA,5008000.0
262,804940228.0,B,Amin al-Husseini,Palestinian Territory,WESTERN ASIA,5008000.0
263,804957442.0,Start,Adel Zawati,Palestinian Territory,WESTERN ASIA,5008000.0
264,805306238.0,C,Omar Barghouti,Palestinian Territory,WESTERN ASIA,5008000.0
265,805321868.0,C,Arab Money,Palestinian Territory,WESTERN ASIA,5008000.0
266,805441005.0,Start,Ghassan Khatib,Palestinian Territory,WESTERN ASIA,5008000.0
267,805811873.0,Start,Ahmad Toukan,Palestinian Territory,WESTERN ASIA,5008000.0
268,806359448.0,B,Khalil al-Wazir,Palestinian Territory,WESTERN ASIA,5008000.0
269,806939531.0,C,Ismail Haniyeh,Palestinian Territory,WESTERN ASIA,5008000.0
270,807364845.0,GA,Nizar Rayan,Palestinian Territory,WESTERN ASIA,5008000.0
271,807439836.0,Stub,Haifa al-Agha,Palestinian Territory,WESTERN ASIA,5008000.0
272,807444564.0,C,Mahmoud al-Zahar,Palestinian Territory,WESTERN ASIA,5008000.0
273,807459429.0,Start,Hakam Balawi,Palestinian Territory,WESTERN ASIA,5008000.0
274,807462818.0,Start,Yunis Al Astal,Palestinian Territory,WESTERN ASIA,5008000.0
275,393822005.0,Stub,Yos Por,Cambodia,SOUTHEAST ASIA,15497000.0
276,671073599.0,Stub,Than Sina,Cambodia,SOUTHEAST ASIA,15497000.0
277,712085445.0,Stub,Ieu Pannakar,Cambodia,SOUTHEAST ASIA,15497000.0
278,713507166.0,Stub,Taing Sunlay,Cambodia,SOUTHEAST ASIA,15497000.0
279,714524609.0,Stub,Dul Koeun,Cambodia,SOUTHEAST ASIA,15497000.0
280,714524624.0,Stub,Ly Kim Leang,Cambodia,SOUTHEAST ASIA,15497000.0
281,714524714.0,Stub,Chhor Leang Huot,Cambodia,SOUTHEAST ASIA,15497000.0
282,714524870.0,Stub,Thak Lany,Cambodia,SOUTHEAST ASIA,15497000.0
283,714525029.0,Stub,Sok San,Cambodia,SOUTHEAST ASIA,15497000.0
284,714528164.0,Stub,Tep Ngorn,Cambodia,SOUTHEAST ASIA,15497000.0
285,714528251.0,Stub,Chan Cheng,Cambodia,SOUTHEAST ASIA,15497000.0
286,714528803.0,Stub,Nhim Vanda,Cambodia,SOUTHEAST ASIA,15497000.0
287,714528886.0,Stub,Pen Panha,Cambodia,SOUTHEAST ASIA,15497000.0
288,714529109.0,Stub,Sieng Nam,Cambodia,SOUTHEAST ASIA,15497000.0
289,714529370.0,Stub,So Khun,Cambodia,SOUTHEAST ASIA,15497000.0
290,714529507.0,Stub,Nou Sam,Cambodia,SOUTHEAST ASIA,15497000.0
291,716812326.0,Stub,Rath Sarem,Cambodia,SOUTHEAST ASIA,15497000.0
292,726543264.0,Stub,Kong Vibol,Cambodia,SOUTHEAST ASIA,15497000.0
293,726543284.0,Stub,Monh Saphan,Cambodia,SOUTHEAST ASIA,15497000.0
294,726543336.0,Stub,Uk Rabun,Cambodia,SOUTHEAST ASIA,15497000.0
295,726543872.0,Stub,Ay Khorn,Cambodia,SOUTHEAST ASIA,15497000.0
296,726688556.0,Stub,Oung Ouen,Cambodia,SOUTHEAST ASIA,15497000.0
297,730617957.0,Stub,List of Deputy Prime Ministers of Cambodia,Cambodia,SOUTHEAST ASIA,15497000.0
298,732331264.0,Stub,Cambodian People's Party–FUNCINPEC coalition agreement,Cambodia,SOUTHEAST ASIA,15497000.0
299,735512767.0,Stub,Chuop Hell,Cambodia,SOUTHEAST ASIA,15497000.0
300,736093077.0,Stub,Kong Korm,Cambodia,SOUTHEAST ASIA,15497000.0
301,736538934.0,Stub,Chan Nak,Cambodia,SOUTHEAST ASIA,15497000.0
302,736539294.0,Stub,Huy Kanthoul,Cambodia,SOUTHEAST ASIA,15497000.0
303,736715950.0,Stub,Vorn Vet,Cambodia,SOUTHEAST ASIA,15497000.0
304,737025619.0,Stub,Yat Hwaidi,Cambodia,SOUTHEAST ASIA,15497000.0
305,737804996.0,Stub,Khim Tit,Cambodia,SOUTHEAST ASIA,15497000.0
306,738180794.0,Start,Son Chhay,Cambodia,SOUTHEAST ASIA,15497000.0
307,738478052.0,Start,Kep Chuktema,Cambodia,SOUTHEAST ASIA,15497000.0
308,738512371.0,Stub,Nuth Rumduol,Cambodia,SOUTHEAST ASIA,15497000.0
309,738804016.0,Stub,Khieu Thavika,Cambodia,SOUTHEAST ASIA,15497000.0
310,738987957.0,Start,Norodom Phurissara,Cambodia,SOUTHEAST ASIA,15497000.0
311,738989624.0,Stub,Daran Kravanh,Cambodia,SOUTHEAST ASIA,15497000.0
312,738992094.0,Start,Sisowath Monireth,Cambodia,SOUTHEAST ASIA,15497000.0
313,738992441.0,Stub,Sisowath Youtevong,Cambodia,SOUTHEAST ASIA,15497000.0
314,739217591.0,Stub,Ou Chanrith,Cambodia,SOUTHEAST ASIA,15497000.0
315,741680078.0,Stub,Yem Ponhearith,Cambodia,SOUTHEAST ASIA,15497000.0
316,741923960.0,Stub,Chrea Sochenda,Cambodia,SOUTHEAST ASIA,15497000.0
317,742006559.0,Stub,Vong Kan,Cambodia,SOUTHEAST ASIA,15497000.0
318,742067282.0,Stub,Yos Son,Cambodia,SOUTHEAST ASIA,15497000.0
319,744291790.0,Stub,Hun Many,Cambodia,SOUTHEAST ASIA,15497000.0
320,747052284.0,Stub,Chhean Vam,Cambodia,SOUTHEAST ASIA,15497000.0
321,747052769.0,Stub,Oum Chheang Sun,Cambodia,SOUTHEAST ASIA,15497000.0
322,747053219.0,Stub,Norodom Kantol,Cambodia,SOUTHEAST ASIA,15497000.0
323,747555899.0,Start,Khieu Rada,Cambodia,SOUTHEAST ASIA,15497000.0
324,747628491.0,Stub,Ieu Koeus,Cambodia,SOUTHEAST ASIA,15497000.0
325,747784875.0,Start,Cheng Heng,Cambodia,SOUTHEAST ASIA,15497000.0
326,747945224.0,Start,Mok Mareth,Cambodia,SOUTHEAST ASIA,15497000.0
327,748137241.0,Stub,Kieng Vang,Cambodia,SOUTHEAST ASIA,15497000.0
328,748488170.0,Stub,Sisowath Watchayavong,Cambodia,SOUTHEAST ASIA,15497000.0
329,749156496.0,Stub,Sokhom So,Cambodia,SOUTHEAST ASIA,15497000.0
330,749304614.0,Stub,Min Sean,Cambodia,SOUTHEAST ASIA,15497000.0
331,749338398.0,Stub,Y Chhean,Cambodia,SOUTHEAST ASIA,15497000.0
332,749357713.0,Stub,Poa Bun Sreu,Cambodia,SOUTHEAST ASIA,15497000.0
333,749387326.0,Stub,Toan Vanthara,Cambodia,SOUTHEAST ASIA,15497000.0
334,749388858.0,Stub,Sok Soty,Cambodia,SOUTHEAST ASIA,15497000.0
335,749396845.0,Stub,Pal Sam Oeun,Cambodia,SOUTHEAST ASIA,15497000.0
336,749470256.0,Stub,Ngor Sovann,Cambodia,SOUTHEAST ASIA,15497000.0
337,749510551.0,Stub,Kea Sahorn,Cambodia,SOUTHEAST ASIA,15497000.0
338,749517390.0,Stub,Suos Kanan,Cambodia,SOUTHEAST ASIA,15497000.0
339,749537624.0,Stub,Im Chhun Lim,Cambodia,SOUTHEAST ASIA,15497000.0
340,749537772.0,Stub,Tram Iv Teuk,Cambodia,SOUTHEAST ASIA,15497000.0
341,749561164.0,Stub,Hem Khorn,Cambodia,SOUTHEAST ASIA,15497000.0
342,749569686.0,Stub,Um Nhanh,Cambodia,SOUTHEAST ASIA,15497000.0
343,749570183.0,Stub,Poa Try,Cambodia,SOUTHEAST ASIA,15497000.0
344,749683882.0,Stub,Yim Chhaily,Cambodia,SOUTHEAST ASIA,15497000.0
345,749704384.0,Stub,Ith Prang,Cambodia,SOUTHEAST ASIA,15497000.0
346,749710492.0,Stub,Try Chheang Huot,Cambodia,SOUTHEAST ASIA,15497000.0
347,749945690.0,Stub,Suk Sam Eng,Cambodia,SOUTHEAST ASIA,15497000.0
348,749967879.0,Stub,Nim Thot,Cambodia,SOUTHEAST ASIA,15497000.0
349,749970189.0,Stub,Ngin Khorn,Cambodia,SOUTHEAST ASIA,15497000.0
350,749977252.0,Stub,Sorn Inthor,Cambodia,SOUTHEAST ASIA,15497000.0
351,750055098.0,Stub,You Hockry,Cambodia,SOUTHEAST ASIA,15497000.0
352,750074445.0,Stub,Samrith Pech,Cambodia,SOUTHEAST ASIA,15497000.0
353,750077042.0,Stub,Un Neung,Cambodia,SOUTHEAST ASIA,15497000.0
354,750179637.0,Stub,Bou Thang,Cambodia,SOUTHEAST ASIA,15497000.0
355,751227068.0,Start,Peter Khoy Saukam,Cambodia,SOUTHEAST ASIA,15497000.0
356,752967379.0,Start,Tuot Saron,Cambodia,SOUTHEAST ASIA,15497000.0
357,752979708.0,Stub,Phoeurng Sackona,Cambodia,SOUTHEAST ASIA,15497000.0
358,753086260.0,Stub,Nhek Bun Chhay,Cambodia,SOUTHEAST ASIA,15497000.0
359,753684881.0,Stub,Cheam Yeab,Cambodia,SOUTHEAST ASIA,15497000.0
360,753689952.0,Stub,Chea Poch,Cambodia,SOUTHEAST ASIA,15497000.0
361,753692176.0,Stub,Chin Bun Sean,Cambodia,SOUTHEAST ASIA,15497000.0
362,753695057.0,Stub,Chhim Siek Leng,Cambodia,SOUTHEAST ASIA,15497000.0
363,753711610.0,Stub,Chea Soth,Cambodia,SOUTHEAST ASIA,15497000.0
364,754318281.0,Stub,Ke Pauk,Cambodia,SOUTHEAST ASIA,15497000.0
365,754944744.0,Stub,Kong Sam Ol,Cambodia,SOUTHEAST ASIA,15497000.0
366,755504987.0,Stub,Pho Proeung,Cambodia,SOUTHEAST ASIA,15497000.0
367,756129985.0,Stub,San Yun,Cambodia,SOUTHEAST ASIA,15497000.0
368,756722795.0,Start,Tiv Ol,Cambodia,SOUTHEAST ASIA,15497000.0
369,758665997.0,C,Son Ngoc Thanh,Cambodia,SOUTHEAST ASIA,15497000.0
370,759510662.0,Stub,Monovithya Kem,Cambodia,SOUTHEAST ASIA,15497000.0
371,761412104.0,Stub,Mom Chim Huy,Cambodia,SOUTHEAST ASIA,15497000.0
372,761941416.0,Start,Norodom Norindeth,Cambodia,SOUTHEAST ASIA,15497000.0
373,763098565.0,Start,Hem Heng,Cambodia,SOUTHEAST ASIA,15497000.0
374,763098588.0,Stub,Chum Bunrong,Cambodia,SOUTHEAST ASIA,15497000.0
375,763316692.0,Stub,Duong Vanna,Cambodia,SOUTHEAST ASIA,15497000.0
376,763968613.0,Stub,Chhay Tan,Cambodia,SOUTHEAST ASIA,15497000.0
377,765244120.0,Stub,Keat Chhon,Cambodia,SOUTHEAST ASIA,15497000.0
378,765375452.0,Stub,Ang Vong Vathana,Cambodia,SOUTHEAST ASIA,15497000.0
379,766576352.0,Stub,Keo Remy,Cambodia,SOUTHEAST ASIA,15497000.0
380,766834612.0,Start,Sun Chanthol,Cambodia,SOUTHEAST ASIA,15497000.0
381,766836319.0,Stub,Khieu Kanharith,Cambodia,SOUTHEAST ASIA,15497000.0
382,767217618.0,Stub,Chay Saing Yun,Cambodia,SOUTHEAST ASIA,15497000.0
383,767218020.0,Stub,Ek Sam Ol,Cambodia,SOUTHEAST ASIA,15497000.0
384,767867369.0,Stub,Ouk Rabun,Cambodia,SOUTHEAST ASIA,15497000.0
385,768488633.0,Stub,Hun Phoeung,Cambodia,SOUTHEAST ASIA,15497000.0
386,769381746.0,Stub,Nguon Nhel,Cambodia,SOUTHEAST ASIA,15497000.0
387,769381831.0,Stub,Khuon Sodary,Cambodia,SOUTHEAST ASIA,15497000.0
388,769447485.0,Stub,Sok Pheng,Cambodia,SOUTHEAST ASIA,15497000.0
389,769929584.0,Stub,Say Chhum,Cambodia,SOUTHEAST ASIA,15497000.0
390,771408501.0,Stub,Im Sothy,Cambodia,SOUTHEAST ASIA,15497000.0
391,773103096.0,Stub,Eng Chhai Eang,Cambodia,SOUTHEAST ASIA,15497000.0
392,773157273.0,Start,Heng Pov,Cambodia,SOUTHEAST ASIA,15497000.0
393,773455924.0,Stub,Him Chhem,Cambodia,SOUTHEAST ASIA,15497000.0
394,773694865.0,Stub,Ho Non,Cambodia,SOUTHEAST ASIA,15497000.0
395,773695304.0,Stub,Ho Vann,Cambodia,SOUTHEAST ASIA,15497000.0
396,774100291.0,Stub,Hul Savorn,Cambodia,SOUTHEAST ASIA,15497000.0
397,776153762.0,Stub,Pol Hom,Cambodia,SOUTHEAST ASIA,15497000.0
398,777665222.0,Stub,Thong Khon,Cambodia,SOUTHEAST ASIA,15497000.0
399,777765537.0,C,Hor Namhong,Cambodia,SOUTHEAST ASIA,15497000.0
400,778675539.0,Stub,Keo Saphal (Siem Reap politician),Cambodia,SOUTHEAST ASIA,15497000.0
401,778675542.0,Stub,Keo Saphal (Takeo politician),Cambodia,SOUTHEAST ASIA,15497000.0
402,778806364.0,Stub,Khek Vandy,Cambodia,SOUTHEAST ASIA,15497000.0
403,778825745.0,Stub,Khun Haing,Cambodia,SOUTHEAST ASIA,15497000.0
404,778830534.0,Stub,Khy Taing Lim,Cambodia,SOUTHEAST ASIA,15497000.0
405,778947267.0,Stub,Kimsour Phirith,Cambodia,SOUTHEAST ASIA,15497000.0
406,779440080.0,Stub,Kuoch Ky,Cambodia,SOUTHEAST ASIA,15497000.0
407,779441002.0,Stub,Kuoy Bunroeun,Cambodia,SOUTHEAST ASIA,15497000.0
408,779541149.0,Start,Chou Bun Eng,Cambodia,SOUTHEAST ASIA,15497000.0
409,779541334.0,Stub,Ke Sovannaroth,Cambodia,SOUTHEAST ASIA,15497000.0
410,779541359.0,Stub,Norodom Rattana Devi,Cambodia,SOUTHEAST ASIA,15497000.0
411,779541415.0,Stub,Norodom Vichara,Cambodia,SOUTHEAST ASIA,15497000.0
412,779541481.0,Stub,Nin Saphon,Cambodia,SOUTHEAST ASIA,15497000.0
413,779541578.0,Start,Tioulong Saumura,Cambodia,SOUTHEAST ASIA,15497000.0
414,779541650.0,Stub,Som Kimsuor,Cambodia,SOUTHEAST ASIA,15497000.0
415,780608915.0,Stub,Suy Sem,Cambodia,SOUTHEAST ASIA,15497000.0
416,780691538.0,Stub,Sourn Serey Ratha,Cambodia,SOUTHEAST ASIA,15497000.0
417,782622853.0,Stub,Ly Son,Cambodia,SOUTHEAST ASIA,15497000.0
418,782622857.0,Stub,Ly Thuch,Cambodia,SOUTHEAST ASIA,15497000.0
419,782894395.0,C,List of heads of state of Cambodia,Cambodia,SOUTHEAST ASIA,15497000.0
420,783107330.0,C,Son Sann,Cambodia,SOUTHEAST ASIA,15497000.0
421,783142781.0,Stub,Mam Bun Neang,Cambodia,SOUTHEAST ASIA,15497000.0
422,783239117.0,Stub,Chan Sarun,Cambodia,SOUTHEAST ASIA,15497000.0
423,783294124.0,Stub,Mao Monyvann,Cambodia,SOUTHEAST ASIA,15497000.0
424,784442393.0,Stub,Men Sam An,Cambodia,SOUTHEAST ASIA,15497000.0
425,784629286.0,Stub,Mey Norn,Cambodia,SOUTHEAST ASIA,15497000.0
426,784962640.0,C,Sok An,Cambodia,SOUTHEAST ASIA,15497000.0
427,786198076.0,Start,Yem Sambaur,Cambodia,SOUTHEAST ASIA,15497000.0
428,786409843.0,C,Yim Sovann,Cambodia,SOUTHEAST ASIA,15497000.0
429,786826707.0,Stub,Ek Yi Oun,Cambodia,SOUTHEAST ASIA,15497000.0
430,787016670.0,Stub,Lu Laysreng,Cambodia,SOUTHEAST ASIA,15497000.0
431,787260537.0,Stub,Math Ly,Cambodia,SOUTHEAST ASIA,15497000.0
432,787978108.0,Start,Chem Widhya,Cambodia,SOUTHEAST ASIA,15497000.0
433,788070748.0,Stub,Pa Socheatvong,Cambodia,SOUTHEAST ASIA,15497000.0
434,788070776.0,Stub,Governor of Phnom Penh,Cambodia,SOUTHEAST ASIA,15497000.0
435,788368060.0,C,Son Sen,Cambodia,SOUTHEAST ASIA,15497000.0
436,788398926.0,Start,Pen Sovan,Cambodia,SOUTHEAST ASIA,15497000.0
437,788540352.0,C,Sak Sutsakhan,Cambodia,SOUTHEAST ASIA,15497000.0
438,788758065.0,Stub,Amath Yashya,Cambodia,SOUTHEAST ASIA,15497000.0
439,788799479.0,Stub,Tong Siv Eng,Cambodia,SOUTHEAST ASIA,15497000.0
440,788905950.0,GA,Norodom Chakrapong,Cambodia,SOUTHEAST ASIA,15497000.0
441,790023943.0,Start,Prak Sokhon,Cambodia,SOUTHEAST ASIA,15497000.0
442,792012094.0,C,Khieu Samphan,Cambodia,SOUTHEAST ASIA,15497000.0
443,792274582.0,C,Sisowath Sirik Matak,Cambodia,SOUTHEAST ASIA,15497000.0
444,792556486.0,Start,Sam Sary,Cambodia,SOUTHEAST ASIA,15497000.0
445,792731504.0,Start,Tou Samouth,Cambodia,SOUTHEAST ASIA,15497000.0
446,793218721.0,Stub,Yun Yat,Cambodia,SOUTHEAST ASIA,15497000.0
447,793723115.0,Start,Khieu Ponnary,Cambodia,SOUTHEAST ASIA,15497000.0
448,793746447.0,Start,Cham Prasidh,Cambodia,SOUTHEAST ASIA,15497000.0
449,794239262.0,Start,Ung Huot,Cambodia,SOUTHEAST ASIA,15497000.0
450,794714434.0,Stub,Veng Sereyvuth,Cambodia,SOUTHEAST ASIA,15497000.0
451,795214039.0,Stub,Ieng Mouly,Cambodia,SOUTHEAST ASIA,15497000.0
452,796696955.0,Stub,Pou Sothirak,Cambodia,SOUTHEAST ASIA,15497000.0
453,797224256.0,C,Chea Sim,Cambodia,SOUTHEAST ASIA,15497000.0
454,797444265.0,C,Hu Nim,Cambodia,SOUTHEAST ASIA,15497000.0
455,797618265.0,Start,Sim Var,Cambodia,SOUTHEAST ASIA,15497000.0
456,797673057.0,Stub,Bin Chhin,Cambodia,SOUTHEAST ASIA,15497000.0
457,798039997.0,Stub,Sim Ka,Cambodia,SOUTHEAST ASIA,15497000.0
458,798241496.0,C,Hou Yuon,Cambodia,SOUTHEAST ASIA,15497000.0
459,799124051.0,Stub,Phiset Phanit,Cambodia,SOUTHEAST ASIA,15497000.0
460,799302232.0,FA,Norodom Sihanouk,Cambodia,SOUTHEAST ASIA,15497000.0
461,799453681.0,Stub,Pao Ham Phan,Cambodia,SOUTHEAST ASIA,15497000.0
462,799719505.0,Start,Heng Samrin,Cambodia,SOUTHEAST ASIA,15497000.0
463,799772448.0,C,Kang Kek Iew,Cambodia,SOUTHEAST ASIA,15497000.0
464,800087187.0,Stub,Leng Ngeth,Cambodia,SOUTHEAST ASIA,15497000.0
465,800348414.0,Stub,Spouse of the Prime Minister of Cambodia,Cambodia,SOUTHEAST ASIA,15497000.0
466,801079233.0,Start,Nhiek Tioulong,Cambodia,SOUTHEAST ASIA,15497000.0
467,801523347.0,Stub,Keo Puth Rasmey,Cambodia,SOUTHEAST ASIA,15497000.0
468,802456666.0,C,Khem Veasna,Cambodia,SOUTHEAST ASIA,15497000.0
469,802643748.0,Start,Tea Banh,Cambodia,SOUTHEAST ASIA,15497000.0
470,802839704.0,C,Ieng Sary,Cambodia,SOUTHEAST ASIA,15497000.0
471,803084525.0,Start,Son Ngoc Minh,Cambodia,SOUTHEAST ASIA,15497000.0
472,803230439.0,C,List of monarchs of Cambodia,Cambodia,SOUTHEAST ASIA,15497000.0
473,803481048.0,Stub,Ran Serey Leakhena,Cambodia,SOUTHEAST ASIA,15497000.0
474,803936929.0,C,Lon Non,Cambodia,SOUTHEAST ASIA,15497000.0
475,803936986.0,Start,Lon Nil,Cambodia,SOUTHEAST ASIA,15497000.0
476,804631223.0,C,Mu Sochua,Cambodia,SOUTHEAST ASIA,15497000.0
477,804717865.0,Start,Penn Nouth,Cambodia,SOUTHEAST ASIA,15497000.0
478,804785628.0,Start,Hang Chuon Naron,Cambodia,SOUTHEAST ASIA,15497000.0
479,805459200.0,Stub,Hong Sun Huot,Cambodia,SOUTHEAST ASIA,15497000.0
480,805740662.0,C,Sam Rainsy,Cambodia,SOUTHEAST ASIA,15497000.0
481,805876135.0,C,Nuon Chea,Cambodia,SOUTHEAST ASIA,15497000.0
482,805905770.0,B,Kao Kim Hourn,Cambodia,SOUTHEAST ASIA,15497000.0
483,806833311.0,C,Ieng Thirith,Cambodia,SOUTHEAST ASIA,15497000.0
484,806931313.0,C,Chau Sen Cocsal Chhum,Cambodia,SOUTHEAST ASIA,15497000.0
485,806997998.0,GA,Sar Kheng,Cambodia,SOUTHEAST ASIA,15497000.0
486,807003284.0,Start,Aun Pornmoniroth,Cambodia,SOUTHEAST ASIA,15497000.0
487,807025761.0,GA,Lon Nol,Cambodia,SOUTHEAST ASIA,15497000.0
739,401577829.0,Stub,Robert Douglas Cook,Canada,NORTHERN AMERICA,38190000.0
740,477962574.0,Stub,List of Canadian incumbents by year,Canada,NORTHERN AMERICA,38190000.0
741,632008524.0,Start,List of 2009 Canadian incumbents,Canada,NORTHERN AMERICA,38190000.0
742,653527941.0,Stub,Rossy Barbour,Canada,NORTHERN AMERICA,38190000.0
743,667821864.0,C,Les Scheininger,Canada,NORTHERN AMERICA,38190000.0
744,667873261.0,Start,Patrick Canning,Canada,NORTHERN AMERICA,38190000.0
745,670917017.0,Stub,Gerald Hill (politician),Canada,NORTHERN AMERICA,38190000.0
746,670971940.0,Stub,John R. O'Dea,Canada,NORTHERN AMERICA,38190000.0
747,671122320.0,Start,Samuel J. Hefferton,Canada,NORTHERN AMERICA,38190000.0
748,676610041.0,Stub,Alexander Dunphy,Canada,NORTHERN AMERICA,38190000.0
749,676612108.0,Stub,Gordon Dawe,Canada,NORTHERN AMERICA,38190000.0
750,676732644.0,Stub,Paul Thoms,Canada,NORTHERN AMERICA,38190000.0
751,676734572.0,Stub,Frederick B. Rowe,Canada,NORTHERN AMERICA,38190000.0
752,676782180.0,Stub,Allan Evans (politician),Canada,NORTHERN AMERICA,38190000.0
753,676947124.0,Stub,Luke Woodrow,Canada,NORTHERN AMERICA,38190000.0
754,677094551.0,Stub,William G. Patterson,Canada,NORTHERN AMERICA,38190000.0
755,677724847.0,Stub,Freeman White (politician),Canada,NORTHERN AMERICA,38190000.0
756,677769770.0,Stub,William J. MacNeil,Canada,NORTHERN AMERICA,38190000.0
757,679623758.0,Stub,John Collins (Canadian politician),Canada,NORTHERN AMERICA,38190000.0
758,680618797.0,Stub,Barry Hynes,Canada,NORTHERN AMERICA,38190000.0
759,684050793.0,Stub,Brendan Howard,Canada,NORTHERN AMERICA,38190000.0
760,684903534.0,Stub,Wilson Callan,Canada,NORTHERN AMERICA,38190000.0
761,684903869.0,Stub,Rod Moores,Canada,NORTHERN AMERICA,38190000.0
762,688697227.0,Start,List of 2010 Canadian incumbents,Canada,NORTHERN AMERICA,38190000.0
763,690205437.0,Stub,Harold Collins (Canadian politician),Canada,NORTHERN AMERICA,38190000.0
764,691747234.0,Stub,Speaker of the Legislative Assembly of the Province of Canada,Canada,NORTHERN AMERICA,38190000.0
765,698077739.0,Stub,"Rhinoceros Party of Canada candidates, 1980 Canadian federal election",Canada,NORTHERN AMERICA,38190000.0
766,703226576.0,Stub,David John Rankin,Canada,NORTHERN AMERICA,38190000.0
767,704136762.0,Stub,Robert Melville Smith,Canada,NORTHERN AMERICA,38190000.0
768,704516768.0,Start,Myra Freeman,Canada,NORTHERN AMERICA,38190000.0
769,705247791.0,Stub,Evelyn Shannon,Canada,NORTHERN AMERICA,38190000.0
770,705386024.0,Stub,George Little (Manitoba politician),Canada,NORTHERN AMERICA,38190000.0
771,705436088.0,Stub,Michael Rojeski,Canada,NORTHERN AMERICA,38190000.0
772,705539849.0,Stub,Gudmundur Fjelsted,Canada,NORTHERN AMERICA,38190000.0
773,705547266.0,Stub,Samuel Fletcher,Canada,NORTHERN AMERICA,38190000.0
774,706430270.0,Stub,John Crane (Canadian politician),Canada,NORTHERN AMERICA,38190000.0
775,706597779.0,Stub,Milton Peach,Canada,NORTHERN AMERICA,38190000.0
776,706758502.0,Stub,Claude Sheppard,Canada,NORTHERN AMERICA,38190000.0
777,706934829.0,Stub,Don Hollett,Canada,NORTHERN AMERICA,38190000.0
778,706942745.0,Stub,Art Reid,Canada,NORTHERN AMERICA,38190000.0
779,707172907.0,Stub,David Secord,Canada,NORTHERN AMERICA,38190000.0
780,707297623.0,Stub,Wally Firth,Canada,NORTHERN AMERICA,38190000.0
781,707632311.0,Stub,William R. Smallwood,Canada,NORTHERN AMERICA,38190000.0
782,707684781.0,Stub,C. Maxwell Lane,Canada,NORTHERN AMERICA,38190000.0
783,708179175.0,Stub,Charles Poulin,Canada,NORTHERN AMERICA,38190000.0
784,708885126.0,Stub,Francis Badgley (merchant),Canada,NORTHERN AMERICA,38190000.0
785,708967094.0,Start,Michel Sikyea,Canada,NORTHERN AMERICA,38190000.0
786,709329316.0,Start,List of 2003 Canadian incumbents,Canada,NORTHERN AMERICA,38190000.0
787,709329425.0,Start,List of 2004 Canadian incumbents,Canada,NORTHERN AMERICA,38190000.0
788,709407679.0,Start,List of 2002 Canadian incumbents,Canada,NORTHERN AMERICA,38190000.0
789,709407789.0,Start,List of 2001 Canadian incumbents,Canada,NORTHERN AMERICA,38190000.0
790,709408821.0,Start,List of 2000 Canadian incumbents,Canada,NORTHERN AMERICA,38190000.0
791,709408830.0,Start,List of 1999 Canadian incumbents,Canada,NORTHERN AMERICA,38190000.0
792,709408965.0,Start,List of 1998 Canadian incumbents,Canada,NORTHERN AMERICA,38190000.0
793,709455764.0,Start,Sonnee Cohen,Canada,NORTHERN AMERICA,38190000.0
794,709491780.0,Start,List of 1997 Canadian incumbents,Canada,NORTHERN AMERICA,38190000.0
795,709492005.0,Start,List of 1996 Canadian incumbents,Canada,NORTHERN AMERICA,38190000.0
796,709492007.0,Start,List of 1995 Canadian incumbents,Canada,NORTHERN AMERICA,38190000.0
797,709492025.0,Start,List of 1994 Canadian incumbents,Canada,NORTHERN AMERICA,38190000.0
798,709492105.0,Start,List of 1992 Canadian incumbents,Canada,NORTHERN AMERICA,38190000.0
799,709492467.0,Start,List of 1991 Canadian incumbents,Canada,NORTHERN AMERICA,38190000.0
800,709492558.0,Start,List of 1990 Canadian incumbents,Canada,NORTHERN AMERICA,38190000.0
801,709519440.0,Start,List of 2005 Canadian incumbents,Canada,NORTHERN AMERICA,38190000.0
802,710575028.0,C,Cyril Keeper,Canada,NORTHERN AMERICA,38190000.0
803,710619647.0,Stub,Adam Aptowitzer,Canada,NORTHERN AMERICA,38190000.0
804,710753764.0,Start,Yvon Picotte,Canada,NORTHERN AMERICA,38190000.0
805,711104781.0,Start,James Atebe,Canada,NORTHERN AMERICA,38190000.0
806,711603471.0,Start,List of 2007 Canadian incumbents,Canada,NORTHERN AMERICA,38190000.0
807,712417981.0,Stub,Thomas Barnaby,Canada,NORTHERN AMERICA,38190000.0
808,712579431.0,Start,Mark Evaloarjuk,Canada,NORTHERN AMERICA,38190000.0
809,712601441.0,Stub,Jacques Bizard,Canada,NORTHERN AMERICA,38190000.0
810,712973728.0,C,Lawrence Martin (musician),Canada,NORTHERN AMERICA,38190000.0
811,713249389.0,Stub,Denis Viger,Canada,NORTHERN AMERICA,38190000.0
812,713981300.0,Stub,Aidan Maloney,Canada,NORTHERN AMERICA,38190000.0
813,714172218.0,Stub,Grafton Njootli,Canada,NORTHERN AMERICA,38190000.0
814,714722019.0,Start,William Albert Boucher,Canada,NORTHERN AMERICA,38190000.0
815,715055224.0,Stub,Marvin Gelber,Canada,NORTHERN AMERICA,38190000.0
816,715359989.0,Stub,Robert Robertson (politician),Canada,NORTHERN AMERICA,38190000.0
817,716489196.0,Stub,Maxime Lépine,Canada,NORTHERN AMERICA,38190000.0
818,716690197.0,Stub,Ambroise-Dydime Lépine,Canada,NORTHERN AMERICA,38190000.0
819,716908156.0,B,W. Garfield Case,Canada,NORTHERN AMERICA,38190000.0
820,716924009.0,Stub,Guy Williams (politician),Canada,NORTHERN AMERICA,38190000.0
821,716960979.0,Start,May Birchard,Canada,NORTHERN AMERICA,38190000.0
822,717061600.0,Stub,William Todd (1803–1873),Canada,NORTHERN AMERICA,38190000.0
823,717154850.0,Stub,Albert Planta,Canada,NORTHERN AMERICA,38190000.0
824,717397656.0,Stub,Jacques Viger (Member of the Assembly),Canada,NORTHERN AMERICA,38190000.0
825,717547859.0,Stub,Alexander Kennedy Isbister,Canada,NORTHERN AMERICA,38190000.0
826,717897492.0,Start,Stuart Lyon Smith,Canada,NORTHERN AMERICA,38190000.0
827,718265809.0,Stub,Michel Bénard,Canada,NORTHERN AMERICA,38190000.0
828,718852428.0,Start,Maurice Laframboise,Canada,NORTHERN AMERICA,38190000.0
829,719597828.0,Start,James Isbister,Canada,NORTHERN AMERICA,38190000.0
830,719598088.0,Start,Jean-Charles Chapais,Canada,NORTHERN AMERICA,38190000.0
831,720131548.0,Start,List of 1993 Canadian incumbents,Canada,NORTHERN AMERICA,38190000.0
832,720131554.0,Start,List of 1989 Canadian incumbents,Canada,NORTHERN AMERICA,38190000.0
833,720131559.0,Start,List of 1988 Canadian incumbents,Canada,NORTHERN AMERICA,38190000.0
834,720133136.0,Start,List of 2008 Canadian incumbents,Canada,NORTHERN AMERICA,38190000.0
835,720256444.0,Start,John Judah Glass,Canada,NORTHERN AMERICA,38190000.0
836,721006116.0,Stub,List of 1867 Canadian incumbents,Canada,NORTHERN AMERICA,38190000.0
837,721093245.0,Start,Lazarus Phillips,Canada,NORTHERN AMERICA,38190000.0
838,721792566.0,Stub,Samuel Hume Blake,Canada,NORTHERN AMERICA,38190000.0
839,722043055.0,Stub,Gilles Houde,Canada,NORTHERN AMERICA,38190000.0
840,723148572.0,C,Brenda Paris,Canada,NORTHERN AMERICA,38190000.0
841,723249393.0,Stub,Henry Judah,Canada,NORTHERN AMERICA,38190000.0
842,723252411.0,Stub,Rupert Bartlett,Canada,NORTHERN AMERICA,38190000.0
843,723253555.0,Start,Peter Bercovitch,Canada,NORTHERN AMERICA,38190000.0
844,723253656.0,Start,Maurice Hartt,Canada,NORTHERN AMERICA,38190000.0
845,723271862.0,Stub,Jerome Dinn,Canada,NORTHERN AMERICA,38190000.0
846,723348093.0,Start,Tom Hickey (politician),Canada,NORTHERN AMERICA,38190000.0
847,723377038.0,Stub,Myles Murray,Canada,NORTHERN AMERICA,38190000.0
848,723694660.0,Stub,Frederick Langdon Hubbard,Canada,NORTHERN AMERICA,38190000.0
849,724068863.0,Stub,Stephen Wallace (public servant),Canada,NORTHERN AMERICA,38190000.0
850,724678615.0,Start,Harry Blank,Canada,NORTHERN AMERICA,38190000.0
851,725395350.0,Stub,Hubert Kitchen,Canada,NORTHERN AMERICA,38190000.0
852,725401345.0,Stub,Uriah Strickland,Canada,NORTHERN AMERICA,38190000.0
853,725401404.0,Stub,Aubrey Gover,Canada,NORTHERN AMERICA,38190000.0
854,725403647.0,Stub,Alec Moores,Canada,NORTHERN AMERICA,38190000.0
855,725404809.0,Stub,Eugene Hiscock,Canada,NORTHERN AMERICA,38190000.0
856,725409378.0,Stub,H.R.V. Earle,Canada,NORTHERN AMERICA,38190000.0
857,725417107.0,Stub,Glenn Tobin,Canada,NORTHERN AMERICA,38190000.0
858,726662002.0,Stub,W. George Cross,Canada,NORTHERN AMERICA,38190000.0
859,728457018.0,C,François Beaulieu II,Canada,NORTHERN AMERICA,38190000.0
860,729104207.0,Stub,Alexander Macdonell of Greenfield,Canada,NORTHERN AMERICA,38190000.0
861,729767652.0,Start,Steve Owens (politician),Canada,NORTHERN AMERICA,38190000.0
862,730002481.0,Start,Howard McCurdy,Canada,NORTHERN AMERICA,38190000.0
863,730706462.0,C,Jeremy Akerman,Canada,NORTHERN AMERICA,38190000.0
864,730830430.0,Start,Office-holders of Canada,Canada,NORTHERN AMERICA,38190000.0
865,733451024.0,Start,Louis Singer,Canada,NORTHERN AMERICA,38190000.0
866,734484063.0,Start,Edward Whelan (Canadian politician),Canada,NORTHERN AMERICA,38190000.0
867,734799659.0,Start,Wilfred McDonald,Canada,NORTHERN AMERICA,38190000.0
868,735721150.0,Stub,Kevin Parsons Sr.,Canada,NORTHERN AMERICA,38190000.0
869,735809835.0,Start,Hugh Twomey,Canada,NORTHERN AMERICA,38190000.0
870,736826045.0,Stub,Alexander Grant Dallas,Canada,NORTHERN AMERICA,38190000.0
871,737118230.0,Stub,John L. Brown (Ontario politician),Canada,NORTHERN AMERICA,38190000.0
872,738242188.0,Start,Jean Baptiste Wilkie,Canada,NORTHERN AMERICA,38190000.0
873,738943928.0,Stub,Stanley Hall (politician),Canada,NORTHERN AMERICA,38190000.0
874,739134923.0,Start,Samuel Genest,Canada,NORTHERN AMERICA,38190000.0
875,740276158.0,Start,David Berger (Canadian politician),Canada,NORTHERN AMERICA,38190000.0
876,740276869.0,C,David Rotenberg,Canada,NORTHERN AMERICA,38190000.0
877,740441527.0,Stub,Aubrey Senior,Canada,NORTHERN AMERICA,38190000.0
878,740482412.0,Stub,Neil Fraser (civil servant),Canada,NORTHERN AMERICA,38190000.0
879,740863576.0,Start,Thomas McKay (Northwest Territories politician),Canada,NORTHERN AMERICA,38190000.0
880,740863717.0,Stub,Peter Fraser (Northwest Territories politician),Canada,NORTHERN AMERICA,38190000.0
881,741266718.0,Start,Ron Ghitter,Canada,NORTHERN AMERICA,38190000.0
882,742618365.0,Stub,Esau Schafer,Canada,NORTHERN AMERICA,38190000.0
883,742989409.0,Stub,Michael S. Martin,Canada,NORTHERN AMERICA,38190000.0
884,743342114.0,Stub,Wayne Jim,Canada,NORTHERN AMERICA,38190000.0
885,743352732.0,Stub,William Angus Dickson,Canada,NORTHERN AMERICA,38190000.0
886,743802406.0,Start,James Laxer,Canada,NORTHERN AMERICA,38190000.0
887,743934426.0,Start,Robert Duncan Wilmot,Canada,NORTHERN AMERICA,38190000.0
888,744260793.0,Start,William Steeves,Canada,NORTHERN AMERICA,38190000.0
889,744493549.0,Start,List of Canadian ministries,Canada,NORTHERN AMERICA,38190000.0
890,744724453.0,Start,John Hamilton Gray (New Brunswick politician),Canada,NORTHERN AMERICA,38190000.0
891,744726413.0,Start,Lawrence Armstrong,Canada,NORTHERN AMERICA,38190000.0
892,744887895.0,Start,Peter Mitchell (politician),Canada,NORTHERN AMERICA,38190000.0
893,745111909.0,Start,George Benjamin (Orangeman),Canada,NORTHERN AMERICA,38190000.0
894,745448033.0,Start,Jean Alfred,Canada,NORTHERN AMERICA,38190000.0
895,745453138.0,Start,Moe Mantha Sr.,Canada,NORTHERN AMERICA,38190000.0
896,745678622.0,Start,Samuel Factor (Canadian politician),Canada,NORTHERN AMERICA,38190000.0
897,746467178.0,Start,Leon Crestohl,Canada,NORTHERN AMERICA,38190000.0
898,746471129.0,Start,Frederick E. Harrison,Canada,NORTHERN AMERICA,38190000.0
899,746727879.0,Start,Solomon Hart Green,Canada,NORTHERN AMERICA,38190000.0
900,746891841.0,Stub,George T. Marsh,Canada,NORTHERN AMERICA,38190000.0
901,746916216.0,Stub,J. A. McCaul,Canada,NORTHERN AMERICA,38190000.0
902,747526324.0,Start,John O'Neill (Canadian politician),Canada,NORTHERN AMERICA,38190000.0
903,748140172.0,Start,George Coles (politician),Canada,NORTHERN AMERICA,38190000.0
904,749483611.0,Stub,John William Ritchie,Canada,NORTHERN AMERICA,38190000.0
905,749552058.0,Start,Mickey Hennessy,Canada,NORTHERN AMERICA,38190000.0
906,750062937.0,Start,Jeff Rose,Canada,NORTHERN AMERICA,38190000.0
907,750436001.0,Start,Jacob Æmilius Irving,Canada,NORTHERN AMERICA,38190000.0
908,751176274.0,Stub,John N. Anderson,Canada,NORTHERN AMERICA,38190000.0
909,751807970.0,Stub,Arthur S. Mifflin,Canada,NORTHERN AMERICA,38190000.0
910,751987164.0,Start,Wallace House (politician),Canada,NORTHERN AMERICA,38190000.0
911,752068111.0,Start,Ernie Tate,Canada,NORTHERN AMERICA,38190000.0
912,753367995.0,C,Yvon Dumont,Canada,NORTHERN AMERICA,38190000.0
913,753379799.0,Start,James Cockburn (politician),Canada,NORTHERN AMERICA,38190000.0
914,755386512.0,Start,Firmin Monestime,Canada,NORTHERN AMERICA,38190000.0
915,756279684.0,Start,Elmer Knutson,Canada,NORTHERN AMERICA,38190000.0
916,756291644.0,Start,Ray Kingsmith,Canada,NORTHERN AMERICA,38190000.0
917,756551426.0,Stub,David Smith (Quebec politician),Canada,NORTHERN AMERICA,38190000.0
918,756552638.0,Stub,Frantz Benjamin,Canada,NORTHERN AMERICA,38190000.0
919,756554677.0,Start,Irving Gerstein,Canada,NORTHERN AMERICA,38190000.0
920,756555976.0,Stub,Jonathan Valois,Canada,NORTHERN AMERICA,38190000.0
921,756556561.0,Start,Leo Kolber,Canada,NORTHERN AMERICA,38190000.0
922,756558693.0,Stub,Ovid Jackson,Canada,NORTHERN AMERICA,38190000.0
923,756570254.0,Start,Richard Marceau,Canada,NORTHERN AMERICA,38190000.0
924,756570822.0,Start,Russell Copeman,Canada,NORTHERN AMERICA,38190000.0
925,756572403.0,Start,Yoine Goldstein,Canada,NORTHERN AMERICA,38190000.0
926,756574108.0,Stub,Keith Goulet,Canada,NORTHERN AMERICA,38190000.0
927,756585976.0,Stub,Ovide Alakannuark,Canada,NORTHERN AMERICA,38190000.0
928,756585982.0,Stub,Ron Elliott (politician),Canada,NORTHERN AMERICA,38190000.0
929,756585983.0,Stub,David Iqaqrialu,Canada,NORTHERN AMERICA,38190000.0
930,756585988.0,Stub,Patterk Netser,Canada,NORTHERN AMERICA,38190000.0
931,756585989.0,Stub,Donald Havioyak,Canada,NORTHERN AMERICA,38190000.0
932,756585996.0,Start,Kevin O'Brien (Nunavut politician),Canada,NORTHERN AMERICA,38190000.0
933,756585998.0,Start,Samuel Nuqingaq,Canada,NORTHERN AMERICA,38190000.0
934,756585999.0,Stub,Daniel Shewchuk,Canada,NORTHERN AMERICA,38190000.0
935,756586002.0,Stub,Hezakiah Oshutapik,Canada,NORTHERN AMERICA,38190000.0
936,756587157.0,Start,David Chudnovsky (politician),Canada,NORTHERN AMERICA,38190000.0
937,756587370.0,Stub,Doug Oldford,Canada,NORTHERN AMERICA,38190000.0
938,756588884.0,Stub,Kevin Menicoche,Canada,NORTHERN AMERICA,38190000.0
939,756588999.0,Start,Lindsay Blackett,Canada,NORTHERN AMERICA,38190000.0
940,756591021.0,Stub,Stelman Flynn,Canada,NORTHERN AMERICA,38190000.0
941,756764820.0,Start,Anita Neville,Canada,NORTHERN AMERICA,38190000.0
942,756793754.0,Start,Erminie Cohen,Canada,NORTHERN AMERICA,38190000.0
943,756827167.0,Stub,Monique Richard,Canada,NORTHERN AMERICA,38190000.0
944,756833298.0,Start,Vivian Barbot,Canada,NORTHERN AMERICA,38190000.0
945,756994842.0,Stub,Walt Secord,Canada,NORTHERN AMERICA,38190000.0
946,757340941.0,B,Esther Shiner,Canada,NORTHERN AMERICA,38190000.0
947,757841167.0,Stub,Peter Kilabuk,Canada,NORTHERN AMERICA,38190000.0
948,758196830.0,C,Steve Mantis,Canada,NORTHERN AMERICA,38190000.0
949,758368304.0,Start,Thomas Malone (politician),Canada,NORTHERN AMERICA,38190000.0
950,758498194.0,Start,Pierre Sévigny,Canada,NORTHERN AMERICA,38190000.0
951,758814005.0,Start,Vance Badawey,Canada,NORTHERN AMERICA,38190000.0
952,759068429.0,Stub,Joseph Cohen,Canada,NORTHERN AMERICA,38190000.0
953,759216527.0,Start,Edward Barron Chandler,Canada,NORTHERN AMERICA,38190000.0
954,759365933.0,Start,Christin Milloy,Canada,NORTHERN AMERICA,38190000.0
955,759441852.0,Stub,Gerry Organ,Canada,NORTHERN AMERICA,38190000.0
956,760183672.0,Stub,Jobie Nutarak,Canada,NORTHERN AMERICA,38190000.0
957,760716476.0,C,Cuthbert Grant,Canada,NORTHERN AMERICA,38190000.0
958,760733809.0,C,Samuel Leonard Tilley,Canada,NORTHERN AMERICA,38190000.0
959,761104451.0,Stub,Norman Yakeleya,Canada,NORTHERN AMERICA,38190000.0
960,761604965.0,Start,Edward Palmer (Canadian politician),Canada,NORTHERN AMERICA,38190000.0
961,761630386.0,Stub,André-Gilles Fortin,Canada,NORTHERN AMERICA,38190000.0
962,761737356.0,Start,Stanley G. Grizzle,Canada,NORTHERN AMERICA,38190000.0
963,762182031.0,Start,Janine Krieber,Canada,NORTHERN AMERICA,38190000.0
964,763591385.0,Stub,J. Trevor Morgan,Canada,NORTHERN AMERICA,38190000.0
965,763667690.0,Start,Robert B. Dickey,Canada,NORTHERN AMERICA,38190000.0
966,764121172.0,Start,Elizabeth Ball,Canada,NORTHERN AMERICA,38190000.0
967,764210531.0,C,Edgar Leduc,Canada,NORTHERN AMERICA,38190000.0
968,764319651.0,Start,Eric Berntson,Canada,NORTHERN AMERICA,38190000.0
969,764712203.0,C,Alvin Curling,Canada,NORTHERN AMERICA,38190000.0
970,764751927.0,Stub,Charles Nolin,Canada,NORTHERN AMERICA,38190000.0
971,764911059.0,Start,Don Luzzi,Canada,NORTHERN AMERICA,38190000.0
972,764967572.0,Stub,Moses Appaqaq,Canada,NORTHERN AMERICA,38190000.0
973,765860301.0,Start,Laurier LaPierre,Canada,NORTHERN AMERICA,38190000.0
974,765882998.0,Stub,Thomas McNabb,Canada,NORTHERN AMERICA,38190000.0
975,766192534.0,Start,Richard Kroft,Canada,NORTHERN AMERICA,38190000.0
976,766256645.0,Start,William Cecil Ross,Canada,NORTHERN AMERICA,38190000.0
977,766314013.0,C,John Christian Schultz,Canada,NORTHERN AMERICA,38190000.0
978,766389101.0,Start,Lawrence Bergman,Canada,NORTHERN AMERICA,38190000.0
979,766438067.0,Stub,Saul Polo,Canada,NORTHERN AMERICA,38190000.0
980,766439638.0,Stub,Marc Tanguay,Canada,NORTHERN AMERICA,38190000.0
981,766910246.0,C,Henri Bourassa,Canada,NORTHERN AMERICA,38190000.0
982,767393654.0,Stub,Kathryn Cholette,Canada,NORTHERN AMERICA,38190000.0
983,768559614.0,Start,Marie Tifo,Canada,NORTHERN AMERICA,38190000.0
984,768764874.0,Stub,Scott Reid (Newfoundland and Labrador politician),Canada,NORTHERN AMERICA,38190000.0
985,768786587.0,Stub,David Shepherd (Canadian politician),Canada,NORTHERN AMERICA,38190000.0
986,768810456.0,Stub,Bob Lagassé,Canada,NORTHERN AMERICA,38190000.0
987,768814794.0,Stub,Amanda Lathlin,Canada,NORTHERN AMERICA,38190000.0
988,768862415.0,Stub,Frederick Blake Jr.,Canada,NORTHERN AMERICA,38190000.0
989,768863547.0,Stub,Alfred Moses (politician),Canada,NORTHERN AMERICA,38190000.0
990,768864228.0,Stub,Cory Vanthuyne,Canada,NORTHERN AMERICA,38190000.0
991,768958236.0,Stub,Pat Angnakak,Canada,NORTHERN AMERICA,38190000.0
992,768958283.0,Stub,Tony Akoak,Canada,NORTHERN AMERICA,38190000.0
993,768958879.0,Stub,Joe Enook,Canada,NORTHERN AMERICA,38190000.0
994,768959104.0,Stub,David Joanasie,Canada,NORTHERN AMERICA,38190000.0
995,768959229.0,Start,Pauloosie Keyootak,Canada,NORTHERN AMERICA,38190000.0
996,768959407.0,Stub,George Kuksuk,Canada,NORTHERN AMERICA,38190000.0
997,768960023.0,Stub,Johnny Mike,Canada,NORTHERN AMERICA,38190000.0
998,768960087.0,Stub,Simeon Mikkungwak,Canada,NORTHERN AMERICA,38190000.0
999,768961961.0,Stub,Emilino Qirngnuq,Canada,NORTHERN AMERICA,38190000.0
1000,768962064.0,Stub,Paul Quassa,Canada,NORTHERN AMERICA,38190000.0
1001,768962738.0,Stub,Alexander Sammurtok,Canada,NORTHERN AMERICA,38190000.0
1002,768962880.0,Stub,Tom Sammurtok,Canada,NORTHERN AMERICA,38190000.0
1003,768963019.0,Stub,Joe Savikataaq,Canada,NORTHERN AMERICA,38190000.0
1004,768963083.0,Stub,Isaac Shooyook,Canada,NORTHERN AMERICA,38190000.0
1005,769536250.0,Start,Robert Laxer,Canada,NORTHERN AMERICA,38190000.0
1006,769701399.0,Stub,Bev Buckway,Canada,NORTHERN AMERICA,38190000.0
1007,769801452.0,Stub,John A. Carter (Newfoundland politician),Canada,NORTHERN AMERICA,38190000.0
1008,769892952.0,Stub,Alexis Wawanoloath,Canada,NORTHERN AMERICA,38190000.0
1009,770180303.0,Start,John Mercer Johnson,Canada,NORTHERN AMERICA,38190000.0
1010,770539254.0,Stub,George Qulaut,Canada,NORTHERN AMERICA,38190000.0
1011,770622467.0,Start,James Chalker,Canada,NORTHERN AMERICA,38190000.0
1012,770666386.0,Stub,Peter Hyndman,Canada,NORTHERN AMERICA,38190000.0
1013,771125401.0,Start,Angus McKay (Manitoba politician),Canada,NORTHERN AMERICA,38190000.0
1014,771126667.0,Stub,Burr Plato,Canada,NORTHERN AMERICA,38190000.0
1015,771816793.0,Start,John Nuraney,Canada,NORTHERN AMERICA,38190000.0
1016,771816909.0,Stub,Patrick Wong,Canada,NORTHERN AMERICA,38190000.0
1017,772074757.0,Start,Greg Fergus,Canada,NORTHERN AMERICA,38190000.0
1018,772143645.0,C,Moe Sihota,Canada,NORTHERN AMERICA,38190000.0
1019,773033470.0,Stub,Christian Dubé (politician),Canada,NORTHERN AMERICA,38190000.0
1020,773670195.0,Start,William Alexander Henry,Canada,NORTHERN AMERICA,38190000.0
1021,773730196.0,Stub,Raymond Guy,Canada,NORTHERN AMERICA,38190000.0
1022,773794183.0,Start,Anne Cools,Canada,NORTHERN AMERICA,38190000.0
1023,773944289.0,Start,William Henry Pope (Canadian politician),Canada,NORTHERN AMERICA,38190000.0
1024,774081975.0,B,Hugh McFadyen,Canada,NORTHERN AMERICA,38190000.0
1025,774113266.0,Start,Betty Baxter,Canada,NORTHERN AMERICA,38190000.0
1026,774219529.0,Stub,Jeremiah Travis,Canada,NORTHERN AMERICA,38190000.0
1027,774339307.0,C,Sonya Biddle,Canada,NORTHERN AMERICA,38190000.0
1028,774554017.0,Start,Rick Folk,Canada,NORTHERN AMERICA,38190000.0
1029,775052908.0,Start,Paul Delorey,Canada,NORTHERN AMERICA,38190000.0
1030,775788320.0,Stub,Jackson Lafferty,Canada,NORTHERN AMERICA,38190000.0
1031,776202179.0,Stub,Neil Windsor,Canada,NORTHERN AMERICA,38190000.0
1032,776216624.0,Start,Samuel Rothschild,Canada,NORTHERN AMERICA,38190000.0
1033,776335254.0,C,Jean-Serge Brisson,Canada,NORTHERN AMERICA,38190000.0
1034,776738317.0,Stub,David Wells (politician),Canada,NORTHERN AMERICA,38190000.0
1035,776860106.0,C,Joseph Markin,Canada,NORTHERN AMERICA,38190000.0
1036,777521501.0,Stub,Joseph Nolin,Canada,NORTHERN AMERICA,38190000.0
1037,777758793.0,Stub,Jules Marion,Canada,NORTHERN AMERICA,38190000.0
1038,777783696.0,Start,Julie Dabrusin,Canada,NORTHERN AMERICA,38190000.0
1039,778052470.0,Stub,James W. Douglas,Canada,NORTHERN AMERICA,38190000.0
1040,778444272.0,C,Terry Cavanagh (politician),Canada,NORTHERN AMERICA,38190000.0
1041,778689553.0,Start,Jose Kusugak,Canada,NORTHERN AMERICA,38190000.0
1042,779401546.0,C,Jerry Grafstein,Canada,NORTHERN AMERICA,38190000.0
1043,779756954.0,Stub,Clyde Brown,Canada,NORTHERN AMERICA,38190000.0
1044,780233998.0,C,Honoré Mercier,Canada,NORTHERN AMERICA,38190000.0
1045,780292774.0,C,Leonard Marchand,Canada,NORTHERN AMERICA,38190000.0
1046,781221633.0,Stub,John Ritchie (merchant),Canada,NORTHERN AMERICA,38190000.0
1047,781735656.0,Start,Kenny Blatchford,Canada,NORTHERN AMERICA,38190000.0
1048,781752285.0,C,Tyrone Benskin,Canada,NORTHERN AMERICA,38190000.0
1049,781861722.0,Stub,Wendy Priesnitz,Canada,NORTHERN AMERICA,38190000.0
1050,782131917.0,Stub,Tom Shypitka,Canada,NORTHERN AMERICA,38190000.0
1051,782158388.0,Stub,Alexandre Bourdeau,Canada,NORTHERN AMERICA,38190000.0
1052,782556135.0,Start,Yvonne Atwell,Canada,NORTHERN AMERICA,38190000.0
1053,782557871.0,Start,Gordon H. Fitzgerald,Canada,NORTHERN AMERICA,38190000.0
1054,782791446.0,Start,Gordon Earle,Canada,NORTHERN AMERICA,38190000.0
1055,782868134.0,Start,List of 1987 Canadian incumbents,Canada,NORTHERN AMERICA,38190000.0
1056,782883488.0,Start,List of 1986 Canadian incumbents,Canada,NORTHERN AMERICA,38190000.0
1057,782883737.0,Start,List of 1981 Canadian incumbents,Canada,NORTHERN AMERICA,38190000.0
1058,782884363.0,Start,List of 1982 Canadian incumbents,Canada,NORTHERN AMERICA,38190000.0
1059,782884424.0,Start,List of 1983 Canadian incumbents,Canada,NORTHERN AMERICA,38190000.0
1060,782884501.0,Start,List of 1984 Canadian incumbents,Canada,NORTHERN AMERICA,38190000.0
1061,782884560.0,Start,List of 1985 Canadian incumbents,Canada,NORTHERN AMERICA,38190000.0
1062,783059739.0,Start,Emery Barnes,Canada,NORTHERN AMERICA,38190000.0
1063,783142138.0,Stub,Stephen Gough (politician),Canada,NORTHERN AMERICA,38190000.0
1064,783380619.0,Start,3rd Canadian Ministry,Canada,NORTHERN AMERICA,38190000.0
1065,783380740.0,Start,1st Canadian Ministry,Canada,NORTHERN AMERICA,38190000.0
1066,783380794.0,Start,2nd Canadian Ministry,Canada,NORTHERN AMERICA,38190000.0
1067,783380859.0,Start,4th Canadian Ministry,Canada,NORTHERN AMERICA,38190000.0
1068,783380895.0,Stub,5th Canadian Ministry,Canada,NORTHERN AMERICA,38190000.0
1069,783380933.0,Stub,6th Canadian Ministry,Canada,NORTHERN AMERICA,38190000.0
1070,783380988.0,Start,7th Canadian Ministry,Canada,NORTHERN AMERICA,38190000.0
1071,783381017.0,Start,8th Canadian Ministry,Canada,NORTHERN AMERICA,38190000.0
1072,783381068.0,Start,9th Canadian Ministry,Canada,NORTHERN AMERICA,38190000.0
1073,783381234.0,Start,11th Canadian Ministry,Canada,NORTHERN AMERICA,38190000.0
1074,783381298.0,Start,12th Canadian Ministry,Canada,NORTHERN AMERICA,38190000.0
1075,783381341.0,Start,13th Canadian Ministry,Canada,NORTHERN AMERICA,38190000.0
1076,783381425.0,Start,15th Canadian Ministry,Canada,NORTHERN AMERICA,38190000.0
1077,783381457.0,Start,16th Canadian Ministry,Canada,NORTHERN AMERICA,38190000.0
1078,783381498.0,Start,17th Canadian Ministry,Canada,NORTHERN AMERICA,38190000.0
1079,783381525.0,Start,18th Canadian Ministry,Canada,NORTHERN AMERICA,38190000.0
1080,783381573.0,Start,19th Canadian Ministry,Canada,NORTHERN AMERICA,38190000.0
1081,783381714.0,Start,22nd Canadian Ministry,Canada,NORTHERN AMERICA,38190000.0
1082,783381797.0,Stub,24th Canadian Ministry,Canada,NORTHERN AMERICA,38190000.0
1083,783381925.0,B,26th Canadian Ministry,Canada,NORTHERN AMERICA,38190000.0
1084,783381990.0,B,27th Canadian Ministry,Canada,NORTHERN AMERICA,38190000.0
1085,783382043.0,C,28th Canadian Ministry,Canada,NORTHERN AMERICA,38190000.0
1086,783385197.0,Start,10th Canadian Ministry,Canada,NORTHERN AMERICA,38190000.0
1087,783405075.0,Stub,Samuel Street,Canada,NORTHERN AMERICA,38190000.0
1088,783405405.0,Stub,George Denison (Canadian politician),Canada,NORTHERN AMERICA,38190000.0
1089,783406498.0,Stub,Joseph Laporte,Canada,NORTHERN AMERICA,38190000.0
1090,783406951.0,Stub,John McDonald (1787–1860),Canada,NORTHERN AMERICA,38190000.0
1091,783408259.0,Stub,Henry John Caldwell,Canada,NORTHERN AMERICA,38190000.0
1092,783423815.0,Stub,Margaret Mary Macdonald,Canada,NORTHERN AMERICA,38190000.0
1093,783503058.0,Start,Marilyn Bodogh,Canada,NORTHERN AMERICA,38190000.0
1094,783527330.0,Start,Louis-Mathias Auger,Canada,NORTHERN AMERICA,38190000.0
1095,783695617.0,Start,Granville Anderson,Canada,NORTHERN AMERICA,38190000.0
1096,783759655.0,Start,Susan Leblanc,Canada,NORTHERN AMERICA,38190000.0
1097,783880928.0,C,Selim Franklin,Canada,NORTHERN AMERICA,38190000.0
1098,783918316.0,Stub,Daniel Christmas,Canada,NORTHERN AMERICA,38190000.0
1099,783918538.0,Start,Wanda Thomas Bernard,Canada,NORTHERN AMERICA,38190000.0
1100,783986759.0,Start,Andrew Archibald Macdonald,Canada,NORTHERN AMERICA,38190000.0
1101,784066286.0,C,Maurice Spector,Canada,NORTHERN AMERICA,38190000.0
1102,784120111.0,Start,Louis Riel Sr.,Canada,NORTHERN AMERICA,38190000.0
1103,784765875.0,Stub,Michael Levitt (politician),Canada,NORTHERN AMERICA,38190000.0
1104,785044905.0,Start,Mike Feldman,Canada,NORTHERN AMERICA,38190000.0
1105,785287078.0,Start,Allan Grossman,Canada,NORTHERN AMERICA,38190000.0
1106,785439079.0,C,Mayann Francis,Canada,NORTHERN AMERICA,38190000.0
1107,785484840.0,Stub,Robert Bruce (Yukon politician),Canada,NORTHERN AMERICA,38190000.0
1108,785484858.0,Stub,Dave Keenan,Canada,NORTHERN AMERICA,38190000.0
1109,785484913.0,Stub,Gerald Morin,Canada,NORTHERN AMERICA,38190000.0
1110,785485183.0,Stub,John Bruce (Canada),Canada,NORTHERN AMERICA,38190000.0
1111,785485193.0,Stub,David Chartrand,Canada,NORTHERN AMERICA,38190000.0
1112,785485223.0,Stub,Frank Whitehead,Canada,NORTHERN AMERICA,38190000.0
1113,785485255.0,Start,Frank Arthur Calder,Canada,NORTHERN AMERICA,38190000.0
1114,785485273.0,Stub,Harley Desjarlais,Canada,NORTHERN AMERICA,38190000.0
1115,785485534.0,Start,Malcolm Norris,Canada,NORTHERN AMERICA,38190000.0
1116,785485557.0,Stub,Walter Patrick Twinn,Canada,NORTHERN AMERICA,38190000.0
1117,785486306.0,C,Eric Fairclough,Canada,NORTHERN AMERICA,38190000.0
1118,785624788.0,Start,Richard Holden (politician),Canada,NORTHERN AMERICA,38190000.0
1119,785749103.0,Start,Pierre Curzi,Canada,NORTHERN AMERICA,38190000.0
1120,785771333.0,Stub,Richard Phillips Hotham,Canada,NORTHERN AMERICA,38190000.0
1121,786033113.0,Start,Tony Ince,Canada,NORTHERN AMERICA,38190000.0
1122,786279123.0,C,John Alan Lee,Canada,NORTHERN AMERICA,38190000.0
1123,786402183.0,Start,Joseph Schubert (politician),Canada,NORTHERN AMERICA,38190000.0
1124,786402756.0,Start,Joseph Zuken,Canada,NORTHERN AMERICA,38190000.0
1125,786430694.0,C,Kalmen Kaplansky,Canada,NORTHERN AMERICA,38190000.0
1126,786434801.0,Start,Robert Kitchen,Canada,NORTHERN AMERICA,38190000.0
1127,786532062.0,C,Linda Frum,Canada,NORTHERN AMERICA,38190000.0
1128,786614713.0,Start,Todd Russell,Canada,NORTHERN AMERICA,38190000.0
1129,786959195.0,C,Charles Mair,Canada,NORTHERN AMERICA,38190000.0
1130,786991589.0,Start,Joseph Singer,Canada,NORTHERN AMERICA,38190000.0
1131,787109348.0,C,Maka Kotto,Canada,NORTHERN AMERICA,38190000.0
1132,787308513.0,GA,Madame Montour,Canada,NORTHERN AMERICA,38190000.0
1133,787351708.0,Start,Mrs. King,Canada,NORTHERN AMERICA,38190000.0
1134,787357999.0,Stub,Time and Chance (Kim Campbell),Canada,NORTHERN AMERICA,38190000.0
1135,787490092.0,B,Peter Wong (Canadian politician),Canada,NORTHERN AMERICA,38190000.0
1136,787519192.0,Stub,Ford Nation (book),Canada,NORTHERN AMERICA,38190000.0
1137,787883154.0,Start,Calvin Ruck,Canada,NORTHERN AMERICA,38190000.0
1138,787956867.0,Start,Matthew Coon Come,Canada,NORTHERN AMERICA,38190000.0
1139,787958081.0,Start,Jim Sinclair (politician),Canada,NORTHERN AMERICA,38190000.0
1140,788058254.0,C,Samuel William Jacobs,Canada,NORTHERN AMERICA,38190000.0
1141,788128207.0,C,Simma Holt,Canada,NORTHERN AMERICA,38190000.0
1142,788494381.0,Start,Michael Nadli,Canada,NORTHERN AMERICA,38190000.0
1143,788712700.0,Start,Mel Watkins,Canada,NORTHERN AMERICA,38190000.0
1144,788771491.0,Stub,Zvi Weinberg,Canada,NORTHERN AMERICA,38190000.0
1145,789069809.0,Start,Pierre Bourgault,Canada,NORTHERN AMERICA,38190000.0
1146,789205102.0,C,Otto Jelinek,Canada,NORTHERN AMERICA,38190000.0
1147,789335355.0,C,Paul Vachon,Canada,NORTHERN AMERICA,38190000.0
1148,789395840.0,Start,Peg Norman,Canada,NORTHERN AMERICA,38190000.0
1149,789485956.0,Start,Francis Cochrane,Canada,NORTHERN AMERICA,38190000.0
1150,789819390.0,Start,Arthur D. Ganong,Canada,NORTHERN AMERICA,38190000.0
1151,789993529.0,Start,Rob Clarke,Canada,NORTHERN AMERICA,38190000.0
1152,790121036.0,Stub,Audrey Poitras,Canada,NORTHERN AMERICA,38190000.0
1153,790146902.0,Start,Wayne Adams,Canada,NORTHERN AMERICA,38190000.0
1154,790164231.0,Start,Aurélien Gill,Canada,NORTHERN AMERICA,38190000.0
1155,790549980.0,Stub,Rose Henderson,Canada,NORTHERN AMERICA,38190000.0
1156,790716809.0,Start,21st Canadian Ministry,Canada,NORTHERN AMERICA,38190000.0
1157,790717599.0,Start,List of 1980 Canadian incumbents,Canada,NORTHERN AMERICA,38190000.0
1158,790717724.0,Start,List of 1979 Canadian incumbents,Canada,NORTHERN AMERICA,38190000.0
1159,791001401.0,C,William Pearce Howland,Canada,NORTHERN AMERICA,38190000.0
1160,791162976.0,Stub,Bernard Cleary,Canada,NORTHERN AMERICA,38190000.0
1161,791219826.0,Start,Ellis Ross,Canada,NORTHERN AMERICA,38190000.0
1162,791246571.0,Stub,Dwayne Provo,Canada,NORTHERN AMERICA,38190000.0
1163,791313003.0,C,Stephen Kakfwi,Canada,NORTHERN AMERICA,38190000.0
1164,791447432.0,Start,Bill Smith (Alberta politician),Canada,NORTHERN AMERICA,38190000.0
1165,791960968.0,Stub,25th Canadian Ministry,Canada,NORTHERN AMERICA,38190000.0
1166,791965408.0,B,John Norquay,Canada,NORTHERN AMERICA,38190000.0
1167,791967092.0,Start,James McKay (fur trader),Canada,NORTHERN AMERICA,38190000.0
1168,791967189.0,Start,Maxime Goulet,Canada,NORTHERN AMERICA,38190000.0
1169,792072340.0,Start,Dominique Anglade,Canada,NORTHERN AMERICA,38190000.0
1170,792072413.0,Start,Lise Bacon,Canada,NORTHERN AMERICA,38190000.0
1171,792072702.0,Start,Stephanie Cadieux,Canada,NORTHERN AMERICA,38190000.0
1172,792072753.0,C,Elinor Caplan,Canada,NORTHERN AMERICA,38190000.0
1173,792072814.0,Start,Andrée Champagne,Canada,NORTHERN AMERICA,38190000.0
1174,792073051.0,Start,Mabel DeWare,Canada,NORTHERN AMERICA,38190000.0
1175,792073200.0,Start,Sheila Finestone,Canada,NORTHERN AMERICA,38190000.0
1176,792162965.0,C,Larry Grossman (politician),Canada,NORTHERN AMERICA,38190000.0
1177,792540501.0,Start,Buckley Belanger,Canada,NORTHERN AMERICA,38190000.0
1178,792703852.0,Stub,Jack White (politician),Canada,NORTHERN AMERICA,38190000.0
1179,792703859.0,Start,Donald Oliver,Canada,NORTHERN AMERICA,38190000.0
1180,793099357.0,Start,Rosemary Brown (politician),Canada,NORTHERN AMERICA,38190000.0
1181,793151253.0,Start,Carl Goldenberg,Canada,NORTHERN AMERICA,38190000.0
1182,793256720.0,Start,20th Canadian Ministry,Canada,NORTHERN AMERICA,38190000.0
1183,793433456.0,Start,Nathan Nurgitz,Canada,NORTHERN AMERICA,38190000.0
1184,793459089.0,Start,Jonathan McCully,Canada,NORTHERN AMERICA,38190000.0
1185,793663465.0,Start,Charles Fisher (Canadian politician),Canada,NORTHERN AMERICA,38190000.0
1186,793674654.0,C,Charles Harnick,Canada,NORTHERN AMERICA,38190000.0
1187,793784273.0,C,Chaviva Hošek,Canada,NORTHERN AMERICA,38190000.0
1188,793785334.0,Start,Daniel Igali,Canada,NORTHERN AMERICA,38190000.0
1189,794036436.0,Start,Tony Belcourt,Canada,NORTHERN AMERICA,38190000.0
1190,794066887.0,C,Blanche Brillon Macdonald,Canada,NORTHERN AMERICA,38190000.0
1191,794189926.0,Start,Christie Mjolsness,Canada,NORTHERN AMERICA,38190000.0
1192,794356814.0,Stub,Glenn McLean,Canada,NORTHERN AMERICA,38190000.0
1193,794382149.0,C,Svend Robinson,Canada,NORTHERN AMERICA,38190000.0
1194,794758453.0,Stub,Clément Chartier,Canada,NORTHERN AMERICA,38190000.0
1195,794990669.0,C,Kamala-Jean Gopie,Canada,NORTHERN AMERICA,38190000.0
1196,795089783.0,Start,Victor Oh,Canada,NORTHERN AMERICA,38190000.0
1197,795119195.0,Start,Jody Mitic,Canada,NORTHERN AMERICA,38190000.0
1198,795120791.0,Stub,Steve Crocker (politician),Canada,NORTHERN AMERICA,38190000.0
1199,795178298.0,Start,John Thomas Wolfe,Canada,NORTHERN AMERICA,38190000.0
1200,795195775.0,Start,Jeff Leiper,Canada,NORTHERN AMERICA,38190000.0
1201,795350036.0,C,Shafiq Qaadri,Canada,NORTHERN AMERICA,38190000.0
1202,795542891.0,C,Rob Davis (politician),Canada,NORTHERN AMERICA,38190000.0
1203,795748380.0,Start,Jack Austin (politician),Canada,NORTHERN AMERICA,38190000.0
1204,795748471.0,Start,Karen Leibovici,Canada,NORTHERN AMERICA,38190000.0
1205,795748481.0,C,Kettly Beauregard,Canada,NORTHERN AMERICA,38190000.0
1206,795748579.0,Start,Mary Richard,Canada,NORTHERN AMERICA,38190000.0
1207,795748650.0,Start,Ralph Steinhauer,Canada,NORTHERN AMERICA,38190000.0
1208,795748738.0,Start,Sébastien Dhavernas,Canada,NORTHERN AMERICA,38190000.0
1209,795941711.0,Stub,Jim Morgan (Canadian politician),Canada,NORTHERN AMERICA,38190000.0
1210,796025471.0,C,Chris Szarka,Canada,NORTHERN AMERICA,38190000.0
1211,796044360.0,Start,Daurene Lewis,Canada,NORTHERN AMERICA,38190000.0
1212,796089695.0,C,Adams George Archibald,Canada,NORTHERN AMERICA,38190000.0
1213,796125280.0,C,Jody Wilson-Raybould,Canada,NORTHERN AMERICA,38190000.0
1214,796189919.0,Start,Edward John,Canada,NORTHERN AMERICA,38190000.0
1215,796268918.0,C,Minister Faust,Canada,NORTHERN AMERICA,38190000.0
1216,796459891.0,Start,Sandy Annunziata,Canada,NORTHERN AMERICA,38190000.0
1217,796887508.0,Start,Abraham Albert Heaps,Canada,NORTHERN AMERICA,38190000.0
1218,796919522.0,Start,Will Morin,Canada,NORTHERN AMERICA,38190000.0
1219,796947531.0,C,Bruce Hood (ice hockey),Canada,NORTHERN AMERICA,38190000.0
1220,796971964.0,Start,Angelo Persichilli,Canada,NORTHERN AMERICA,38190000.0
1221,797001168.0,Start,Arlene Perly Rae,Canada,NORTHERN AMERICA,38190000.0
1222,797004812.0,C,Arthur Mitchell (Yukon politician),Canada,NORTHERN AMERICA,38190000.0
1223,797027806.0,C,Barney Danson,Canada,NORTHERN AMERICA,38190000.0
1224,797072045.0,Stub,Mike Jakubo (curler),Canada,NORTHERN AMERICA,38190000.0
1225,797089442.0,C,Bob Attersley,Canada,NORTHERN AMERICA,38190000.0
1226,797090959.0,Start,Bob McDonald (politician),Canada,NORTHERN AMERICA,38190000.0
1227,797123861.0,Stub,William Bullock Ives,Canada,NORTHERN AMERICA,38190000.0
1228,797159542.0,Start,Catherine Pinhas,Canada,NORTHERN AMERICA,38190000.0
1229,797238959.0,Start,Chris Lea,Canada,NORTHERN AMERICA,38190000.0
1230,797246308.0,Start,Christopher Porter,Canada,NORTHERN AMERICA,38190000.0
1231,797292539.0,Start,Cornelius the First,Canada,NORTHERN AMERICA,38190000.0
1232,797304346.0,Start,Cy Gonick,Canada,NORTHERN AMERICA,38190000.0
1233,797323057.0,Stub,Dave Porter (politician),Canada,NORTHERN AMERICA,38190000.0
1234,797329058.0,FA,David Lewis (politician),Canada,NORTHERN AMERICA,38190000.0
1235,797330459.0,C,David Orlikow,Canada,NORTHERN AMERICA,38190000.0
1236,797331769.0,C,David Shiner (politician),Canada,NORTHERN AMERICA,38190000.0
1237,797333347.0,C,David de Burgh Graham,Canada,NORTHERN AMERICA,38190000.0
1238,797347498.0,Start,Denis Rocan,Canada,NORTHERN AMERICA,38190000.0
1239,797380019.0,Start,Donald Carrick,Canada,NORTHERN AMERICA,38190000.0
1240,797402155.0,Start,Marlene Jennings,Canada,NORTHERN AMERICA,38190000.0
1241,797415443.0,GA,Edward Greenspan,Canada,NORTHERN AMERICA,38190000.0
1242,797417833.0,Start,Edwin A. Goodman,Canada,NORTHERN AMERICA,38190000.0
1243,797426664.0,C,Elijah Harper,Canada,NORTHERN AMERICA,38190000.0
1244,797434963.0,Start,Emil Moeller,Canada,NORTHERN AMERICA,38190000.0
1245,797452786.0,Start,Eugène Rhéaume,Canada,NORTHERN AMERICA,38190000.0
1246,797505574.0,Stub,Danny Joe,Canada,NORTHERN AMERICA,38190000.0
1247,797506199.0,Start,David Stupich,Canada,NORTHERN AMERICA,38190000.0
1248,797509369.0,Stub,Doug Mowat,Canada,NORTHERN AMERICA,38190000.0
1249,797510935.0,Start,Ed Picco,Canada,NORTHERN AMERICA,38190000.0
1250,797625846.0,Start,23rd Canadian Ministry,Canada,NORTHERN AMERICA,38190000.0
1251,797740604.0,Stub,George Hickes (Nunavut politician),Canada,NORTHERN AMERICA,38190000.0
1252,797743670.0,C,29th Canadian Ministry,Canada,NORTHERN AMERICA,38190000.0
1253,797754805.0,Stub,Gilbert Grant,Canada,NORTHERN AMERICA,38190000.0
1254,797770312.0,C,Rocky Jones,Canada,NORTHERN AMERICA,38190000.0
1255,797863007.0,C,Max Saltsman,Canada,NORTHERN AMERICA,38190000.0
1256,798131587.0,Start,David Birnbaum,Canada,NORTHERN AMERICA,38190000.0
1257,798234685.0,Start,Honoré Jackson,Canada,NORTHERN AMERICA,38190000.0
1258,798245817.0,Start,Howard Epstein,Canada,NORTHERN AMERICA,38190000.0
1259,798251516.0,C,Hugh Segal,Canada,NORTHERN AMERICA,38190000.0
1260,798263505.0,C,George Hees,Canada,NORTHERN AMERICA,38190000.0
1261,798334711.0,C,Dan Goldstick,Canada,NORTHERN AMERICA,38190000.0
1262,798339304.0,C,J. B. Salsberg,Canada,NORTHERN AMERICA,38190000.0
1263,798344195.0,Start,Jack Marshall (Canadian politician),Canada,NORTHERN AMERICA,38190000.0
1264,798344600.0,Start,Jack Ramsay (politician),Canada,NORTHERN AMERICA,38190000.0
1265,798358913.0,Start,James Pasternak,Canada,NORTHERN AMERICA,38190000.0
1266,798361876.0,Start,Jamey Heath,Canada,NORTHERN AMERICA,38190000.0
1267,798371441.0,C,Hunter Tootoo,Canada,NORTHERN AMERICA,38190000.0
1268,798377541.0,Start,Jean D'Amour,Canada,NORTHERN AMERICA,38190000.0
1269,798406590.0,Start,Jim Silye,Canada,NORTHERN AMERICA,38190000.0
1270,798417174.0,C,Joe Oliver (politician),Canada,NORTHERN AMERICA,38190000.0
1271,798425800.0,Stub,John Cobb (Manitoba politician),Canada,NORTHERN AMERICA,38190000.0
1272,798443833.0,C,John Turmel,Canada,NORTHERN AMERICA,38190000.0
1273,798446107.0,Stub,Johnny Abel,Canada,NORTHERN AMERICA,38190000.0
1274,798449309.0,Start,Jonah Schein,Canada,NORTHERN AMERICA,38190000.0
1275,798449933.0,Start,Jonathan Genest-Jourdain,Canada,NORTHERN AMERICA,38190000.0
1276,798455379.0,C,Joseph Howe,Canada,NORTHERN AMERICA,38190000.0
1277,798458572.0,C,Josh Matlow,Canada,NORTHERN AMERICA,38190000.0
1278,798484154.0,Start,Joyce Hayden,Canada,NORTHERN AMERICA,38190000.0
1279,798489930.0,B,"Margaret Lally ""Ma"" Murray",Canada,NORTHERN AMERICA,38190000.0
1280,798516495.0,Start,Ken Dillen,Canada,NORTHERN AMERICA,38190000.0
1281,798593125.0,C,Larry Smith (Canadian politician),Canada,NORTHERN AMERICA,38190000.0
1282,798601275.0,C,Joey Smallwood,Canada,NORTHERN AMERICA,38190000.0
1283,798604158.0,Start,Lawrence O'Brien,Canada,NORTHERN AMERICA,38190000.0
1284,798620874.0,C,Leonard Braithwaite,Canada,NORTHERN AMERICA,38190000.0
1285,798624424.0,Start,Carla Qualtrough,Canada,NORTHERN AMERICA,38190000.0
1286,798642074.0,B,Lincoln Alexander,Canada,NORTHERN AMERICA,38190000.0
1287,798643327.0,Stub,Linda Hepner,Canada,NORTHERN AMERICA,38190000.0
1288,798647539.0,C,Lionel Perez (politician),Canada,NORTHERN AMERICA,38190000.0
1289,798650774.0,Start,List of 2006 Canadian incumbents,Canada,NORTHERN AMERICA,38190000.0
1290,798737752.0,Stub,Olayuk Akesuk,Canada,NORTHERN AMERICA,38190000.0
1291,798758111.0,C,David Oppenheimer,Canada,NORTHERN AMERICA,38190000.0
1292,798796069.0,Start,Dan Ruimy,Canada,NORTHERN AMERICA,38190000.0
1293,798799828.0,B,Dan Vandal,Canada,NORTHERN AMERICA,38190000.0
1294,798871490.0,Start,Maitland Steinkopf,Canada,NORTHERN AMERICA,38190000.0
1295,798871705.0,Start,Majid Jowhari,Canada,NORTHERN AMERICA,38190000.0
1296,798881194.0,Start,Manon Perreault,Canada,NORTHERN AMERICA,38190000.0
1297,798885540.0,Stub,Marc-André Blanchard,Canada,NORTHERN AMERICA,38190000.0
1298,798889325.0,Start,Margaret Haile,Canada,NORTHERN AMERICA,38190000.0
1299,798890231.0,C,Margarett Best,Canada,NORTHERN AMERICA,38190000.0
1300,798903118.0,C,Mark Warner (Canadian politician),Canada,NORTHERN AMERICA,38190000.0
1301,798912223.0,Start,Marty Dolin,Canada,NORTHERN AMERICA,38190000.0
1302,798914677.0,Start,Mary Anne Chambers,Canada,NORTHERN AMERICA,38190000.0
1303,798919482.0,Start,Mary-Woo Sims,Canada,NORTHERN AMERICA,38190000.0
1304,798937055.0,Start,Alice Parizeau,Canada,NORTHERN AMERICA,38190000.0
1305,798937308.0,Stub,Brit Griffin,Canada,NORTHERN AMERICA,38190000.0
1306,798938772.0,Start,Madeleine Ferron,Canada,NORTHERN AMERICA,38190000.0
1307,798940689.0,Start,14th Canadian Ministry,Canada,NORTHERN AMERICA,38190000.0
1308,798940946.0,Start,Eleanor Millard,Canada,NORTHERN AMERICA,38190000.0
1309,798960213.0,Stub,Guy Laforest,Canada,NORTHERN AMERICA,38190000.0
1310,798983293.0,C,Michael Thompson (Canadian politician),Canada,NORTHERN AMERICA,38190000.0
1311,798995485.0,Start,Mike Cardinal,Canada,NORTHERN AMERICA,38190000.0
1312,798995778.0,Stub,Mike Crawley,Canada,NORTHERN AMERICA,38190000.0
1313,799005298.0,Start,Milton L. Klein,Canada,NORTHERN AMERICA,38190000.0
1314,799011520.0,Start,Mira Spivak,Canada,NORTHERN AMERICA,38190000.0
1315,799036149.0,C,Morris Gray,Canada,NORTHERN AMERICA,38190000.0
1316,799043135.0,C,Dave Barrett,Canada,NORTHERN AMERICA,38190000.0
1317,799043330.0,Start,Dave Batters,Canada,NORTHERN AMERICA,38190000.0
1318,799053101.0,C,Murray Sinclair,Canada,NORTHERN AMERICA,38190000.0
1319,799062853.0,C,Myron Wolf Child,Canada,NORTHERN AMERICA,38190000.0
1320,799077170.0,C,Nancy Ruth,Canada,NORTHERN AMERICA,38190000.0
1321,799116194.0,Start,Penny Collenette,Canada,NORTHERN AMERICA,38190000.0
1322,799125348.0,C,Nazanin Afshin-Jam,Canada,NORTHERN AMERICA,38190000.0
1323,799411236.0,Start,Oscar Lathlin,Canada,NORTHERN AMERICA,38190000.0
1324,799465078.0,Start,Pascal Breland,Canada,NORTHERN AMERICA,38190000.0
1325,799499229.0,C,Percy Paris,Canada,NORTHERN AMERICA,38190000.0
1326,799512567.0,C,Peter Shurman,Canada,NORTHERN AMERICA,38190000.0
1327,799526024.0,Start,Pierre Bourque (journalist),Canada,NORTHERN AMERICA,38190000.0
1328,799552243.0,C,Jacques Demers,Canada,NORTHERN AMERICA,38190000.0
1329,799600278.0,Stub,Adamee Komoartok,Canada,NORTHERN AMERICA,38190000.0
1330,799679888.0,Start,Greg Power,Canada,NORTHERN AMERICA,38190000.0
1331,799705143.0,Start,Gary Malkowski,Canada,NORTHERN AMERICA,38190000.0
1332,799725974.0,Stub,Jennifer Campeau,Canada,NORTHERN AMERICA,38190000.0
1333,799748848.0,Stub,John B. Boucher,Canada,NORTHERN AMERICA,38190000.0
1334,799780899.0,C,Frank Mahovlich,Canada,NORTHERN AMERICA,38190000.0
1335,799797763.0,Stub,Louis Schmidt,Canada,NORTHERN AMERICA,38190000.0
1336,799846797.0,Start,Pierre Delorme,Canada,NORTHERN AMERICA,38190000.0
1337,799881590.0,Start,Robert Hugh Pickering,Canada,NORTHERN AMERICA,38190000.0
1338,799892094.0,Start,Ray Novak,Canada,NORTHERN AMERICA,38190000.0
1339,799929020.0,C,Reza Moridi,Canada,NORTHERN AMERICA,38190000.0
1340,799942318.0,Start,Richard Nerysoo,Canada,NORTHERN AMERICA,38190000.0
1341,799947874.0,Start,Rick Laliberte,Canada,NORTHERN AMERICA,38190000.0
1342,799963923.0,C,Paul Godfrey,Canada,NORTHERN AMERICA,38190000.0
1343,799990898.0,C,Roger Teillet,Canada,NORTHERN AMERICA,38190000.0
1344,800019168.0,C,Russell Doern,Canada,NORTHERN AMERICA,38190000.0
1345,800020168.0,Start,Dan Biocchi,Canada,NORTHERN AMERICA,38190000.0
1346,800029158.0,Start,Tymofei Koreichuk,Canada,NORTHERN AMERICA,38190000.0
1347,800056169.0,Start,Salma Ataullahjan,Canada,NORTHERN AMERICA,38190000.0
1348,800080920.0,C,Saul Cherniack,Canada,NORTHERN AMERICA,38190000.0
1349,800081033.0,C,Saulie Zajdel,Canada,NORTHERN AMERICA,38190000.0
1350,800116795.0,Stub,Serge Kujawa,Canada,NORTHERN AMERICA,38190000.0
1351,800142250.0,Start,Shelly Glover,Canada,NORTHERN AMERICA,38190000.0
1352,800151703.0,Start,Michael Coteau,Canada,NORTHERN AMERICA,38190000.0
1353,800160770.0,C,Sidney Green (politician),Canada,NORTHERN AMERICA,38190000.0
1354,800266135.0,FA,Don Getty,Canada,NORTHERN AMERICA,38190000.0
1355,800283381.0,C,Aida McAnn Flemming,Canada,NORTHERN AMERICA,38190000.0
1356,800287023.0,C,Dona Cadman,Canada,NORTHERN AMERICA,38190000.0
1357,800314476.0,Stub,Jack Kavanagh (politician),Canada,NORTHERN AMERICA,38190000.0
1358,800360207.0,C,Mifflin Wistar Gibbs,Canada,NORTHERN AMERICA,38190000.0
1359,800419860.0,Start,Douglas Wilson (activist),Canada,NORTHERN AMERICA,38190000.0
1360,800450841.0,Start,Doyle Vermette,Canada,NORTHERN AMERICA,38190000.0
1361,800492990.0,B,Dean Del Mastro,Canada,NORTHERN AMERICA,38190000.0
1362,800568029.0,Start,Ravi Kahlon,Canada,NORTHERN AMERICA,38190000.0
1363,800599813.0,C,John Robarts,Canada,NORTHERN AMERICA,38190000.0
1364,800599833.0,C,Oliver Mowat,Canada,NORTHERN AMERICA,38190000.0
1365,800608742.0,Start,Brian Bowman (politician),Canada,NORTHERN AMERICA,38190000.0
1366,800618415.0,C,Michelle Stilwell,Canada,NORTHERN AMERICA,38190000.0
1367,800694573.0,Stub,Stephen Khan,Canada,NORTHERN AMERICA,38190000.0
1368,800714107.0,C,Stuart Parker (politician),Canada,NORTHERN AMERICA,38190000.0
1369,800714862.0,C,Rod Bruinooge,Canada,NORTHERN AMERICA,38190000.0
1370,800767398.0,Stub,Ian Strachan (Newfoundland and Labrador politician),Canada,NORTHERN AMERICA,38190000.0
1371,800796896.0,Start,Linda Thom,Canada,NORTHERN AMERICA,38190000.0
1372,800857103.0,B,Thomas Steen,Canada,NORTHERN AMERICA,38190000.0
1373,800996120.0,Start,Tom Long (politician),Canada,NORTHERN AMERICA,38190000.0
1374,800996246.0,C,Tom Marshall (politician),Canada,NORTHERN AMERICA,38190000.0
1375,800996740.0,Start,Tom Pentefountas,Canada,NORTHERN AMERICA,38190000.0
1376,801005062.0,Start,Tony Whitford,Canada,NORTHERN AMERICA,38190000.0
1377,801052215.0,C,Ulrick Chérubin,Canada,NORTHERN AMERICA,38190000.0
1378,801062222.0,C,Kevin Clarke (politician),Canada,NORTHERN AMERICA,38190000.0
1379,801107972.0,C,Victor Goldbloom,Canada,NORTHERN AMERICA,38190000.0
1380,801119577.0,C,Amor De Cosmos,Canada,NORTHERN AMERICA,38190000.0
1381,801131548.0,Stub,Vivian Bercovici,Canada,NORTHERN AMERICA,38190000.0
1382,801137682.0,Start,Mitzie Hunter,Canada,NORTHERN AMERICA,38190000.0
1383,801147129.0,C,Wajid Khan (Canadian politician),Canada,NORTHERN AMERICA,38190000.0
1384,801150692.0,Start,Bob Simpson (Canadian football),Canada,NORTHERN AMERICA,38190000.0
1385,801229953.0,FA,Monarchism in Canada,Canada,NORTHERN AMERICA,38190000.0
1386,801262263.0,GA,William Peyton Hubbard,Canada,NORTHERN AMERICA,38190000.0
1387,801265957.0,Stub,William Tobias,Canada,NORTHERN AMERICA,38190000.0
1388,801311738.0,C,Howie Meeker,Canada,NORTHERN AMERICA,38190000.0
1389,801315125.0,C,Yolande James,Canada,NORTHERN AMERICA,38190000.0
1390,801330223.0,GA,Zanana Akande,Canada,NORTHERN AMERICA,38190000.0
1391,801420063.0,Stub,Chrétien: The Will to Win,Canada,NORTHERN AMERICA,38190000.0
1392,801435411.0,Stub,David Sprague,Canada,NORTHERN AMERICA,38190000.0
1393,801445314.0,Start,James Bourque,Canada,NORTHERN AMERICA,38190000.0
1394,801478113.0,B,List of the first LGBT holders of political offices in Canada,Canada,NORTHERN AMERICA,38190000.0
1395,801509285.0,Start,Elzéar Goulet,Canada,NORTHERN AMERICA,38190000.0
1396,801552187.0,C,Lenore Zann,Canada,NORTHERN AMERICA,38190000.0
1397,801577882.0,C,Sinclair Stevens,Canada,NORTHERN AMERICA,38190000.0
1398,801613552.0,Stub,Seymour Trieger,Canada,NORTHERN AMERICA,38190000.0
1399,801687001.0,C,El-Farouk Khaki,Canada,NORTHERN AMERICA,38190000.0
1400,801719057.0,C,Red Kelly,Canada,NORTHERN AMERICA,38190000.0
1401,801801385.0,C,Mel Hurtig,Canada,NORTHERN AMERICA,38190000.0
1402,801827214.0,C,Izzy Asper,Canada,NORTHERN AMERICA,38190000.0
1403,801839290.0,Stub,Adam Olsen,Canada,NORTHERN AMERICA,38190000.0
1404,801889106.0,Start,Eric Robinson (Canadian politician),Canada,NORTHERN AMERICA,38190000.0
1405,801959410.0,Start,Vivienne Poy,Canada,NORTHERN AMERICA,38190000.0
1406,801986366.0,Start,Marvin Rotrand,Canada,NORTHERN AMERICA,38190000.0
1407,801986687.0,FA,Charles Tupper,Canada,NORTHERN AMERICA,38190000.0
1408,801987339.0,C,Errick Willis,Canada,NORTHERN AMERICA,38190000.0
1409,801993546.0,C,Hector-Louis Langevin,Canada,NORTHERN AMERICA,38190000.0
1410,801997418.0,C,Paul Joseph James Martin,Canada,NORTHERN AMERICA,38190000.0
1411,802049787.0,C,Norman Kwong,Canada,NORTHERN AMERICA,38190000.0
1412,802077342.0,Start,Mark Adler (politician),Canada,NORTHERN AMERICA,38190000.0
1413,802249682.0,C,Lise Thibault,Canada,NORTHERN AMERICA,38190000.0
1414,802312628.0,Start,Peter Fonseca,Canada,NORTHERN AMERICA,38190000.0
1415,802355647.0,C,Viola Wyse,Canada,NORTHERN AMERICA,38190000.0
1416,802361813.0,GA,Lionel Conacher,Canada,NORTHERN AMERICA,38190000.0
1417,802394961.0,Stub,Marie-Françoise Mégie,Canada,NORTHERN AMERICA,38190000.0
1418,802395362.0,Start,Greg Joy,Canada,NORTHERN AMERICA,38190000.0
1419,802395814.0,Start,Emmanuel Dubourg,Canada,NORTHERN AMERICA,38190000.0
1420,802517397.0,GA,Ezekiel Hart,Canada,NORTHERN AMERICA,38190000.0
1421,802527892.0,Start,James Gladstone,Canada,NORTHERN AMERICA,38190000.0
1422,802627124.0,Start,Peter Ittinuar,Canada,NORTHERN AMERICA,38190000.0
1423,802640657.0,Start,Michael Strange (boxer),Canada,NORTHERN AMERICA,38190000.0
1424,802702841.0,Start,Robert Libman,Canada,NORTHERN AMERICA,38190000.0
1425,802877579.0,Stub,James Reid (Newfoundland politician),Canada,NORTHERN AMERICA,38190000.0
1426,803111371.0,C,Lucien Bouchard,Canada,NORTHERN AMERICA,38190000.0
1427,803282748.0,Start,Richard Legendre,Canada,NORTHERN AMERICA,38190000.0
1428,803374653.0,Start,Marc-Boris St-Maurice,Canada,NORTHERN AMERICA,38190000.0
1429,803645146.0,GA,Don Meredith (politician),Canada,NORTHERN AMERICA,38190000.0
1430,803652579.0,Start,Gila Martow,Canada,NORTHERN AMERICA,38190000.0
1431,803710066.0,Stub,John McCreedy,Canada,NORTHERN AMERICA,38190000.0
1432,803872492.0,GA,Monte Kwinter,Canada,NORTHERN AMERICA,38190000.0
1433,803918443.0,Start,Ike Awgu,Canada,NORTHERN AMERICA,38190000.0
1434,803930779.0,C,Nerene Virgin,Canada,NORTHERN AMERICA,38190000.0
1435,803934729.0,Start,Frederick Carter,Canada,NORTHERN AMERICA,38190000.0
1436,803946300.0,Start,Bob McLeod (politician),Canada,NORTHERN AMERICA,38190000.0
1437,803973415.0,B,Steven Fletcher (politician),Canada,NORTHERN AMERICA,38190000.0
1438,804018841.0,GA,Brian Pallister,Canada,NORTHERN AMERICA,38190000.0
1439,804103114.0,Stub,Trevor Kennerd,Canada,NORTHERN AMERICA,38190000.0
1440,804118985.0,Start,Kevin Chief,Canada,NORTHERN AMERICA,38190000.0
1441,804139515.0,C,Donald Creighton,Canada,NORTHERN AMERICA,38190000.0
1442,804143236.0,Stub,Jack Radford,Canada,NORTHERN AMERICA,38190000.0
1443,804149674.0,FA,Howard Moscoe,Canada,NORTHERN AMERICA,38190000.0
1444,804152406.0,FA,Louis Riel,Canada,NORTHERN AMERICA,38190000.0
1445,804291499.0,Stub,Natan Obed,Canada,NORTHERN AMERICA,38190000.0
1446,804311492.0,Start,Jeff Rock,Canada,NORTHERN AMERICA,38190000.0
1447,804311720.0,C,Brent Hawkes,Canada,NORTHERN AMERICA,38190000.0
1448,804419476.0,Start,Joe Flexer,Canada,NORTHERN AMERICA,38190000.0
1449,804430436.0,C,Sam Sullivan,Canada,NORTHERN AMERICA,38190000.0
1450,804524437.0,Stub,Ludger Bastien,Canada,NORTHERN AMERICA,38190000.0
1451,804549630.0,Start,Ian Gregson,Canada,NORTHERN AMERICA,38190000.0
1452,804593388.0,C,David Anderson (British Columbia politician),Canada,NORTHERN AMERICA,38190000.0
1453,804594115.0,C,David Caplan,Canada,NORTHERN AMERICA,38190000.0
1454,804604990.0,Start,Ray St. Germain,Canada,NORTHERN AMERICA,38190000.0
1455,804681150.0,Start,Peter North (politician),Canada,NORTHERN AMERICA,38190000.0
1456,804681362.0,Start,Dave Levac,Canada,NORTHERN AMERICA,38190000.0
1457,804717465.0,C,Colin Thatcher,Canada,NORTHERN AMERICA,38190000.0
1458,804730405.0,Stub,Monica Ell-Kanayuk,Canada,NORTHERN AMERICA,38190000.0
1459,804730429.0,Stub,Mila Adjukak Kamingoak,Canada,NORTHERN AMERICA,38190000.0
1460,804730554.0,Start,Helen Maksagak,Canada,NORTHERN AMERICA,38190000.0
1461,804732408.0,Stub,Rebekah Williams,Canada,NORTHERN AMERICA,38190000.0
1462,804732433.0,Start,Jeannie Ugyuk,Canada,NORTHERN AMERICA,38190000.0
1463,804739427.0,B,Women in Canadian politics,Canada,NORTHERN AMERICA,38190000.0
1464,804773548.0,C,George Brown (Canadian politician),Canada,NORTHERN AMERICA,38190000.0
1465,804833650.0,C,Gary Merasty,Canada,NORTHERN AMERICA,38190000.0
1466,804855683.0,Start,Étienne-Paschal Taché,Canada,NORTHERN AMERICA,38190000.0
1467,804902569.0,Stub,Percy Wickman,Canada,NORTHERN AMERICA,38190000.0
1468,804910840.0,C,Irwin Cotler,Canada,NORTHERN AMERICA,38190000.0
1469,804946212.0,Start,Hedy Fry,Canada,NORTHERN AMERICA,38190000.0
1470,804956528.0,Start,Alexander Campbell (Canadian senator),Canada,NORTHERN AMERICA,38190000.0
1471,804993198.0,C,Gene Makowsky,Canada,NORTHERN AMERICA,38190000.0
1472,805096977.0,Stub,Terry Dennis,Canada,NORTHERN AMERICA,38190000.0
1473,805115022.0,B,Moondog King,Canada,NORTHERN AMERICA,38190000.0
1474,805211780.0,C,Ferguson Jenkins,Canada,NORTHERN AMERICA,38190000.0
1475,805222420.0,Start,Herb Capozzi,Canada,NORTHERN AMERICA,38190000.0
1476,805226834.0,Start,Joseph Albert Sullivan,Canada,NORTHERN AMERICA,38190000.0
1477,805237038.0,C,Pierre Laporte,Canada,NORTHERN AMERICA,38190000.0
1478,805248573.0,Start,George Rogers (Canadian politician),Canada,NORTHERN AMERICA,38190000.0
1479,805251974.0,C,Herb Gray,Canada,NORTHERN AMERICA,38190000.0
1480,805260550.0,Start,Micheline Montreuil,Canada,NORTHERN AMERICA,38190000.0
1481,805281098.0,FA,Georges Vanier,Canada,NORTHERN AMERICA,38190000.0
1482,805331754.0,Start,Gerald Sampson,Canada,NORTHERN AMERICA,38190000.0
1483,805334983.0,C,Syl Apps,Canada,NORTHERN AMERICA,38190000.0
1484,805378956.0,C,Fred Rose (politician),Canada,NORTHERN AMERICA,38190000.0
1485,805431313.0,Stub,Trevor Hancock,Canada,NORTHERN AMERICA,38190000.0
1486,805441258.0,C,Stephen Lewis,Canada,NORTHERN AMERICA,38190000.0
1487,805624006.0,Start,Thomas Heath Haviland,Canada,NORTHERN AMERICA,38190000.0
1488,805634549.0,Stub,Joseph Perrault (Lower Canada politician),Canada,NORTHERN AMERICA,38190000.0
1489,805710954.0,Stub,Jacques Rivard,Canada,NORTHERN AMERICA,38190000.0
1490,805710971.0,Start,Jacques Saada,Canada,NORTHERN AMERICA,38190000.0
1491,805766715.0,Stub,Shelley Peterson,Canada,NORTHERN AMERICA,38190000.0
1492,805854037.0,Start,Henry Nathan Jr.,Canada,NORTHERN AMERICA,38190000.0
1493,805865165.0,C,James Bartleman,Canada,NORTHERN AMERICA,38190000.0
1494,805865701.0,Start,James P. Brady,Canada,NORTHERN AMERICA,38190000.0
1495,805865847.0,Stub,James Ross (Canadian lawyer),Canada,NORTHERN AMERICA,38190000.0
1496,805882488.0,Start,Jamie Korab,Canada,NORTHERN AMERICA,38190000.0
1497,805938567.0,Start,James Baby,Canada,NORTHERN AMERICA,38190000.0
1498,806006034.0,Start,Sam Walsh,Canada,NORTHERN AMERICA,38190000.0
1499,806070509.0,C,Thelma Chalifoux,Canada,NORTHERN AMERICA,38190000.0
1500,806075303.0,C,Edward Blake,Canada,NORTHERN AMERICA,38190000.0
1501,806089849.0,Start,Willie Littlechild,Canada,NORTHERN AMERICA,38190000.0
1502,806095567.0,Start,Tooker Gomberg,Canada,NORTHERN AMERICA,38190000.0
1503,806137666.0,C,William McDougall (politician),Canada,NORTHERN AMERICA,38190000.0
1504,806244251.0,Start,Anam Kazim,Canada,NORTHERN AMERICA,38190000.0
1505,806244656.0,Start,Salma Zahid,Canada,NORTHERN AMERICA,38190000.0
1506,806245544.0,Stub,Muhammad Fiaz,Canada,NORTHERN AMERICA,38190000.0
1507,806246262.0,C,Yasir Naqvi,Canada,NORTHERN AMERICA,38190000.0
1508,806247226.0,Start,Shad Qadri,Canada,NORTHERN AMERICA,38190000.0
1509,806297859.0,Start,David Khan,Canada,NORTHERN AMERICA,38190000.0
1510,806356877.0,Stub,John Innes (politician),Canada,NORTHERN AMERICA,38190000.0
1511,806394419.0,Stub,Kevin Murphy (Canadian politician),Canada,NORTHERN AMERICA,38190000.0
1512,806403528.0,C,Ambrose Shea,Canada,NORTHERN AMERICA,38190000.0
1513,806408968.0,Start,Peter Donolo,Canada,NORTHERN AMERICA,38190000.0
1514,806426710.0,GA,Mike Harcourt,Canada,NORTHERN AMERICA,38190000.0
1515,806427506.0,Start,George Springate,Canada,NORTHERN AMERICA,38190000.0
1516,806464279.0,C,Alexander Tilloch Galt,Canada,NORTHERN AMERICA,38190000.0
1517,806493972.0,C,Karina Gould,Canada,NORTHERN AMERICA,38190000.0
1518,806527410.0,Start,Iqra Khalid,Canada,NORTHERN AMERICA,38190000.0
1519,806556953.0,GA,Paul Martin,Canada,NORTHERN AMERICA,38190000.0
1520,806574753.0,Start,Bob Kaplan,Canada,NORTHERN AMERICA,38190000.0
1521,806590267.0,C,Rana Bokhari,Canada,NORTHERN AMERICA,38190000.0
1522,806597550.0,Stub,Peter O'Brian (film producer),Canada,NORTHERN AMERICA,38190000.0
1523,806623455.0,Start,Jeane Lassen,Canada,NORTHERN AMERICA,38190000.0
1524,806623602.0,Stub,Chris Kibermanis,Canada,NORTHERN AMERICA,38190000.0
1525,806623770.0,Start,Cindy Nicholas,Canada,NORTHERN AMERICA,38190000.0
1526,806678784.0,C,Tony Clement,Canada,NORTHERN AMERICA,38190000.0
1527,806690740.0,C,Thomas D'Arcy McGee,Canada,NORTHERN AMERICA,38190000.0
1528,806700269.0,C,George-Étienne Cartier,Canada,NORTHERN AMERICA,38190000.0
1529,806708786.0,C,George Grant (philosopher),Canada,NORTHERN AMERICA,38190000.0
1530,806741746.0,Start,Tina Keeper,Canada,NORTHERN AMERICA,38190000.0
1531,806787269.0,C,Ali Ehsassi,Canada,NORTHERN AMERICA,38190000.0
1532,806787301.0,C,Anthony Housefather,Canada,NORTHERN AMERICA,38190000.0
1533,806787429.0,Start,Celina Caesar-Chavannes,Canada,NORTHERN AMERICA,38190000.0
1534,806787611.0,Start,Don Rusnak,Canada,NORTHERN AMERICA,38190000.0
1535,806787824.0,C,Jim Carr,Canada,NORTHERN AMERICA,38190000.0
1536,806787943.0,C,Kent Hehr,Canada,NORTHERN AMERICA,38190000.0
1537,806788133.0,Start,Michael McLeod (politician),Canada,NORTHERN AMERICA,38190000.0
1538,806788300.0,C,Robert-Falcon Ouellette,Canada,NORTHERN AMERICA,38190000.0
1539,806788356.0,B,Scott Reid (politician),Canada,NORTHERN AMERICA,38190000.0
1540,806789043.0,Start,Allison Brewer,Canada,NORTHERN AMERICA,38190000.0
1541,806789464.0,Start,Annita McPhee,Canada,NORTHERN AMERICA,38190000.0
1542,806829789.0,Start,Bill White (Canadian politician),Canada,NORTHERN AMERICA,38190000.0
1543,806839729.0,Stub,Dave Denine,Canada,NORTHERN AMERICA,38190000.0
1544,806839910.0,FA,John A. Macdonald,Canada,NORTHERN AMERICA,38190000.0
1545,806846827.0,C,Georges Laraque,Canada,NORTHERN AMERICA,38190000.0
1546,806848072.0,Start,Greg Malone (actor),Canada,NORTHERN AMERICA,38190000.0
1547,806848279.0,C,Frank Baylis,Canada,NORTHERN AMERICA,38190000.0
1548,806849461.0,FA,History of monarchy in Canada,Canada,NORTHERN AMERICA,38190000.0
1549,806852710.0,GA,Jack Layton,Canada,NORTHERN AMERICA,38190000.0
1550,806853168.0,C,Jean Augustine,Canada,NORTHERN AMERICA,38190000.0
1551,806863950.0,C,Serge LeClerc,Canada,NORTHERN AMERICA,38190000.0
1552,806892750.0,C,Ken Dryden,Canada,NORTHERN AMERICA,38190000.0
1553,806927054.0,C,Nick Sibbeston,Canada,NORTHERN AMERICA,38190000.0
1554,806941754.0,Start,David Calder (rower),Canada,NORTHERN AMERICA,38190000.0
1555,806972002.0,Start,Bob MacMillan,Canada,NORTHERN AMERICA,38190000.0
1556,807050623.0,C,Wab Kinew,Canada,NORTHERN AMERICA,38190000.0
1557,807054086.0,GA,List of Prime Ministers of Canada,Canada,NORTHERN AMERICA,38190000.0
1558,807057926.0,Start,John Hamilton Gray (Prince Edward Island politician),Canada,NORTHERN AMERICA,38190000.0
1559,807139638.0,GA,Olivia Chow,Canada,NORTHERN AMERICA,38190000.0
1560,807175624.0,Start,Ed Doherty (politician),Canada,NORTHERN AMERICA,38190000.0
1561,807233670.0,C,Gabriel Dumont (Métis leader),Canada,NORTHERN AMERICA,38190000.0
1562,807237476.0,GA,David Onley,Canada,NORTHERN AMERICA,38190000.0
1563,807243266.0,C,James Douglas (governor),Canada,NORTHERN AMERICA,38190000.0
1564,807261409.0,Start,Louis Rubenstein,Canada,NORTHERN AMERICA,38190000.0
1565,807265127.0,C,Morton Shulman,Canada,NORTHERN AMERICA,38190000.0
1566,807266929.0,B,Fathers of Confederation,Canada,NORTHERN AMERICA,38190000.0
1567,807267565.0,C,Pearl Calahasen,Canada,NORTHERN AMERICA,38190000.0
1568,807267654.0,C,Peter Penashue,Canada,NORTHERN AMERICA,38190000.0
1569,807269983.0,C,Romeo Saganash,Canada,NORTHERN AMERICA,38190000.0
1570,807270094.0,Start,Ron Lemieux,Canada,NORTHERN AMERICA,38190000.0
1571,807271702.0,C,Sidney Spivak,Canada,NORTHERN AMERICA,38190000.0
1572,807273359.0,Start,T. J. Burke,Canada,NORTHERN AMERICA,38190000.0
1573,807288552.0,C,Susan Kadis,Canada,NORTHERN AMERICA,38190000.0
1574,807298891.0,Start,Al Adair,Canada,NORTHERN AMERICA,38190000.0
1575,807405641.0,Start,Alexandrine Latendresse,Canada,NORTHERN AMERICA,38190000.0
1576,807424740.0,Start,Aaron Paquette,Canada,NORTHERN AMERICA,38190000.0
1577,807479923.0,C,Amir Khadir,Canada,NORTHERN AMERICA,38190000.0
1578,442937236.0,Stub,List of Grand Viziers of Egypt,Egypt,NORTHERN AFRICA,100803000.0
1579,657176628.0,Start,Neferkheperu-her-sekheper,Egypt,NORTHERN AFRICA,100803000.0
1580,687093229.0,C,Qandil Cabinet,Egypt,NORTHERN AFRICA,100803000.0
1581,700864508.0,Stub,Mohamed Kamel Leilah,Egypt,NORTHERN AFRICA,100803000.0
1582,701871912.0,Stub,Khaled Dawoud,Egypt,NORTHERN AFRICA,100803000.0
1583,705264062.0,Start,Ihab el-Sherif,Egypt,NORTHERN AFRICA,100803000.0
1584,710831684.0,Stub,Ali El-Sayed Ali Al-Moselhi,Egypt,NORTHERN AFRICA,100803000.0
1585,712237399.0,Stub,Ismail El-Gawsaqi,Egypt,NORTHERN AFRICA,100803000.0
1586,712566011.0,Stub,Ali Maher (diplomat),Egypt,NORTHERN AFRICA,100803000.0
1587,714741437.0,Start,Umar al-Tilmisani,Egypt,NORTHERN AFRICA,100803000.0
1588,714806189.0,Stub,Mustafa Mashhur,Egypt,NORTHERN AFRICA,100803000.0
1589,715206646.0,Stub,Yousry Saber Hussein El-Gamal,Egypt,NORTHERN AFRICA,100803000.0
1590,715947683.0,Stub,Hany Mahfouz Helal,Egypt,NORTHERN AFRICA,100803000.0
1591,716599243.0,Stub,Mohammed Habib,Egypt,NORTHERN AFRICA,100803000.0
1592,717534881.0,Stub,Mamdouh Hosny Khalil,Egypt,NORTHERN AFRICA,100803000.0
1593,719039652.0,Stub,Mohamed Abdul Salam Mahgoub,Egypt,NORTHERN AFRICA,100803000.0
1594,719704569.0,Stub,Samir El-Sayiad,Egypt,NORTHERN AFRICA,100803000.0
1595,719742040.0,Start,Maged George Elias Ghattas,Egypt,NORTHERN AFRICA,100803000.0
1596,720605479.0,Start,Stephan Bassily,Egypt,NORTHERN AFRICA,100803000.0
1597,720939610.0,Start,Mohamed Youssef Ibrahim,Egypt,NORTHERN AFRICA,100803000.0
1598,721188244.0,Stub,Mahmoud al-Saqa,Egypt,NORTHERN AFRICA,100803000.0
1599,721302683.0,Stub,Mohammed Murad Ghaleb,Egypt,NORTHERN AFRICA,100803000.0
1600,722226891.0,Stub,George Messiha,Egypt,NORTHERN AFRICA,100803000.0
1601,722340898.0,Stub,Yasser Ali,Egypt,NORTHERN AFRICA,100803000.0
1602,722586870.0,Start,Mohamed Mahsoub,Egypt,NORTHERN AFRICA,100803000.0
1603,723347465.0,Stub,Sayed Meshaal,Egypt,NORTHERN AFRICA,100803000.0
1604,723487099.0,Start,Nabil Na'eem,Egypt,NORTHERN AFRICA,100803000.0
1605,723820329.0,Stub,Ali Ibrahim Pasha,Egypt,NORTHERN AFRICA,100803000.0
1606,726072363.0,Stub,Sherif Sabri Pasha,Egypt,NORTHERN AFRICA,100803000.0
1607,728507832.0,B,Ali Pasha Mubarak,Egypt,NORTHERN AFRICA,100803000.0
1608,734122106.0,Stub,Mohammed Ragab Ahmad,Egypt,NORTHERN AFRICA,100803000.0
1609,735405745.0,B,List of governors of Islamic Egypt,Egypt,NORTHERN AFRICA,100803000.0
1610,735739446.0,C,Sufi Abu Taleb,Egypt,NORTHERN AFRICA,100803000.0
1611,737848237.0,Stub,Abdel Ahad Gamal El Din,Egypt,NORTHERN AFRICA,100803000.0
1612,738586711.0,C,Mohamed M. Abou El Enein,Egypt,NORTHERN AFRICA,100803000.0
1613,741240565.0,B,Diaa al-Din Dawoud,Egypt,NORTHERN AFRICA,100803000.0
1614,743531941.0,Start,Abbas Halim,Egypt,NORTHERN AFRICA,100803000.0
1615,744730085.0,Stub,Abdel Wahab el-Beshry,Egypt,NORTHERN AFRICA,100803000.0
1616,745489352.0,Stub,Joseph de Picciotto Bey,Egypt,NORTHERN AFRICA,100803000.0
1617,745711737.0,Stub,Mohamed Sedki Sulayman,Egypt,NORTHERN AFRICA,100803000.0
1618,745837038.0,Stub,Abdel Fattah Yahya Pasha,Egypt,NORTHERN AFRICA,100803000.0
1619,746372924.0,Start,Talaat Sadat,Egypt,NORTHERN AFRICA,100803000.0
1620,747063138.0,Stub,Muttalib ibn Abdallah ibn Malik,Egypt,NORTHERN AFRICA,100803000.0
1621,747594950.0,Stub,Muhammad Ali Alluba,Egypt,NORTHERN AFRICA,100803000.0
1622,750721973.0,Stub,Galal Saeed,Egypt,NORTHERN AFRICA,100803000.0
1623,750722991.0,Stub,Numan Gumaa,Egypt,NORTHERN AFRICA,100803000.0
1624,751177057.0,Start,Yehia El-Gamal,Egypt,NORTHERN AFRICA,100803000.0
1625,751451387.0,Start,Ahmad Fathy Zaghlul,Egypt,NORTHERN AFRICA,100803000.0
1626,751568055.0,Stub,Muhammad Hassanein,Egypt,NORTHERN AFRICA,100803000.0
1627,755398667.0,C,Hossam Badrawi,Egypt,NORTHERN AFRICA,100803000.0
1628,756307494.0,Stub,Emad Abdel Ghaffour,Egypt,NORTHERN AFRICA,100803000.0
1629,757292312.0,Start,Farkhonda Hassan,Egypt,NORTHERN AFRICA,100803000.0
1630,761525136.0,Start,Hussein el-Shafei,Egypt,NORTHERN AFRICA,100803000.0
1631,762300867.0,Stub,Mohamed Abu Samra,Egypt,NORTHERN AFRICA,100803000.0
1632,762369795.0,Start,Salah Dessouki,Egypt,NORTHERN AFRICA,100803000.0
1633,764016726.0,Stub,Mokhtar Khattab,Egypt,NORTHERN AFRICA,100803000.0
1634,765023750.0,Start,Rifaat el-Mahgoub,Egypt,NORTHERN AFRICA,100803000.0
1635,765119973.0,Stub,Mohamed Mahmoud Pasha,Egypt,NORTHERN AFRICA,100803000.0
1636,765965988.0,Stub,Mohammed Hassan El-Zayyat,Egypt,NORTHERN AFRICA,100803000.0
1637,767190897.0,Start,Hassan Tuhami,Egypt,NORTHERN AFRICA,100803000.0
1638,767649266.0,Stub,Galal al-Morra,Egypt,NORTHERN AFRICA,100803000.0
1639,770980198.0,Stub,Lists of rulers of Egypt,Egypt,NORTHERN AFRICA,100803000.0
1640,773331743.0,Stub,Heshmat Fahmi,Egypt,NORTHERN AFRICA,100803000.0
1641,773751017.0,Start,Mustafa El-Rifai,Egypt,NORTHERN AFRICA,100803000.0
1642,774467673.0,C,Abdel Hakim Amer,Egypt,NORTHERN AFRICA,100803000.0
1643,774472166.0,C,Ibrahim Munir Mustafa,Egypt,NORTHERN AFRICA,100803000.0
1644,777595254.0,Start,Mohamed Sherif Pasha,Egypt,NORTHERN AFRICA,100803000.0
1645,777702366.0,Stub,Aly Maher Pasha,Egypt,NORTHERN AFRICA,100803000.0
1646,777704347.0,Start,Atef Sedky,Egypt,NORTHERN AFRICA,100803000.0
1647,779428183.0,Start,Amani Asfour,Egypt,NORTHERN AFRICA,100803000.0
1648,779819055.0,C,Aisha Rateb,Egypt,NORTHERN AFRICA,100803000.0
1649,780427389.0,C,Hassan al-Hudaybi,Egypt,NORTHERN AFRICA,100803000.0
1650,780493806.0,Stub,Abdelfattah al-Banna,Egypt,NORTHERN AFRICA,100803000.0
1651,782105531.0,Start,Ahmed Naguib el-Hilaly,Egypt,NORTHERN AFRICA,100803000.0
1652,782988569.0,Start,Mahmoud Abo El-Nasr,Egypt,NORTHERN AFRICA,100803000.0
1653,783760275.0,C,Mohamed Fawzi (general),Egypt,NORTHERN AFRICA,100803000.0
1654,784503020.0,Start,Mahmoud Abdel Rahman Fahmy,Egypt,NORTHERN AFRICA,100803000.0
1655,785327208.0,Start,Hafez Abu Seada,Egypt,NORTHERN AFRICA,100803000.0
1656,786115968.0,C,Mohamed Ismail,Egypt,NORTHERN AFRICA,100803000.0
1657,786745161.0,Start,Hassan Ibrahim,Egypt,NORTHERN AFRICA,100803000.0
1658,786991557.0,Stub,Ma'mun al-Hudaybi,Egypt,NORTHERN AFRICA,100803000.0
1659,787386105.0,GA,Abdel Latif Boghdadi (politician),Egypt,NORTHERN AFRICA,100803000.0
1660,787386310.0,Stub,Abdel Moneim Amin,Egypt,NORTHERN AFRICA,100803000.0
1661,787460680.0,Stub,Abu Al-Izz Al-Hariri,Egypt,NORTHERN AFRICA,100803000.0
1662,787913632.0,Stub,Ahmed El-Leithy,Egypt,NORTHERN AFRICA,100803000.0
1663,787919367.0,Start,Ahmed Zaki Badreldin,Egypt,NORTHERN AFRICA,100803000.0
1664,788271050.0,Start,Ahmed El Maghrabi,Egypt,NORTHERN AFRICA,100803000.0
1665,788461897.0,C,Mahmoud Mekki,Egypt,NORTHERN AFRICA,100803000.0
1666,788463189.0,Start,Mansour Hassan,Egypt,NORTHERN AFRICA,100803000.0
1667,788538311.0,Stub,Sherif Kamal Shahine,Egypt,NORTHERN AFRICA,100803000.0
1668,788556635.0,Stub,Tarek al-Zumar,Egypt,NORTHERN AFRICA,100803000.0
1669,788963873.0,Stub,Adel Abdel-Hamid,Egypt,NORTHERN AFRICA,100803000.0
1670,789081956.0,Stub,Hussein Serry Pasha,Egypt,NORTHERN AFRICA,100803000.0
1671,789082303.0,Stub,Ibrahim Abdel Hady Pasha,Egypt,NORTHERN AFRICA,100803000.0
1672,789082718.0,Stub,Mamdouh Salem,Egypt,NORTHERN AFRICA,100803000.0
1673,790526524.0,C,Rawya Ateya,Egypt,NORTHERN AFRICA,100803000.0
1674,791507333.0,Start,Mustafa Khalil,Egypt,NORTHERN AFRICA,100803000.0
1675,792037116.0,GA,Suzanne Mubarak,Egypt,NORTHERN AFRICA,100803000.0
1676,792780958.0,Stub,Ahmed Zeiwar Pasha,Egypt,NORTHERN AFRICA,100803000.0
1677,793707954.0,Start,Sameh Shoukry,Egypt,NORTHERN AFRICA,100803000.0
1678,793838540.0,Start,List of heads of state of Egypt,Egypt,NORTHERN AFRICA,100803000.0
1679,793963147.0,Start,Ziad Bahaa-Eldin,Egypt,NORTHERN AFRICA,100803000.0
1680,794712699.0,Start,Shadi Taha,Egypt,NORTHERN AFRICA,100803000.0
1681,795000966.0,C,Inji Aflatoun,Egypt,NORTHERN AFRICA,100803000.0
1682,795726468.0,FA,Omar Sharaf,Egypt,NORTHERN AFRICA,100803000.0
1683,795799070.0,Stub,List of Presidents of Egypt by time in office,Egypt,NORTHERN AFRICA,100803000.0
1684,795958655.0,Stub,Adel Labib,Egypt,NORTHERN AFRICA,100803000.0
1685,796090115.0,Start,Ibrahim Mahlab,Egypt,NORTHERN AFRICA,100803000.0
1686,796116453.0,C,Gameela Ismail,Egypt,NORTHERN AFRICA,100803000.0
1687,796215075.0,Start,Shawar of Egypt,Egypt,NORTHERN AFRICA,100803000.0
1688,796606969.0,C,Ahmed Gamal El Din,Egypt,NORTHERN AFRICA,100803000.0
1689,796929618.0,Stub,Abdel Moneim El Shahat,Egypt,NORTHERN AFRICA,100803000.0
1690,796954945.0,Stub,Aly Lotfy Mahmoud,Egypt,NORTHERN AFRICA,100803000.0
1691,796973935.0,Stub,Ahmad Fuad Mohieddin,Egypt,NORTHERN AFRICA,100803000.0
1692,797040401.0,Start,Bassem Ouda,Egypt,NORTHERN AFRICA,100803000.0
1693,797479352.0,Stub,First Lady of Egypt,Egypt,NORTHERN AFRICA,100803000.0
1694,797632929.0,Stub,Mohamed Said Pasha,Egypt,NORTHERN AFRICA,100803000.0
1695,797822421.0,Start,Hazem Salah Abu Ismail,Egypt,NORTHERN AFRICA,100803000.0
1696,797939054.0,Start,Mustafa Mansour,Egypt,NORTHERN AFRICA,100803000.0
1697,798490704.0,Start,Kamal el-Din Hussein,Egypt,NORTHERN AFRICA,100803000.0
1698,799022387.0,Start,Mohamed Mansour (businessman),Egypt,NORTHERN AFRICA,100803000.0
1699,799022586.0,C,Mohamed Soudan,Egypt,NORTHERN AFRICA,100803000.0
1700,799071966.0,C,Nabil Elaraby,Egypt,NORTHERN AFRICA,100803000.0
1701,799236302.0,C,Youssef Zulficar Pasha,Egypt,NORTHERN AFRICA,100803000.0
1702,799976520.0,Stub,Nasser al-Hafi,Egypt,NORTHERN AFRICA,100803000.0
1703,800203594.0,C,Mostafa Alnagar,Egypt,NORTHERN AFRICA,100803000.0
1704,800291943.0,Stub,Maged A. Abdelaziz,Egypt,NORTHERN AFRICA,100803000.0
1705,800578412.0,Start,Safiya Zaghloul,Egypt,NORTHERN AFRICA,100803000.0
1706,800640676.0,Start,Mahmoud El Nokrashy Pasha,Egypt,NORTHERN AFRICA,100803000.0
1707,800657898.0,C,Adly Mansour,Egypt,NORTHERN AFRICA,100803000.0
1708,800663044.0,C,Nawal El Saadawi,Egypt,NORTHERN AFRICA,100803000.0
1709,800754887.0,Start,Mahmoud Fawzi,Egypt,NORTHERN AFRICA,100803000.0
1710,800800878.0,Start,Fouad Serageddin,Egypt,NORTHERN AFRICA,100803000.0
1711,800959966.0,Start,Muhammad Husayn Haykal,Egypt,NORTHERN AFRICA,100803000.0
1712,800967250.0,Stub,Al-Fa'iz bi-Nasr Allah,Egypt,NORTHERN AFRICA,100803000.0
1713,801235112.0,Stub,Abdel Khalek Sarwat Pasha,Egypt,NORTHERN AFRICA,100803000.0
1714,801235162.0,Stub,Adly Yakan Pasha,Egypt,NORTHERN AFRICA,100803000.0
1715,801235222.0,Stub,Hussein Roshdy Pasha,Egypt,NORTHERN AFRICA,100803000.0
1716,801629851.0,Stub,Fakhri 'Abd al-Nur,Egypt,NORTHERN AFRICA,100803000.0
1717,801631053.0,Start,Makram Ebeid,Egypt,NORTHERN AFRICA,100803000.0
1718,801632430.0,Stub,Eva Habil,Egypt,NORTHERN AFRICA,100803000.0
1719,801633022.0,Stub,Georgette Kellini,Egypt,NORTHERN AFRICA,100803000.0
1720,801634105.0,Start,Laila Takla,Egypt,NORTHERN AFRICA,100803000.0
1721,801634338.0,Stub,Moheb Stino,Egypt,NORTHERN AFRICA,100803000.0
1722,801635822.0,Start,Mounir Fakhry Abdel Nour,Egypt,NORTHERN AFRICA,100803000.0
1723,801724087.0,Start,Mohammad Farid,Egypt,NORTHERN AFRICA,100803000.0
1724,801731274.0,Stub,Ahmad Mazlum,Egypt,NORTHERN AFRICA,100803000.0
1725,801883534.0,C,Jehan Sadat,Egypt,NORTHERN AFRICA,100803000.0
1726,801983965.0,Stub,Muhammad Hamid Abu al-Nasr,Egypt,NORTHERN AFRICA,100803000.0
1727,802090659.0,Start,Moataz Abdel-Fattah,Egypt,NORTHERN AFRICA,100803000.0
1728,802090661.0,Start,Wahid Abdel Meguid,Egypt,NORTHERN AFRICA,100803000.0
1729,802090665.0,Start,Bahaa El-Din Abu Shoka,Egypt,NORTHERN AFRICA,100803000.0
1730,802090668.0,Stub,Mohammad Salim Al-Awa,Egypt,NORTHERN AFRICA,100803000.0
1731,802090671.0,Start,Khaled Azhari,Egypt,NORTHERN AFRICA,100803000.0
1732,802090674.0,Stub,El-Sayyid el-Badawi,Egypt,NORTHERN AFRICA,100803000.0
1733,802090676.0,Start,Mohamed Beltagy,Egypt,NORTHERN AFRICA,100803000.0
1734,802090680.0,Start,Mohammed Ali Beshr,Egypt,NORTHERN AFRICA,100803000.0
1735,802090683.0,Start,Essam el-Erian,Egypt,NORTHERN AFRICA,100803000.0
1736,802090686.0,Stub,Farouk Gouida,Egypt,NORTHERN AFRICA,100803000.0
1737,802090692.0,C,Saad El-Katatni,Egypt,NORTHERN AFRICA,100803000.0
1738,802090695.0,Stub,Abou Elela Mady,Egypt,NORTHERN AFRICA,100803000.0
1739,802090700.0,Start,Younes Makhioun,Egypt,NORTHERN AFRICA,100803000.0
1740,802090709.0,Stub,Mohamed El-Sawy,Egypt,NORTHERN AFRICA,100803000.0
1741,802090711.0,Stub,Manar El-Shorbagy,Egypt,NORTHERN AFRICA,100803000.0
1742,802090719.0,Start,Osama Yassin,Egypt,NORTHERN AFRICA,100803000.0
1743,802090766.0,Stub,Mamdouh Shahin,Egypt,NORTHERN AFRICA,100803000.0
1744,802091005.0,GA,Timeline of the Egyptian Crisis under Mohamed Morsi,Egypt,NORTHERN AFRICA,100803000.0
1745,802091021.0,Stub,Mohamed Abou El-Ghar,Egypt,NORTHERN AFRICA,100803000.0
1746,802091037.0,Stub,Zakaria Azmi,Egypt,NORTHERN AFRICA,100803000.0
1747,802091062.0,Stub,Maher El-Beheiry,Egypt,NORTHERN AFRICA,100803000.0
1748,802091102.0,Start,Mansour el-Essawy,Egypt,NORTHERN AFRICA,100803000.0
1749,802091126.0,Start,Rafik Habib,Egypt,NORTHERN AFRICA,100803000.0
1750,802091130.0,C,Amr Hamzawy,Egypt,NORTHERN AFRICA,100803000.0
1751,802091158.0,Start,Bothaina Kamel,Egypt,NORTHERN AFRICA,100803000.0
1752,802091196.0,Start,Haitham Mohamedain,Egypt,NORTHERN AFRICA,100803000.0
1753,802091230.0,Start,Sameh Naguib,Egypt,NORTHERN AFRICA,100803000.0
1754,802091238.0,C,Ayman Nour,Egypt,NORTHERN AFRICA,100803000.0
1755,802091248.0,Start,Samir Radwan,Egypt,NORTHERN AFRICA,100803000.0
1756,802091322.0,Stub,Hala Shukrallah,Egypt,NORTHERN AFRICA,100803000.0
1757,802091327.0,Stub,Subhi Saleh,Egypt,NORTHERN AFRICA,100803000.0
1758,802091334.0,B,Omar Suleiman,Egypt,NORTHERN AFRICA,100803000.0
1759,802091337.0,Stub,Farouk Sultan,Egypt,NORTHERN AFRICA,100803000.0
1760,802091340.0,Stub,Mahmoud Wagdy,Egypt,NORTHERN AFRICA,100803000.0
1761,802205975.0,C,Mohammed Mahdi Akef,Egypt,NORTHERN AFRICA,100803000.0
1762,802441493.0,Stub,Mahmoud Samy El Baroudy,Egypt,NORTHERN AFRICA,100803000.0
1763,802496070.0,C,Yasser Shamsaldin Mohamad,Egypt,NORTHERN AFRICA,100803000.0
1764,802670925.0,Stub,Nur al-Din Kahala,Egypt,NORTHERN AFRICA,100803000.0
1765,802672219.0,C,Ahmed Shafik,Egypt,NORTHERN AFRICA,100803000.0
1766,802718005.0,Start,Akhnoukh Fanous,Egypt,NORTHERN AFRICA,100803000.0
1767,803119591.0,Start,Yousef Wali,Egypt,NORTHERN AFRICA,100803000.0
1768,803225667.0,C,Zakaria Mohieddin,Egypt,NORTHERN AFRICA,100803000.0
1769,803476894.0,Stub,Ahmad Mahir Pasha,Egypt,NORTHERN AFRICA,100803000.0
1770,803517166.0,Stub,Ahmed El-Zend,Egypt,NORTHERN AFRICA,100803000.0
1771,803566873.0,B,2013 Egyptian coup d'état,Egypt,NORTHERN AFRICA,100803000.0
1772,803826668.0,Start,Ahmed Gamal El Segini,Egypt,NORTHERN AFRICA,100803000.0
1773,803910324.0,Start,Ester Fanous,Egypt,NORTHERN AFRICA,100803000.0
1774,804069247.0,C,President of Egypt,Egypt,NORTHERN AFRICA,100803000.0
1775,804113674.0,FA,Anwar Sadat,Egypt,NORTHERN AFRICA,100803000.0
1776,804347277.0,Start,Ali Sabri,Egypt,NORTHERN AFRICA,100803000.0
1777,804394080.0,C,Hamdeen Sabahi,Egypt,NORTHERN AFRICA,100803000.0
1778,804431358.0,GA,Abdel Hamid al-Sarraj,Egypt,NORTHERN AFRICA,100803000.0
1779,804446108.0,Start,Bahey El Din Barakat Pasha,Egypt,NORTHERN AFRICA,100803000.0
1780,804452679.0,C,Abdel Moneim Aboul Fotouh,Egypt,NORTHERN AFRICA,100803000.0
1781,804452902.0,FA,Khaled Ali,Egypt,NORTHERN AFRICA,100803000.0
1782,804502345.0,C,Ashraf El-Shihy,Egypt,NORTHERN AFRICA,100803000.0
1783,804677238.0,C,Moushira Khattab,Egypt,NORTHERN AFRICA,100803000.0
1784,804928298.0,Stub,Gawdat al-Malt,Egypt,NORTHERN AFRICA,100803000.0
1785,804930404.0,Start,Osama El-Baz,Egypt,NORTHERN AFRICA,100803000.0
1786,805037992.0,FA,Hosni Mubarak,Egypt,NORTHERN AFRICA,100803000.0
1787,805186352.0,C,Doria Shafik,Egypt,NORTHERN AFRICA,100803000.0
1788,805199785.0,Start,George Isaac (politician),Egypt,NORTHERN AFRICA,100803000.0
1789,805359485.0,Stub,Muhammad Ibrahim Kamel,Egypt,NORTHERN AFRICA,100803000.0
1790,805749818.0,C,Mohammed Badie,Egypt,NORTHERN AFRICA,100803000.0
1791,805782037.0,Stub,Mohamed Tawfik Naseem Pasha,Egypt,NORTHERN AFRICA,100803000.0
1792,805797802.0,C,Hassan al-Banna,Egypt,NORTHERN AFRICA,100803000.0
1793,805918753.0,FA,Gamal Abdel Nasser,Egypt,NORTHERN AFRICA,100803000.0
1794,805930229.0,Start,Amin Iskander,Egypt,NORTHERN AFRICA,100803000.0
1795,805952910.0,B,Sayyid Qutb,Egypt,NORTHERN AFRICA,100803000.0
1796,806365281.0,B,Mohamed Morsi,Egypt,NORTHERN AFRICA,100803000.0
1797,806372528.0,Start,List of Presidents of Egypt,Egypt,NORTHERN AFRICA,100803000.0
1798,806377438.0,Start,Vice-President of Egypt,Egypt,NORTHERN AFRICA,100803000.0
1799,806425332.0,C,Mahmoud Abouelleil,Egypt,NORTHERN AFRICA,100803000.0
1800,806544076.0,C,Boutros Ghali,Egypt,NORTHERN AFRICA,100803000.0
1801,806779104.0,FA,Abdel Fattah el-Sisi,Egypt,NORTHERN AFRICA,100803000.0
1802,806807487.0,Stub,Naglaa Mahmoud,Egypt,NORTHERN AFRICA,100803000.0
1803,807107456.0,Stub,Abbud Pasha,Egypt,NORTHERN AFRICA,100803000.0
1804,807163792.0,C,Mohamed Hussein Tantawi,Egypt,NORTHERN AFRICA,100803000.0
1805,807186627.0,C,Amr Moussa,Egypt,NORTHERN AFRICA,100803000.0
1806,807229980.0,Stub,Anas el-Fiqqi,Egypt,NORTHERN AFRICA,100803000.0
1807,807322896.0,Stub,Hillel Schwartz,Egypt,NORTHERN AFRICA,100803000.0
1808,807407242.0,Stub,Amr Ali (youth leader),Egypt,NORTHERN AFRICA,100803000.0
1809,807407556.0,Start,Mohammed Adel (youth leader),Egypt,NORTHERN AFRICA,100803000.0
1810,807407729.0,C,Ahmed Maher (youth leader),Egypt,NORTHERN AFRICA,100803000.0
1811,807450050.0,Start,Saba Habachy,Egypt,NORTHERN AFRICA,100803000.0
1812,448555418.0,Stub,Sehba Musharraf,Pakistan,SOUTH ASIA,220940000.0
1813,629562076.0,Stub,Sardar Aurang Zeb Khan,Pakistan,SOUTH ASIA,220940000.0
1814,663572469.0,Stub,Mufti Abdullah,Pakistan,SOUTH ASIA,220940000.0
1815,669841183.0,Stub,Malik Adnan Hayat Noon,Pakistan,SOUTH ASIA,220940000.0
1816,678638092.0,Stub,Fakhrul Islam,Pakistan,SOUTH ASIA,220940000.0
1817,680618398.0,Stub,Malik Khuda Buksh Tiwana,Pakistan,SOUTH ASIA,220940000.0
1818,694954386.0,Stub,Hamid Khan Achakzai,Pakistan,SOUTH ASIA,220940000.0
1819,700002117.0,Stub,Choudry Mohammad Sadiq,Pakistan,SOUTH ASIA,220940000.0
1820,705953821.0,Start,Sughra Imam,Pakistan,SOUTH ASIA,220940000.0
1821,707255414.0,Stub,Abdul Hamid Khan Dasti,Pakistan,SOUTH ASIA,220940000.0
1822,707652585.0,Stub,Pyar Ali Allana,Pakistan,SOUTH ASIA,220940000.0
1823,712040248.0,Stub,Taj Muhammad Jamali,Pakistan,SOUTH ASIA,220940000.0
1824,712875260.0,Stub,Mir Afzal Khan,Pakistan,SOUTH ASIA,220940000.0
1825,712875412.0,Stub,Shamsul Mulk,Pakistan,SOUTH ASIA,220940000.0
1826,712930068.0,Stub,Amanullah Khan Jadoon,Pakistan,SOUTH ASIA,220940000.0
1827,714207565.0,Stub,Mohammad Saleh Bhutani,Pakistan,SOUTH ASIA,220940000.0
1828,714251805.0,Stub,Bungan Bugti,Pakistan,SOUTH ASIA,220940000.0
1829,714833977.0,Stub,Sahibzada Mohammad Kursheed,Pakistan,SOUTH ASIA,220940000.0
1830,714909610.0,Stub,Muhammad Hayyat Khan,Pakistan,SOUTH ASIA,220940000.0
1831,715016644.0,Stub,Khalid Shahanshah,Pakistan,SOUTH ASIA,220940000.0
1832,715853058.0,Stub,Khaliq Junejo,Pakistan,SOUTH ASIA,220940000.0
1833,716014135.0,Stub,Mir Dariya Khan Khoso,Pakistan,SOUTH ASIA,220940000.0
1834,717218467.0,Stub,Malik Khuda Bakhsh Bucha,Pakistan,SOUTH ASIA,220940000.0
1835,717369009.0,Stub,Chakar Ali Khan Junejo,Pakistan,SOUTH ASIA,220940000.0
1836,717557507.0,Stub,Sufi Iqbal,Pakistan,SOUTH ASIA,220940000.0
1837,717705089.0,Start,Qazi Ataullah Khan,Pakistan,SOUTH ASIA,220940000.0
1838,717734927.0,Stub,Rubina Rana,Pakistan,SOUTH ASIA,220940000.0
1839,717819968.0,Stub,Mohammad Ali Khan Mohmand,Pakistan,SOUTH ASIA,220940000.0
1840,717844726.0,Stub,Merajuddin Khan,Pakistan,SOUTH ASIA,220940000.0
1841,718491311.0,Start,Syed Shamsul Hasan,Pakistan,SOUTH ASIA,220940000.0
1842,718768102.0,Stub,Chaudhary Mohammad Akbar Ibrahim,Pakistan,SOUTH ASIA,220940000.0
1843,719698993.0,Stub,Shafkat Saeed,Pakistan,SOUTH ASIA,220940000.0
1844,720605540.0,Start,Pir Syed Mohammad Yaqoob Shah,Pakistan,SOUTH ASIA,220940000.0
1845,721080286.0,Stub,Tara Chand (Pakistani politician),Pakistan,SOUTH ASIA,220940000.0
1846,721312428.0,Stub,Dewan Mushtaq Ahmed,Pakistan,SOUTH ASIA,220940000.0
1847,721521374.0,Stub,Abdul Haq Jamali,Pakistan,SOUTH ASIA,220940000.0
1848,721588553.0,Start,Abdullah Sahib,Pakistan,SOUTH ASIA,220940000.0
1849,722128378.0,Stub,Noor Jehan Panezai,Pakistan,SOUTH ASIA,220940000.0
1850,722459230.0,Stub,Sheikh Ejaz Nisar,Pakistan,SOUTH ASIA,220940000.0
1851,723018538.0,Stub,Nawab Ghous Bakhsh Barozai,Pakistan,SOUTH ASIA,220940000.0
1852,723258911.0,Stub,Imran Khan Mohmand,Pakistan,SOUTH ASIA,220940000.0
1853,723273682.0,Stub,Chowdhury Abd-Allah Zaheeruddin (Lal Mia),Pakistan,SOUTH ASIA,220940000.0
1854,723305847.0,Stub,Malik Ahmad Khan Bhachar,Pakistan,SOUTH ASIA,220940000.0
1855,724269493.0,Stub,Abdur Rahim Durrani,Pakistan,SOUTH ASIA,220940000.0
1856,724590862.0,Stub,Mian Arshad Hussain,Pakistan,SOUTH ASIA,220940000.0
1857,724938051.0,Stub,Rao Jamil Akhtar Khan,Pakistan,SOUTH ASIA,220940000.0
1858,725425004.0,Start,Mohsin Razi,Pakistan,SOUTH ASIA,220940000.0
1859,726094514.0,Start,Syed Nasir Ali Rizvi,Pakistan,SOUTH ASIA,220940000.0
1860,726284576.0,Stub,Syed Muhammad Dehlavi,Pakistan,SOUTH ASIA,220940000.0
1861,726740286.0,Stub,Rana Khudadad Khan,Pakistan,SOUTH ASIA,220940000.0
1862,726740306.0,Stub,Rana Nazeer Ahmed Khan,Pakistan,SOUTH ASIA,220940000.0
1863,726958577.0,Start,Ghulam Qadir Wani,Pakistan,SOUTH ASIA,220940000.0
1864,727290732.0,Start,Hafeez A. Pasha,Pakistan,SOUTH ASIA,220940000.0
1865,728875930.0,Stub,Aziz ul Haq,Pakistan,SOUTH ASIA,220940000.0
1866,729968992.0,Start,Syed Kamal,Pakistan,SOUTH ASIA,220940000.0
1867,730223261.0,Stub,Mian Sir Muhammad Shah Nawaz,Pakistan,SOUTH ASIA,220940000.0
1868,731135999.0,Stub,Jamal Leghari,Pakistan,SOUTH ASIA,220940000.0
1869,731667569.0,Stub,Syed Ali Qutab Shah Rizvi,Pakistan,SOUTH ASIA,220940000.0
1870,732578311.0,Stub,Mumtaz Jajja,Pakistan,SOUTH ASIA,220940000.0
1871,733745286.0,Start,Rafique Haider Khan Leghari,Pakistan,SOUTH ASIA,220940000.0
1872,733798233.0,Stub,Wahid Baksh Bhutto,Pakistan,SOUTH ASIA,220940000.0
1873,736876077.0,Stub,Fauzia Nasreen,Pakistan,SOUTH ASIA,220940000.0
1874,737841788.0,Stub,Abdul Baqi (Pakistani politician),Pakistan,SOUTH ASIA,220940000.0
1875,738122019.0,Stub,Sohail Mashadi,Pakistan,SOUTH ASIA,220940000.0
1876,742712473.0,Start,Haji Muhammmed Aslam Khan Khichi,Pakistan,SOUTH ASIA,220940000.0
1877,742713848.0,Stub,Iffat Liaqat Ali Khan,Pakistan,SOUTH ASIA,220940000.0
1878,743025935.0,Stub,Khalid Ali Z. Qazi,Pakistan,SOUTH ASIA,220940000.0
1879,743866967.0,Stub,Amir Khan (MQM),Pakistan,SOUTH ASIA,220940000.0
1880,744425328.0,Stub,Ghulam Raza Naqvi,Pakistan,SOUTH ASIA,220940000.0
1881,744427391.0,Stub,Ansir Iqbal Baryar,Pakistan,SOUTH ASIA,220940000.0
1882,744573546.0,Stub,Naeem U. Hasan,Pakistan,SOUTH ASIA,220940000.0
1883,744975931.0,Stub,Arsala Khan (member of Pakistani legislature),Pakistan,SOUTH ASIA,220940000.0
1884,745149026.0,Stub,Chaudhry Muhammad Riaz,Pakistan,SOUTH ASIA,220940000.0
1885,747090887.0,Start,Raja Hassan Akhtar,Pakistan,SOUTH ASIA,220940000.0
1886,747125386.0,Stub,Shaukat Hussein Mazari,Pakistan,SOUTH ASIA,220940000.0
1887,747539180.0,Stub,Khushdil Khan,Pakistan,SOUTH ASIA,220940000.0
1888,748814562.0,B,Sahibzada Muhammad Ishaq Zaffar,Pakistan,SOUTH ASIA,220940000.0
1889,749311673.0,Start,Sher Ali Khan Pataudi,Pakistan,SOUTH ASIA,220940000.0
1890,749417187.0,Stub,Mir Humayun Khan Marri,Pakistan,SOUTH ASIA,220940000.0
1891,749565836.0,Stub,Mohammad Asghar Afridi,Pakistan,SOUTH ASIA,220940000.0
1892,751803707.0,Stub,Jan Muhammad Junejo,Pakistan,SOUTH ASIA,220940000.0
1893,751860695.0,Stub,Riffat Akbar Swati,Pakistan,SOUTH ASIA,220940000.0
1894,752127398.0,Stub,Khuda Bakhsh Marri,Pakistan,SOUTH ASIA,220940000.0
1895,752808959.0,Stub,Zain ul Abadeen Gillani,Pakistan,SOUTH ASIA,220940000.0
1896,753518954.0,Stub,Sayed Muhammad Fazal Agha,Pakistan,SOUTH ASIA,220940000.0
1897,754007960.0,Stub,Sheikh Ansar Aziz,Pakistan,SOUTH ASIA,220940000.0
1898,754281891.0,Stub,Azam Khan Hoti,Pakistan,SOUTH ASIA,220940000.0
1899,754305393.0,Stub,Malik Saeed Dehwar,Pakistan,SOUTH ASIA,220940000.0
1900,754310119.0,Start,Veeru Kohli,Pakistan,SOUTH ASIA,220940000.0
1901,754520889.0,Stub,Samuel Martin Burke,Pakistan,SOUTH ASIA,220940000.0
1902,754935817.0,Start,Syed Ali Nawaz Shah Rizvi,Pakistan,SOUTH ASIA,220940000.0
1903,755035440.0,Stub,Ameer Bux Bhutto,Pakistan,SOUTH ASIA,220940000.0
1904,756000929.0,Start,Jamshed Nusserwanjee Mehta,Pakistan,SOUTH ASIA,220940000.0
1905,756351469.0,Start,Abdul Raziq Bugti,Pakistan,SOUTH ASIA,220940000.0
1906,756696335.0,Stub,Shahed Ali Patwary,Pakistan,SOUTH ASIA,220940000.0
1907,757011067.0,Start,Afshan Rafiq,Pakistan,SOUTH ASIA,220940000.0
1908,757343528.0,Stub,Akmal Cheema,Pakistan,SOUTH ASIA,220940000.0
1909,757343549.0,Stub,Chaudhry Amir Hussain,Pakistan,SOUTH ASIA,220940000.0
1910,757343557.0,Stub,Wasi Zafar,Pakistan,SOUTH ASIA,220940000.0
1911,757371254.0,Stub,Fazal Shah,Pakistan,SOUTH ASIA,220940000.0
1912,760219437.0,Stub,Raja Muhammed Sarfraz Khan,Pakistan,SOUTH ASIA,220940000.0
1913,760256110.0,Stub,Altaf Hussain Unar,Pakistan,SOUTH ASIA,220940000.0
1914,760839784.0,Stub,Asghar Khan Nawani,Pakistan,SOUTH ASIA,220940000.0
1915,762354383.0,Start,Matloob Inkalabi,Pakistan,SOUTH ASIA,220940000.0
1916,762456013.0,C,Mian Hazrat Jamal Kakakhel,Pakistan,SOUTH ASIA,220940000.0
1917,762765241.0,Start,Rustam Jamali,Pakistan,SOUTH ASIA,220940000.0
1918,763633344.0,Stub,Akhtar Jadoon,Pakistan,SOUTH ASIA,220940000.0
1919,763704547.0,Stub,Naseer Khan Khoso,Pakistan,SOUTH ASIA,220940000.0
1920,764057558.0,Stub,Rao Muhammad Afzal Khan,Pakistan,SOUTH ASIA,220940000.0
1921,766794356.0,Start,Raja Muhammad Basharat,Pakistan,SOUTH ASIA,220940000.0
1922,767573862.0,Stub,Tayyab Hussain,Pakistan,SOUTH ASIA,220940000.0
1923,769918127.0,Stub,Chaudhry Imtiaz Ahmed Ranjha,Pakistan,SOUTH ASIA,220940000.0
1924,770461887.0,Start,Cincinnatus Fabian D'Abreo,Pakistan,SOUTH ASIA,220940000.0
1925,771003562.0,Start,Sheikh Mohammad Rashid,Pakistan,SOUTH ASIA,220940000.0
1926,771378515.0,Stub,Mian Yawar Zaman,Pakistan,SOUTH ASIA,220940000.0
1927,771784866.0,Stub,Mehran Marri,Pakistan,SOUTH ASIA,220940000.0
1928,772103373.0,Start,Ijlal Haider Zaidi,Pakistan,SOUTH ASIA,220940000.0
1929,772336345.0,Start,Hamid Javaid,Pakistan,SOUTH ASIA,220940000.0
1930,773116793.0,Stub,Sajjad Hussain Qureshi,Pakistan,SOUTH ASIA,220940000.0
1931,773540386.0,Start,Tehmina Janjua,Pakistan,SOUTH ASIA,220940000.0
1932,773684314.0,Stub,Mir Ghalib Hussain Domki,Pakistan,SOUTH ASIA,220940000.0
1933,774632738.0,Start,Jahanara Shahnawaz,Pakistan,SOUTH ASIA,220940000.0
1934,775222050.0,Start,Shahid Hamid,Pakistan,SOUTH ASIA,220940000.0
1935,775225816.0,Stub,Azeem Ahmed Tariq,Pakistan,SOUTH ASIA,220940000.0
1936,775519786.0,Stub,Riaz Mohammad Khan,Pakistan,SOUTH ASIA,220940000.0
1937,775519858.0,Stub,Riaz Khokhar,Pakistan,SOUTH ASIA,220940000.0
1938,775970259.0,Stub,Zamarud Khan,Pakistan,SOUTH ASIA,220940000.0
1939,776067147.0,Stub,Jamshed Burki,Pakistan,SOUTH ASIA,220940000.0
1940,776477756.0,C,Inayatullah Khan Mashriqi,Pakistan,SOUTH ASIA,220940000.0
1941,776528224.0,Stub,Syed Ata-ul-Mohsin Bukhari,Pakistan,SOUTH ASIA,220940000.0
1942,777882737.0,Stub,Jafar Ali Shah,Pakistan,SOUTH ASIA,220940000.0
1943,778615671.0,Stub,Muhammad Saifullah,Pakistan,SOUTH ASIA,220940000.0
1944,778785713.0,Stub,Khalid Amir Khan,Pakistan,SOUTH ASIA,220940000.0
1945,779161900.0,Start,Syed Sajid Ali Naqvi,Pakistan,SOUTH ASIA,220940000.0
1946,779330782.0,Start,Malik Allahyar Khan,Pakistan,SOUTH ASIA,220940000.0
1947,779353072.0,Stub,Rubina Irfan,Pakistan,SOUTH ASIA,220940000.0
1948,779390245.0,Stub,Fazila Aliani,Pakistan,SOUTH ASIA,220940000.0
1949,779485379.0,Stub,Chaudhry Abdus Salam,Pakistan,SOUTH ASIA,220940000.0
1950,779486735.0,Stub,Muhammad Asif Nakai,Pakistan,SOUTH ASIA,220940000.0
1951,779486792.0,Stub,Khalid Ibrahim Khan,Pakistan,SOUTH ASIA,220940000.0
1952,779487183.0,Stub,Muhammad Muqeem Khan Khoso,Pakistan,SOUTH ASIA,220940000.0
1953,779487223.0,Stub,Salim Jan Khan Mazari,Pakistan,SOUTH ASIA,220940000.0
1954,779487616.0,Stub,Muhammad Anwar Khan (politician),Pakistan,SOUTH ASIA,220940000.0
1955,779728676.0,Stub,Hari Ram (politician),Pakistan,SOUTH ASIA,220940000.0
1956,779792812.0,Stub,Diwan Bhai Abdul Hamid,Pakistan,SOUTH ASIA,220940000.0
1957,779953888.0,Stub,Abdul Aziz Kurd,Pakistan,SOUTH ASIA,220940000.0
1958,779954402.0,Stub,Atta Muhammad Marri,Pakistan,SOUTH ASIA,220940000.0
1959,779954681.0,Stub,Bungal Bugti,Pakistan,SOUTH ASIA,220940000.0
1960,779955962.0,Stub,Iftikharul Hasan Shah,Pakistan,SOUTH ASIA,220940000.0
1961,779957124.0,Stub,Nawabzada Syed Shams Haider,Pakistan,SOUTH ASIA,220940000.0
1962,779957741.0,Stub,Saleem Ullah Khan Niazi Paikhel,Pakistan,SOUTH ASIA,220940000.0
1963,779958411.0,Stub,Shabbir Hassan Ansari,Pakistan,SOUTH ASIA,220940000.0
1964,779959970.0,Start,Yousuf Ayub Khan,Pakistan,SOUTH ASIA,220940000.0
1965,779959986.0,Stub,Zahoor Hussain Khoso,Pakistan,SOUTH ASIA,220940000.0
1966,780332647.0,Start,Irshad Ahmed Haqqani,Pakistan,SOUTH ASIA,220940000.0
1967,781018913.0,Start,Syed Yahya Shah,Pakistan,SOUTH ASIA,220940000.0
1968,781228095.0,Stub,Ch. Nazir Ahmed Jatt,Pakistan,SOUTH ASIA,220940000.0
1969,781507785.0,C,Niat Qabool Hayat Kakakhel,Pakistan,SOUTH ASIA,220940000.0
1970,782105424.0,C,Ahmed Hossain,Pakistan,SOUTH ASIA,220940000.0
1971,782332071.0,Stub,Muhammad Saleem Bajawa,Pakistan,SOUTH ASIA,220940000.0
1972,782491923.0,Start,Makhdoom Altaf Ahmed,Pakistan,SOUTH ASIA,220940000.0
1973,783282121.0,Stub,Manuel Misquita,Pakistan,SOUTH ASIA,220940000.0
1974,783348142.0,Start,Nawabzada Gazanfar Ali Gul,Pakistan,SOUTH ASIA,220940000.0
1975,783565671.0,Stub,Haji Ghulam Rabbani,Pakistan,SOUTH ASIA,220940000.0
1976,783575909.0,Stub,Zafar Ahmed Ansari,Pakistan,SOUTH ASIA,220940000.0
1977,784263750.0,Start,Abdullah Haroon,Pakistan,SOUTH ASIA,220940000.0
1978,784589958.0,Start,Khair Bakhsh Marri,Pakistan,SOUTH ASIA,220940000.0
1979,785572704.0,GA,Shuja Khanzada,Pakistan,SOUTH ASIA,220940000.0
1980,785608796.0,Stub,Chaudhry Afzal Haq,Pakistan,SOUTH ASIA,220940000.0
1981,785878585.0,Start,Fauzia Abbas,Pakistan,SOUTH ASIA,220940000.0
1982,785940873.0,Stub,Nawab Muhammad Khan Shahwani,Pakistan,SOUTH ASIA,220940000.0
1983,785975832.0,C,Amna Buttar,Pakistan,SOUTH ASIA,220940000.0
1984,786440898.0,Start,Qazi Abdul Majeed Abid,Pakistan,SOUTH ASIA,220940000.0
1985,786525585.0,Start,Salahuddin Saeed Khan,Pakistan,SOUTH ASIA,220940000.0
1986,786576132.0,Stub,Julius Salik,Pakistan,SOUTH ASIA,220940000.0
1987,786906375.0,Stub,Abdullah Qureshi,Pakistan,SOUTH ASIA,220940000.0
1988,787539057.0,Stub,Abdul Latif Ansari,Pakistan,SOUTH ASIA,220940000.0
1989,787545227.0,Stub,Agha Shahbaz Khan Durrani,Pakistan,SOUTH ASIA,220940000.0
1990,787768492.0,Start,Mohammad Anwar Khan Durrani,Pakistan,SOUTH ASIA,220940000.0
1991,787787367.0,Start,Mohammed Yahya,Pakistan,SOUTH ASIA,220940000.0
1992,787818308.0,Start,Mian Khurshid Anwar,Pakistan,SOUTH ASIA,220940000.0
1993,787847359.0,Stub,Khan Abdul Bahram Khan,Pakistan,SOUTH ASIA,220940000.0
1994,787956172.0,Start,Fazil Rahu,Pakistan,SOUTH ASIA,220940000.0
1995,787961456.0,Stub,Muhammad Khan Hoti,Pakistan,SOUTH ASIA,220940000.0
1996,787963880.0,Stub,Shaukat Ullah,Pakistan,SOUTH ASIA,220940000.0
1997,788004672.0,C,Aizaz Ahmad Chaudhry,Pakistan,SOUTH ASIA,220940000.0
1998,788133161.0,Stub,Farhat Mohammad Khan,Pakistan,SOUTH ASIA,220940000.0
1999,788309755.0,Stub,Jamila Gallani,Pakistan,SOUTH ASIA,220940000.0
2000,788309771.0,Stub,Khurshid Begum Saeed,Pakistan,SOUTH ASIA,220940000.0
2001,788309778.0,Stub,Asma Arbab Alamgir,Pakistan,SOUTH ASIA,220940000.0
2002,788309798.0,Stub,Farzana Mushtaq Ghani,Pakistan,SOUTH ASIA,220940000.0
2003,788309813.0,Stub,Shireen Arshad Khan,Pakistan,SOUTH ASIA,220940000.0
2004,788309965.0,Stub,Tasneem Siddiqui,Pakistan,SOUTH ASIA,220940000.0
2005,788309975.0,Stub,Nisar Tanveer,Pakistan,SOUTH ASIA,220940000.0
2006,788310015.0,Stub,Rukhsana Jamshed Buttar,Pakistan,SOUTH ASIA,220940000.0
2007,788310022.0,Stub,Shaheen Ashfaq,Pakistan,SOUTH ASIA,220940000.0
2008,788310025.0,Stub,Rukhsana Bangash,Pakistan,SOUTH ASIA,220940000.0
2009,788310041.0,Stub,Fakhar-un-Nisa,Pakistan,SOUTH ASIA,220940000.0
2010,788310048.0,Stub,Fouzia Habib,Pakistan,SOUTH ASIA,220940000.0
2011,788310050.0,Stub,Shakeela Khanam Rashid,Pakistan,SOUTH ASIA,220940000.0
2012,788310061.0,Stub,Samina Mushtaq,Pakistan,SOUTH ASIA,220940000.0
2013,788310069.0,Stub,Nasim Akhtar Chaudhry,Pakistan,SOUTH ASIA,220940000.0
2014,788310080.0,Stub,Nosheen Saeed,Pakistan,SOUTH ASIA,220940000.0
2015,788310269.0,Stub,Munira Shakir,Pakistan,SOUTH ASIA,220940000.0
2016,788310272.0,Stub,Rubina Saadat Qaim Khani,Pakistan,SOUTH ASIA,220940000.0
2017,788310281.0,Stub,Nahid Shahid Ali,Pakistan,SOUTH ASIA,220940000.0
2018,788310294.0,Stub,Shagufta Sadiq,Pakistan,SOUTH ASIA,220940000.0
2019,788310300.0,Stub,Fiza Junejo,Pakistan,SOUTH ASIA,220940000.0
2020,788310380.0,Stub,Khatu Mal Jeewan,Pakistan,SOUTH ASIA,220940000.0
2021,788310584.0,Stub,Reena Kumari (politician),Pakistan,SOUTH ASIA,220940000.0
2022,788310617.0,Stub,Farhat Khan (politician),Pakistan,SOUTH ASIA,220940000.0
2023,788314460.0,Stub,Chaudry Tussadiq Masud Khan,Pakistan,SOUTH ASIA,220940000.0
2024,788314829.0,Stub,Sheikh Tariq Rashid,Pakistan,SOUTH ASIA,220940000.0
2025,788316118.0,Stub,Mehreen Anwar Raja,Pakistan,SOUTH ASIA,220940000.0
2026,788421207.0,Stub,Imrana Saeed Jamil,Pakistan,SOUTH ASIA,220940000.0
2027,788421407.0,Stub,Imtiaz Sultan Bukhari,Pakistan,SOUTH ASIA,220940000.0
2028,788421652.0,Stub,Qudsia Arshad,Pakistan,SOUTH ASIA,220940000.0
2029,788452234.0,Stub,Tufail Ahmad Khan (politician),Pakistan,SOUTH ASIA,220940000.0
2030,788486140.0,C,Ijaz Shah,Pakistan,SOUTH ASIA,220940000.0
2031,788668975.0,Start,Yousaf Aziz Magsi,Pakistan,SOUTH ASIA,220940000.0
2032,788685121.0,Stub,Mehdi Shah,Pakistan,SOUTH ASIA,220940000.0
2033,788881154.0,C,Amir Habibullah Khan Saadi,Pakistan,SOUTH ASIA,220940000.0
2034,788913763.0,Start,Abdul Majeed Khan Achakzai,Pakistan,SOUTH ASIA,220940000.0
2035,788931494.0,Start,Tach Sharakat,Pakistan,SOUTH ASIA,220940000.0
2036,789277725.0,Stub,Ahmed Ali Kohzad,Pakistan,SOUTH ASIA,220940000.0
2037,789277840.0,Stub,Iqbal Mohammad Ali,Pakistan,SOUTH ASIA,220940000.0
2038,789277902.0,Start,Shahnaz Wazir Ali,Pakistan,SOUTH ASIA,220940000.0
2039,789277950.0,Stub,Shagufta Anwar,Pakistan,SOUTH ASIA,220940000.0
2040,789277980.0,Stub,Begum Ishrat Ashraf,Pakistan,SOUTH ASIA,220940000.0
2041,789278135.0,Stub,Sabir Ali Baloch,Pakistan,SOUTH ASIA,220940000.0
2042,789278146.0,Start,Abdul Nabi Bangash,Pakistan,SOUTH ASIA,220940000.0
2043,789278154.0,Stub,Bahadur Khan Bangulzai,Pakistan,SOUTH ASIA,220940000.0
2044,789278185.0,Start,Saima Akhtar Bharwana,Pakistan,SOUTH ASIA,220940000.0
2045,789278683.0,Stub,Ilyas Chinioti,Pakistan,SOUTH ASIA,220940000.0
2046,789278734.0,Stub,Azeem Daultana,Pakistan,SOUTH ASIA,220940000.0
2047,789278798.0,Start,Shahzad Elahi,Pakistan,SOUTH ASIA,220940000.0
2048,789278830.0,Start,Sharmila Farooqi,Pakistan,SOUTH ASIA,220940000.0
2049,789278866.0,Stub,Babar Khan Ghauri,Pakistan,SOUTH ASIA,220940000.0
2050,789278871.0,Stub,Syed Ghawas,Pakistan,SOUTH ASIA,220940000.0
2051,789279408.0,Stub,Haji Syed Hussain Hazara,Pakistan,SOUTH ASIA,220940000.0
2052,789279416.0,Stub,Abdul Halim Khan,Pakistan,SOUTH ASIA,220940000.0
2053,789279536.0,Stub,Nawabzada Abdul Ghafoor Khan Hoti,Pakistan,SOUTH ASIA,220940000.0
2054,789279684.0,Start,Farahnaz Ispahani,Pakistan,SOUTH ASIA,220940000.0
2055,789279687.0,Stub,Iqbal Khan Jadoon,Pakistan,SOUTH ASIA,220940000.0
2056,789279708.0,Start,Nasreen Jalil,Pakistan,SOUTH ASIA,220940000.0
2057,789279731.0,Stub,Jan Mohammad Jamali,Pakistan,SOUTH ASIA,220940000.0
2058,789281092.0,Stub,Fazal Ali Shah,Pakistan,SOUTH ASIA,220940000.0
2059,789281142.0,Start,Muhammad Sarwar Khan,Pakistan,SOUTH ASIA,220940000.0
2060,789281198.0,Stub,Khalil Tahir Sandhu,Pakistan,SOUTH ASIA,220940000.0
2061,789281286.0,Stub,Arbab Alamgir Khan,Pakistan,SOUTH ASIA,220940000.0
2062,789281328.0,Stub,Chaudhry Ali Akbar Khan,Pakistan,SOUTH ASIA,220940000.0
2063,789281409.0,Stub,Khurshid Ali Khan,Pakistan,SOUTH ASIA,220940000.0
2064,789281571.0,Stub,Qurban Ali Khan,Pakistan,SOUTH ASIA,220940000.0
2065,789281609.0,Stub,Rashid Akbar Khan,Pakistan,SOUTH ASIA,220940000.0
2066,789281622.0,Stub,Saeed Akbar Khan,Pakistan,SOUTH ASIA,220940000.0
2067,789281637.0,Stub,Sangeen Wali Khan,Pakistan,SOUTH ASIA,220940000.0
2068,789281650.0,Stub,Sardar Muhammad Yusuf Khan,Pakistan,SOUTH ASIA,220940000.0
2069,789282295.0,Stub,Sahibzada Mohammad Khurshid,Pakistan,SOUTH ASIA,220940000.0
2070,789282348.0,Start,Hajiani Lanjo,Pakistan,SOUTH ASIA,220940000.0
2071,789283200.0,Stub,Ali Muhammad Khan Mahar,Pakistan,SOUTH ASIA,220940000.0
2072,789283262.0,Stub,Shirala Mallick,Pakistan,SOUTH ASIA,220940000.0
2073,789284069.0,Start,Najeeb Ahmed,Pakistan,SOUTH ASIA,220940000.0
2074,789284154.0,Start,Sher Afgan Niazi,Pakistan,SOUTH ASIA,220940000.0
2075,789284178.0,Stub,Anwar Ali Noon,Pakistan,SOUTH ASIA,220940000.0
2076,789284355.0,Stub,Khuda Bux Rajar,Pakistan,SOUTH ASIA,220940000.0
2077,789284445.0,Stub,Khalilur Rehman (governor),Pakistan,SOUTH ASIA,220940000.0
2078,789284452.0,Start,Nasim Ur Rehman,Pakistan,SOUTH ASIA,220940000.0
2079,789284669.0,Start,Saeeda Iqbal,Pakistan,SOUTH ASIA,220940000.0
2080,789284757.0,Start,Shah Muhammad Khan,Pakistan,SOUTH ASIA,220940000.0
2081,789284784.0,Stub,Karam Ali Shah,Pakistan,SOUTH ASIA,220940000.0
2082,789284849.0,Stub,Syed Nasir Ali Shah,Pakistan,SOUTH ASIA,220940000.0
2083,789284862.0,Stub,Syed Usman Ali Shah,Pakistan,SOUTH ASIA,220940000.0
2084,789285014.0,Stub,Muhammad Shoaib,Pakistan,SOUTH ASIA,220940000.0
2085,789285060.0,Stub,Saqlain Anwar Sipra,Pakistan,SOUTH ASIA,220940000.0
2086,789285119.0,Stub,Suhail Anwar Sial,Pakistan,SOUTH ASIA,220940000.0
2087,789285259.0,Stub,Syed Kazim Hussain Shah,Pakistan,SOUTH ASIA,220940000.0
2088,789285700.0,Stub,Rana Zahid Tauseef,Pakistan,SOUTH ASIA,220940000.0
2089,789285705.0,Start,Iqbal Tikka,Pakistan,SOUTH ASIA,220940000.0
2090,789285726.0,Stub,N M Uqaili,Pakistan,SOUTH ASIA,220940000.0
2091,789285739.0,Stub,Arshad Vohra,Pakistan,SOUTH ASIA,220940000.0
2092,789285753.0,C,Fauzia Wahab,Pakistan,SOUTH ASIA,220940000.0
2093,789285855.0,Start,Hussain Ali Yousafi,Pakistan,SOUTH ASIA,220940000.0
2094,789286073.0,Start,Nisar Memon,Pakistan,SOUTH ASIA,220940000.0
2095,789286129.0,Stub,Abdul Ghafoor Khan Mayo,Pakistan,SOUTH ASIA,220940000.0
2096,789286144.0,C,Sana Ullah Khan,Pakistan,SOUTH ASIA,220940000.0
2097,789287267.0,Stub,Akhtar Ali Ghulam Kazi (former governor of sindh),Pakistan,SOUTH ASIA,220940000.0
2098,789287283.0,Start,Minocher Bhandara,Pakistan,SOUTH ASIA,220940000.0
2099,789287917.0,Stub,Fazlullah MPA,Pakistan,SOUTH ASIA,220940000.0
2100,789287981.0,Start,Mohabat Khan Marri,Pakistan,SOUTH ASIA,220940000.0
2101,789288000.0,C,Mir Nooruddin Mengal,Pakistan,SOUTH ASIA,220940000.0
2102,789288060.0,Start,Zari Sarfaraz,Pakistan,SOUTH ASIA,220940000.0
2103,789288071.0,Stub,Rahim Bux Soomro,Pakistan,SOUTH ASIA,220940000.0
2104,789288211.0,Stub,Raja Muhammad Zulqarnain Khan,Pakistan,SOUTH ASIA,220940000.0
2105,789486890.0,Stub,Wahid Bakhsh Bhayo (politician),Pakistan,SOUTH ASIA,220940000.0
2106,789612188.0,Stub,Abdul Hakeem Khan,Pakistan,SOUTH ASIA,220940000.0
2107,789826945.0,Stub,Mian Muhammad Afzal Hayat,Pakistan,SOUTH ASIA,220940000.0
2108,789838419.0,Stub,Palwasha Khan,Pakistan,SOUTH ASIA,220940000.0
2109,789840210.0,Stub,Nelson Azeem,Pakistan,SOUTH ASIA,220940000.0
2110,789880130.0,Stub,Asadullah Bhutto,Pakistan,SOUTH ASIA,220940000.0
2111,789969038.0,Stub,Assad Murtaza Gilani,Pakistan,SOUTH ASIA,220940000.0
2112,790040110.0,Stub,Mushtaq Ahmed Gurmani,Pakistan,SOUTH ASIA,220940000.0
2113,790112701.0,Start,Abdul Jalil Memon,Pakistan,SOUTH ASIA,220940000.0
2114,790113464.0,Start,Abdul Sattar Khan Niazi,Pakistan,SOUTH ASIA,220940000.0
2115,790222582.0,Stub,Amir Gulistan Janjua,Pakistan,SOUTH ASIA,220940000.0
2116,790270038.0,Stub,Asfand Yar Khan Kakar,Pakistan,SOUTH ASIA,220940000.0
2117,790283906.0,Start,Ayatullah Durrani,Pakistan,SOUTH ASIA,220940000.0
2118,790289238.0,Stub,Malik Naeem Khan Awan,Pakistan,SOUTH ASIA,220940000.0
2119,790314225.0,Stub,Aziz Aslam Shaikh,Pakistan,SOUTH ASIA,220940000.0
2120,790319688.0,Stub,Bahram Khan family,Pakistan,SOUTH ASIA,220940000.0
2121,790486318.0,Stub,Jennifer Musa,Pakistan,SOUTH ASIA,220940000.0
2122,790578819.0,Stub,Talal Akbar Bugti,Pakistan,SOUTH ASIA,220940000.0
2123,790679877.0,Start,Ashraf Abbasi,Pakistan,SOUTH ASIA,220940000.0
2124,790688591.0,Start,Nawabzada Malik Amad Khan,Pakistan,SOUTH ASIA,220940000.0
2125,790751866.0,Start,Syed Babar Ali,Pakistan,SOUTH ASIA,220940000.0
2126,790762935.0,Stub,Abdul Kadir Shaikh,Pakistan,SOUTH ASIA,220940000.0
2127,790887872.0,Start,Rahila Durrani,Pakistan,SOUTH ASIA,220940000.0
2128,790945751.0,Start,Farid Khan (politician),Pakistan,SOUTH ASIA,220940000.0
2129,791018678.0,Start,Khan Habibullah Khan,Pakistan,SOUTH ASIA,220940000.0
2130,791261128.0,Start,Dodo Maheri,Pakistan,SOUTH ASIA,220940000.0
2131,791289920.0,Stub,Asif Bashir Bhagat,Pakistan,SOUTH ASIA,220940000.0
2132,791438905.0,Stub,Masood Abbas,Pakistan,SOUTH ASIA,220940000.0
2133,791438943.0,Stub,Laiq Muhammad Khan,Pakistan,SOUTH ASIA,220940000.0
2134,791439336.0,Stub,Himayat Ullah Mayar,Pakistan,SOUTH ASIA,220940000.0
2135,791439820.0,Stub,Mufti Ajmal Khan,Pakistan,SOUTH ASIA,220940000.0
2136,791440148.0,Stub,Mehboob Ullah Jan,Pakistan,SOUTH ASIA,220940000.0
2137,791440156.0,Stub,Mohammad Qasim,Pakistan,SOUTH ASIA,220940000.0
2138,791441465.0,Stub,Muhammad Nawaz Allai,Pakistan,SOUTH ASIA,220940000.0
2139,791454294.0,C,Raja Habib ur Rahman Khan,Pakistan,SOUTH ASIA,220940000.0
2140,791455279.0,Stub,Fazaldad Wahla,Pakistan,SOUTH ASIA,220940000.0
2141,791472640.0,Stub,Muhammad Tariq Khattak,Pakistan,SOUTH ASIA,220940000.0
2142,791474559.0,Stub,Muzafer-ul-Mulk,Pakistan,SOUTH ASIA,220940000.0
2143,791474988.0,Stub,Pervaiz Khan,Pakistan,SOUTH ASIA,220940000.0
2144,791476189.0,Stub,Dilawar Shah,Pakistan,SOUTH ASIA,220940000.0
2145,791477646.0,Stub,Alla-ud-Din,Pakistan,SOUTH ASIA,220940000.0
2146,791478358.0,Stub,Haider Ali Shah,Pakistan,SOUTH ASIA,220940000.0
2147,791482245.0,Start,Lal Muhammad Khan,Pakistan,SOUTH ASIA,220940000.0
2148,791503669.0,Start,Munir Khan Orakzai,Pakistan,SOUTH ASIA,220940000.0
2149,791582291.0,Stub,Mohammad Kamran Khan,Pakistan,SOUTH ASIA,220940000.0
2150,791589709.0,Stub,Hameed Ullah Jan Afridi,Pakistan,SOUTH ASIA,220940000.0
2151,791592384.0,Stub,Zafar Beg Bhittani,Pakistan,SOUTH ASIA,220940000.0
2152,791644363.0,Stub,Malik Shakeel Awan,Pakistan,SOUTH ASIA,220940000.0
2153,791655504.0,Stub,Raja Muhammad Asad Khan,Pakistan,SOUTH ASIA,220940000.0
2154,791655802.0,Stub,Raja Muhammad Safdar Khan,Pakistan,SOUTH ASIA,220940000.0
2155,791664511.0,Stub,Nadeem Afzal Gondal,Pakistan,SOUTH ASIA,220940000.0
2156,791682507.0,Stub,Rana Muhammad Farooq Saeed Khan,Pakistan,SOUTH ASIA,220940000.0
2157,791795500.0,Stub,Fozia Behram,Pakistan,SOUTH ASIA,220940000.0
2158,791881599.0,C,Khan Abdul Jabbar Khan,Pakistan,SOUTH ASIA,220940000.0
2159,791937926.0,Start,Mir Thebo,Pakistan,SOUTH ASIA,220940000.0
2160,791947558.0,Stub,Haidar Abbas Rizvi,Pakistan,SOUTH ASIA,220940000.0
2161,792155040.0,C,Mian Muhibullah Kakakhel,Pakistan,SOUTH ASIA,220940000.0
2162,792201705.0,Start,Ibn Abdur Rehman,Pakistan,SOUTH ASIA,220940000.0
2163,792287366.0,Stub,Raja Riaz Ahmad Khan,Pakistan,SOUTH ASIA,220940000.0
2164,792401241.0,Stub,Muhammad Ijaz Virk,Pakistan,SOUTH ASIA,220940000.0
2165,792401682.0,Stub,Sahabzada Muhammad Mehboob Sultan,Pakistan,SOUTH ASIA,220940000.0
2166,792402145.0,Stub,Farkhanda Amjad,Pakistan,SOUTH ASIA,220940000.0
2167,792407868.0,Start,Zahra Shahid Hussain,Pakistan,SOUTH ASIA,220940000.0
2168,792411780.0,Stub,Rana Mohammad Hanif Khan,Pakistan,SOUTH ASIA,220940000.0
2169,792425514.0,Stub,Muhammad Hanif Malik,Pakistan,SOUTH ASIA,220940000.0
2170,792426156.0,Stub,Sahabzada Syed Murtaza Amin,Pakistan,SOUTH ASIA,220940000.0
2171,792427685.0,Stub,Sumaira Yasir Rasheed,Pakistan,SOUTH ASIA,220940000.0
2172,792439958.0,Stub,Nawab Zada Wali Muhammad Khan,Pakistan,SOUTH ASIA,220940000.0
2173,792563282.0,Stub,Muhammad Tariq Anis,Pakistan,SOUTH ASIA,220940000.0
2174,792563890.0,Stub,Mian Marghoob Ahmad,Pakistan,SOUTH ASIA,220940000.0
2175,792564566.0,Stub,Omer Sohail Zia Butt,Pakistan,SOUTH ASIA,220940000.0
2176,792579079.0,Stub,Saeed Ahmed Zafar,Pakistan,SOUTH ASIA,220940000.0
2177,792579476.0,Stub,Sardar Talib Hassan Nakai,Pakistan,SOUTH ASIA,220940000.0
2178,792580420.0,Stub,Rai Ghulam Mujtaba Kharral,Pakistan,SOUTH ASIA,220940000.0
2179,792581000.0,Stub,Sajjad-ul-Hassan,Pakistan,SOUTH ASIA,220940000.0
2180,792583917.0,Stub,Khuram Jehangir Wattoo,Pakistan,SOUTH ASIA,220940000.0
2181,792584290.0,Stub,Syed Ali Musa Gillani,Pakistan,SOUTH ASIA,220940000.0
2182,792633464.0,Start,Miangul Asfandyar Amir Zeb,Pakistan,SOUTH ASIA,220940000.0
2183,792692158.0,Start,Qamar Zaman Khan,Pakistan,SOUTH ASIA,220940000.0
2184,792717199.0,Start,Mian Muhammad Azhar,Pakistan,SOUTH ASIA,220940000.0
2185,792717790.0,Stub,Malik Karamat Khokhar,Pakistan,SOUTH ASIA,220940000.0
2186,792722298.0,Stub,Tasneem Noorani,Pakistan,SOUTH ASIA,220940000.0
2187,792796764.0,Stub,Jafar Khan Jamali,Pakistan,SOUTH ASIA,220940000.0
2188,792874629.0,Stub,Abdul Wahab Khan,Pakistan,SOUTH ASIA,220940000.0
2189,792935269.0,Stub,Zafar Hilaly,Pakistan,SOUTH ASIA,220940000.0
2190,793024534.0,C,Raja Ashfaq Sarwar,Pakistan,SOUTH ASIA,220940000.0
2191,793096074.0,Stub,Ali Haider Gillani,Pakistan,SOUTH ASIA,220940000.0
2192,793232084.0,Start,Farzana Bari,Pakistan,SOUTH ASIA,220940000.0
2193,793307115.0,Stub,Malik Jamroz Khan,Pakistan,SOUTH ASIA,220940000.0
2194,793523629.0,Stub,Abdul Latif Yousafzai,Pakistan,SOUTH ASIA,220940000.0
2195,793548866.0,Stub,Rana Abdul Sattar,Pakistan,SOUTH ASIA,220940000.0
2196,793656364.0,Stub,Riaz Hussain (politician),Pakistan,SOUTH ASIA,220940000.0
2197,793674409.0,Start,Bashir Ahmad Bilour,Pakistan,SOUTH ASIA,220940000.0
2198,793833263.0,Start,Maula Bakhsh Chandio,Pakistan,SOUTH ASIA,220940000.0
2199,793836391.0,Stub,Yasmeen Rehman,Pakistan,SOUTH ASIA,220940000.0
2200,793841446.0,Stub,Nisar Fatima,Pakistan,SOUTH ASIA,220940000.0
2201,793885842.0,Stub,Raza Haider,Pakistan,SOUTH ASIA,220940000.0
2202,793885917.0,Stub,Syed Manzar Imam,Pakistan,SOUTH ASIA,220940000.0
2203,794064343.0,Stub,Interior Minister of Pakistan,Pakistan,SOUTH ASIA,220940000.0
2204,794080871.0,Stub,Kishan Chand Parwani,Pakistan,SOUTH ASIA,220940000.0
2205,794081192.0,Stub,Manwer Lal,Pakistan,SOUTH ASIA,220940000.0
2206,794109925.0,Start,Noor Alam Khan,Pakistan,SOUTH ASIA,220940000.0
2207,794137357.0,Stub,Krishan Bheel,Pakistan,SOUTH ASIA,220940000.0
2208,794405204.0,Start,Anwar Saifullah Khan,Pakistan,SOUTH ASIA,220940000.0
2209,794597858.0,Stub,Jam Ali Akbar,Pakistan,SOUTH ASIA,220940000.0
2210,794638097.0,Start,Mir Ghazanfar Ali Khan,Pakistan,SOUTH ASIA,220940000.0
2211,794670353.0,Stub,Javed Iqbal Warraich,Pakistan,SOUTH ASIA,220940000.0
2212,794670532.0,Stub,Mian Abdul Sattar,Pakistan,SOUTH ASIA,220940000.0
2213,794670626.0,Stub,Khadija Aamir Yar Malik,Pakistan,SOUTH ASIA,220940000.0
2214,794670756.0,Stub,Muhammad Mohsin Ali Qureshi,Pakistan,SOUTH ASIA,220940000.0
2215,794670761.0,Stub,Dost Muhammad Mazari,Pakistan,SOUTH ASIA,220940000.0
2216,794670775.0,Stub,Muhammad Saif-ud-Din Khosa,Pakistan,SOUTH ASIA,220940000.0
2217,794670793.0,Stub,Mehmood Hayat Khan,Pakistan,SOUTH ASIA,220940000.0
2218,794670802.0,Stub,Natasha Daultana,Pakistan,SOUTH ASIA,220940000.0
2219,794670922.0,Stub,Muhammad Salman Mohsin Gillani,Pakistan,SOUTH ASIA,220940000.0
2220,794670934.0,Stub,Nauman Ahmad Langrial,Pakistan,SOUTH ASIA,220940000.0
2221,794670958.0,Stub,Ghulam Farid Kathia,Pakistan,SOUTH ASIA,220940000.0
2222,794670980.0,Stub,Muhammad Akhtar Khan Kanju,Pakistan,SOUTH ASIA,220940000.0
2223,794670999.0,Stub,Liaqat Ali Khan (politician),Pakistan,SOUTH ASIA,220940000.0
2224,794672496.0,Stub,Shahid Hussain Bhutto,Pakistan,SOUTH ASIA,220940000.0
2225,794674592.0,Start,Hafiz Hamdullah,Pakistan,SOUTH ASIA,220940000.0
2226,794676370.0,Stub,Gul Muhammad Khan Jakhrani,Pakistan,SOUTH ASIA,220940000.0
2227,794676940.0,Stub,Salahuddin (politician),Pakistan,SOUTH ASIA,220940000.0
2228,794677962.0,Stub,Noor-ul-Haq Qadri,Pakistan,SOUTH ASIA,220940000.0
2229,794682753.0,Stub,Hamid Yar Hiraj,Pakistan,SOUTH ASIA,220940000.0
2230,794744256.0,Start,Ashraf Mahmood Wathra,Pakistan,SOUTH ASIA,220940000.0
2231,794822412.0,Start,Abdul Akbar Khan,Pakistan,SOUTH ASIA,220940000.0
2232,794834928.0,C,Syed Mumtaz Alam Gillani,Pakistan,SOUTH ASIA,220940000.0
2233,794835592.0,Stub,Shah Turabul Haq Qadri,Pakistan,SOUTH ASIA,220940000.0
2234,794838169.0,Stub,Sardar Muqeem Khoso,Pakistan,SOUTH ASIA,220940000.0
2235,794838252.0,Stub,Ahmed Saeed Awan,Pakistan,SOUTH ASIA,220940000.0
2236,794839946.0,Stub,Nawab Muhammad Ayaz Khan Jogezai,Pakistan,SOUTH ASIA,220940000.0
2237,794840345.0,Stub,Syed Zafar Ali Shah (senator),Pakistan,SOUTH ASIA,220940000.0
2238,794850993.0,Stub,Ghazala Saad Rafique,Pakistan,SOUTH ASIA,220940000.0
2239,794910035.0,C,Amir Azam Khan (politician),Pakistan,SOUTH ASIA,220940000.0
2240,794988929.0,Stub,Michael Javaid,Pakistan,SOUTH ASIA,220940000.0
2241,794989795.0,Stub,Ghulam Ali Nizamani,Pakistan,SOUTH ASIA,220940000.0
2242,794991414.0,Stub,Ghulam Hyder Samejo,Pakistan,SOUTH ASIA,220940000.0
2243,795013335.0,Stub,Shamshad Sattar Bachani,Pakistan,SOUTH ASIA,220940000.0
2244,795054455.0,Stub,Ubaidur Rahman Zia,Pakistan,SOUTH ASIA,220940000.0
2245,795130800.0,Stub,Muhammad Jadam Mangrio,Pakistan,SOUTH ASIA,220940000.0
2246,795130821.0,Stub,Talat Mahesar,Pakistan,SOUTH ASIA,220940000.0
2247,795133069.0,Stub,Muhammad Ayub Sheikh,Pakistan,SOUTH ASIA,220940000.0
2248,795134403.0,Stub,Sher Muhammad Baloch,Pakistan,SOUTH ASIA,220940000.0
2249,795135525.0,Stub,Sardar Mohammad Umar Gorgage,Pakistan,SOUTH ASIA,220940000.0
2250,795136367.0,Stub,Haji Roz-ud-Din,Pakistan,SOUTH ASIA,220940000.0
2251,795136637.0,Stub,Maulvi Asmatullah,Pakistan,SOUTH ASIA,220940000.0
2252,795136867.0,Stub,Mir Ahmadan Khan Bugti,Pakistan,SOUTH ASIA,220940000.0
2253,795137035.0,Stub,Mir Changez Khan Jamali,Pakistan,SOUTH ASIA,220940000.0
2254,795137457.0,Stub,Mir Humayun Aziz Kurd,Pakistan,SOUTH ASIA,220940000.0
2255,795137776.0,Stub,Mohammad Usman (politician),Pakistan,SOUTH ASIA,220940000.0
2256,795137963.0,Stub,Yaqoob Bizanjo,Pakistan,SOUTH ASIA,220940000.0
2257,795161826.0,C,Omar Asghar Khan,Pakistan,SOUTH ASIA,220940000.0
2258,795161994.0,Start,Kausar Niazi,Pakistan,SOUTH ASIA,220940000.0
2259,795162568.0,Start,Elahi Bux Soomro,Pakistan,SOUTH ASIA,220940000.0
2260,795276745.0,Stub,Rana Abdul Rauf,Pakistan,SOUTH ASIA,220940000.0
2261,795296624.0,Start,Shaikh Din Muhammad,Pakistan,SOUTH ASIA,220940000.0
2262,795299266.0,Start,Javed Jabbar,Pakistan,SOUTH ASIA,220940000.0
2263,795301590.0,Start,Maulana Bashir Ahmad Sialvi,Pakistan,SOUTH ASIA,220940000.0
2264,795444355.0,Start,Liaqat Baloch,Pakistan,SOUTH ASIA,220940000.0
2265,795445379.0,Start,Mohammad Ibrahim Khan Jhagra,Pakistan,SOUTH ASIA,220940000.0
2266,795479606.0,Start,Naz Baloch,Pakistan,SOUTH ASIA,220940000.0
2267,795863992.0,Start,Bushra Gohar,Pakistan,SOUTH ASIA,220940000.0
2268,795976867.0,Stub,Anwar Aziz Chaudhry,Pakistan,SOUTH ASIA,220940000.0
2269,796127417.0,Start,Iftikhar Hussain Shah,Pakistan,SOUTH ASIA,220940000.0
2270,796128725.0,Stub,Rubina Shaheen,Pakistan,SOUTH ASIA,220940000.0
2271,796210750.0,Stub,Mir Rasool Bux Talpur,Pakistan,SOUTH ASIA,220940000.0
2272,796281540.0,C,Abida Hussain,Pakistan,SOUTH ASIA,220940000.0
2273,796316447.0,C,Khwaja Qamar ul Din Sialvi,Pakistan,SOUTH ASIA,220940000.0
2274,796341089.0,Stub,Shahjahan Yousuf,Pakistan,SOUTH ASIA,220940000.0
2275,796444231.0,Stub,Rana Mahmood-ul-Hassan,Pakistan,SOUTH ASIA,220940000.0
2276,796506233.0,C,Shahal Khan Khoso,Pakistan,SOUTH ASIA,220940000.0
2277,796514475.0,Stub,Uzma Qadri,Pakistan,SOUTH ASIA,220940000.0
2278,796560137.0,Start,Syed Salim Raza,Pakistan,SOUTH ASIA,220940000.0
2279,796636243.0,Start,Maulvi Tamizuddin Khan,Pakistan,SOUTH ASIA,220940000.0
2280,796638729.0,Start,Moonis Elahi,Pakistan,SOUTH ASIA,220940000.0
2281,796651170.0,Start,Faisal Karim Kundi,Pakistan,SOUTH ASIA,220940000.0
2282,796828148.0,Stub,Sardar Fateh Muhammad Muhammad Hassani,Pakistan,SOUTH ASIA,220940000.0
2283,796849002.0,Start,Samina Khalid Ghurki,Pakistan,SOUTH ASIA,220940000.0
2284,796854114.0,Stub,Iftikhar Khan Jhagra,Pakistan,SOUTH ASIA,220940000.0
2285,796856494.0,C,Rana Iqbal Ahmad Khan,Pakistan,SOUTH ASIA,220940000.0
2286,796857427.0,Start,Ehsan-ul-Haq Piracha,Pakistan,SOUTH ASIA,220940000.0
2287,796857902.0,Stub,Qamar Zaman Shah,Pakistan,SOUTH ASIA,220940000.0
2288,796857925.0,Stub,Raes Jamil Bhurgari,Pakistan,SOUTH ASIA,220940000.0
2289,796862062.0,C,Basit Jehangir Sheikh,Pakistan,SOUTH ASIA,220940000.0
2290,796862138.0,Stub,Muhammad Afzal Sindhu,Pakistan,SOUTH ASIA,220940000.0
2291,796863014.0,Start,Kashmala Tariq,Pakistan,SOUTH ASIA,220940000.0
2292,796863065.0,Stub,Manzoor Wassan,Pakistan,SOUTH ASIA,220940000.0
2293,796863249.0,Stub,Zainul Abideen,Pakistan,SOUTH ASIA,220940000.0
2294,796864288.0,Start,Syed Zafar Ali Shah,Pakistan,SOUTH ASIA,220940000.0
2295,796864878.0,Stub,M. Nawaz Khokhar,Pakistan,SOUTH ASIA,220940000.0
2296,796881246.0,Stub,Sadia Abbasi,Pakistan,SOUTH ASIA,220940000.0
2297,796887494.0,Start,Abdul Gani (soldier),Pakistan,SOUTH ASIA,220940000.0
2298,796909949.0,Stub,Malik Nawab Sher Waseer,Pakistan,SOUTH ASIA,220940000.0
2299,796952884.0,Stub,Basma Riaz Choudhry,Pakistan,SOUTH ASIA,220940000.0
2300,796990025.0,Start,Shehla Raza,Pakistan,SOUTH ASIA,220940000.0
2301,797017980.0,Stub,Malak Azmat Khan,Pakistan,SOUTH ASIA,220940000.0
2302,797030894.0,Stub,Sardar Bahadur Ahmed Khan,Pakistan,SOUTH ASIA,220940000.0
2303,797035244.0,Stub,Abdul Hamid Khan (politician),Pakistan,SOUTH ASIA,220940000.0
2304,797100120.0,Start,Abu Hussain Sarkar,Pakistan,SOUTH ASIA,220940000.0
2305,797179978.0,Start,Khalid Mehmood Soomro,Pakistan,SOUTH ASIA,220940000.0
2306,797318770.0,Start,Amjad Ali (civil servant),Pakistan,SOUTH ASIA,220940000.0
2307,797340602.0,C,Hayat Sherpao,Pakistan,SOUTH ASIA,220940000.0
2308,797498448.0,Start,Syed Munir Hussain Gilani,Pakistan,SOUTH ASIA,220940000.0
2309,797516710.0,Start,Rana Muhammad Afzal,Pakistan,SOUTH ASIA,220940000.0
2310,797551614.0,Start,Sassui Palijo,Pakistan,SOUTH ASIA,220940000.0
2311,797554934.0,Stub,Tanzila Aamir Cheema,Pakistan,SOUTH ASIA,220940000.0
2312,797572336.0,Start,Nazir Ahmed Khan (politician),Pakistan,SOUTH ASIA,220940000.0
2313,797623209.0,Stub,Nadeem Ehsan,Pakistan,SOUTH ASIA,220940000.0
2314,797646946.0,Stub,Chaudhry Mumtaz Ahmed Kahloon,Pakistan,SOUTH ASIA,220940000.0
2315,797747980.0,Stub,Sajid Qureshi,Pakistan,SOUTH ASIA,220940000.0
2316,797752848.0,Stub,Ghulam Qadir Khan,Pakistan,SOUTH ASIA,220940000.0
2317,797761741.0,Start,Zulfiqar Halepoto,Pakistan,SOUTH ASIA,220940000.0
2318,797802929.0,Stub,Haji Omar,Pakistan,SOUTH ASIA,220940000.0
2319,797809216.0,Stub,Syed Ata-ul-Muhaimin Bukhari,Pakistan,SOUTH ASIA,220940000.0
2320,797984136.0,Start,Yahya Bakhtiar,Pakistan,SOUTH ASIA,220940000.0
2321,797986452.0,Start,Miangul Adnan Aurangzeb,Pakistan,SOUTH ASIA,220940000.0
2322,798085455.0,Stub,Mohammad Abbas Abbasi (governor),Pakistan,SOUTH ASIA,220940000.0
2323,798152161.0,C,Abdul Malik Baloch,Pakistan,SOUTH ASIA,220940000.0
2324,798234928.0,Start,Osman Saifullah,Pakistan,SOUTH ASIA,220940000.0
2325,798276380.0,Start,Muhammad Ali (politician),Pakistan,SOUTH ASIA,220940000.0
2326,798330441.0,Stub,Athar Ali (politician),Pakistan,SOUTH ASIA,220940000.0
2327,798532002.0,Stub,Mufti Muhammad Abbas,Pakistan,SOUTH ASIA,220940000.0
2328,798532524.0,Stub,Arbab Jehangir Khan,Pakistan,SOUTH ASIA,220940000.0
2329,798591757.0,C,Rajinder Kaur Bhattal,Pakistan,SOUTH ASIA,220940000.0
2330,798867756.0,Start,Abdul Ghafoor Khan Durrani,Pakistan,SOUTH ASIA,220940000.0
2331,798874500.0,Stub,Malik Zahoor Ahmad,Pakistan,SOUTH ASIA,220940000.0
2332,798893538.0,Stub,Afaq Ahmed,Pakistan,SOUTH ASIA,220940000.0
2333,798978992.0,Start,Zardari family,Pakistan,SOUTH ASIA,220940000.0
2334,798993371.0,Start,Jalil Abbas Jilani,Pakistan,SOUTH ASIA,220940000.0
2335,799035386.0,Stub,Mohammed Sadiq (diplomat),Pakistan,SOUTH ASIA,220940000.0
2336,799053388.0,Start,Sanaullah Baloch,Pakistan,SOUTH ASIA,220940000.0
2337,799057027.0,GA,Inamul Haque Khan,Pakistan,SOUTH ASIA,220940000.0
2338,799065755.0,Stub,Ali Haider Noor Khan Niazi,Pakistan,SOUTH ASIA,220940000.0
2339,799109420.0,Stub,Habib Jalib Baloch,Pakistan,SOUTH ASIA,220940000.0
2340,799245998.0,C,Meera (actress),Pakistan,SOUTH ASIA,220940000.0
2341,799283750.0,Start,Nilofar Bakhtiar,Pakistan,SOUTH ASIA,220940000.0
2342,799439419.0,Stub,Janbaz Mirza,Pakistan,SOUTH ASIA,220940000.0
2343,799441237.0,Start,Mufti Jafar Hussain,Pakistan,SOUTH ASIA,220940000.0
2344,799441364.0,Start,Arif Hussain Hussaini,Pakistan,SOUTH ASIA,220940000.0
2345,799488091.0,Start,Jahangir Khanzada,Pakistan,SOUTH ASIA,220940000.0
2346,799536435.0,Start,Makhdoom Shahabuddin,Pakistan,SOUTH ASIA,220940000.0
2347,799597928.0,C,Aamer Sohail,Pakistan,SOUTH ASIA,220940000.0
2348,799598389.0,C,Abdul Ghafoor Bhurgri,Pakistan,SOUTH ASIA,220940000.0
2349,799625653.0,C,Ataullah Mengal,Pakistan,SOUTH ASIA,220940000.0
2350,799677219.0,GA,Zubaida Jalal Khan,Pakistan,SOUTH ASIA,220940000.0
2351,799709406.0,Start,Ghulam Mohammed Baloch,Pakistan,SOUTH ASIA,220940000.0
2352,799815864.0,Start,Miran Mohammad Shah,Pakistan,SOUTH ASIA,220940000.0
2353,799909023.0,Stub,Arbab Sikandar Khan,Pakistan,SOUTH ASIA,220940000.0
2354,799973643.0,Stub,Phool Muhammad Khan,Pakistan,SOUTH ASIA,220940000.0
2355,800052317.0,Start,Wajih uz Zaman Khan,Pakistan,SOUTH ASIA,220940000.0
2356,800128166.0,Start,Shahnawaz Bhutto,Pakistan,SOUTH ASIA,220940000.0
2357,800143157.0,Start,Sher Mohammad Marri,Pakistan,SOUTH ASIA,220940000.0
2358,800147556.0,Stub,Ali Muhammad Khan,Pakistan,SOUTH ASIA,220940000.0
2359,800147571.0,Stub,Usman Khan Tarrakai,Pakistan,SOUTH ASIA,220940000.0
2360,800147572.0,Stub,Aqibullah,Pakistan,SOUTH ASIA,220940000.0
2361,800147624.0,Stub,Nasir Khan Khattak,Pakistan,SOUTH ASIA,220940000.0
2362,800147634.0,Stub,Khayal Zaman Orakzai,Pakistan,SOUTH ASIA,220940000.0
2363,800147651.0,Stub,Muhammad Azhar Jadoon,Pakistan,SOUTH ASIA,220940000.0
2364,800147817.0,Start,Murtaza Javed Abbasi,Pakistan,SOUTH ASIA,220940000.0
2365,800147819.0,Stub,Babar Nawaz Khan,Pakistan,SOUTH ASIA,220940000.0
2366,800147868.0,Stub,Sar Zamin Khan,Pakistan,SOUTH ASIA,220940000.0
2367,800148116.0,Stub,Junaid Akbar,Pakistan,SOUTH ASIA,220940000.0
2368,800148145.0,Stub,Amirullah Marwat,Pakistan,SOUTH ASIA,220940000.0
2369,800148188.0,Start,Ibad Ullah,Pakistan,SOUTH ASIA,220940000.0
2370,800148219.0,Stub,Sahabzada Tariq Ullah,Pakistan,SOUTH ASIA,220940000.0
2371,800148527.0,Stub,Bilal Rehman,Pakistan,SOUTH ASIA,220940000.0
2372,800148536.0,Stub,Sajid Hussain,Pakistan,SOUTH ASIA,220940000.0
2373,800148579.0,Stub,Muhammad Nazeer Khan,Pakistan,SOUTH ASIA,220940000.0
2374,800148629.0,Stub,Bismillah Khan (politician),Pakistan,SOUTH ASIA,220940000.0
2375,800148681.0,Stub,Qaiser Jamal,Pakistan,SOUTH ASIA,220940000.0
2376,800252586.0,Stub,Sardar Mumtaz Khan,Pakistan,SOUTH ASIA,220940000.0
2377,800252590.0,Stub,Chaudhry Khadim Hussain,Pakistan,SOUTH ASIA,220940000.0
2378,800252660.0,Stub,Sardar Shafqat Hayat Khan,Pakistan,SOUTH ASIA,220940000.0
2379,800252670.0,Stub,Uzair Khan,Pakistan,SOUTH ASIA,220940000.0
2380,800252725.0,Stub,Obaidullah Shadikhel,Pakistan,SOUTH ASIA,220940000.0
2381,800252785.0,Stub,Abdul Majeed Khan,Pakistan,SOUTH ASIA,220940000.0
2382,800252802.0,Stub,Muhammad Afzal Khan Dhandla,Pakistan,SOUTH ASIA,220940000.0
2383,800252808.0,Stub,Ghulam Rasool Sahi,Pakistan,SOUTH ASIA,220940000.0
2384,800252825.0,Stub,Muhammad Asim Nazir,Pakistan,SOUTH ASIA,220940000.0
2385,800252837.0,Start,Rajab Ali Khan Baloch,Pakistan,SOUTH ASIA,220940000.0
2386,800252839.0,Stub,Chaudhry Shehbaz Babar,Pakistan,SOUTH ASIA,220940000.0
2387,800252905.0,Stub,Mian Muhammad Farooq,Pakistan,SOUTH ASIA,220940000.0
2388,800252936.0,Stub,Nisar Ahmad Jutt,Pakistan,SOUTH ASIA,220940000.0
2389,800252972.0,Stub,Rana Afzal Khan,Pakistan,SOUTH ASIA,220940000.0
2390,800252977.0,Stub,Mian Abdul Manan,Pakistan,SOUTH ASIA,220940000.0
2391,800253035.0,Stub,Ghulam Muhammad Lali,Pakistan,SOUTH ASIA,220940000.0
2392,800253165.0,Stub,Azhar Qayyum,Pakistan,SOUTH ASIA,220940000.0
2393,800253196.0,Stub,Sheikh Muhammad Akram,Pakistan,SOUTH ASIA,220940000.0
2394,800253212.0,Stub,Sahibzada Muhammad Nazeer Sultan,Pakistan,SOUTH ASIA,220940000.0
2395,800253218.0,Stub,Najaf Abbas Sial,Pakistan,SOUTH ASIA,220940000.0
2396,800253230.0,Stub,Chaudhary Khalid Javed,Pakistan,SOUTH ASIA,220940000.0
2397,800253268.0,Stub,Asad Ur Rehman,Pakistan,SOUTH ASIA,220940000.0
2398,800253299.0,Stub,Chaudhry Mehmood Bashir,Pakistan,SOUTH ASIA,220940000.0
2399,800253304.0,Stub,Mian Tariq Mehmood,Pakistan,SOUTH ASIA,220940000.0
2400,800253316.0,Start,Rana Umar Nazir Khan,Pakistan,SOUTH ASIA,220940000.0
2401,800254136.0,Stub,Amjad Ali Khan (politician),Pakistan,SOUTH ASIA,220940000.0
2402,800254992.0,Start,User:AliHKhan/sandbox,Pakistan,SOUTH ASIA,220940000.0
2403,800269556.0,Start,Iftikhar Cheema,Pakistan,SOUTH ASIA,220940000.0
2404,800269570.0,Start,Saira Afzal Tarar,Pakistan,SOUTH ASIA,220940000.0
2405,800269611.0,Stub,Nawabzada Mazhar Ali,Pakistan,SOUTH ASIA,220940000.0
2406,800269654.0,Stub,Chaudhry Abid Raza,Pakistan,SOUTH ASIA,220940000.0
2407,800269676.0,Stub,Nasir Iqbal Bosal,Pakistan,SOUTH ASIA,220940000.0
2408,800269849.0,Stub,Armaghan Subhani,Pakistan,SOUTH ASIA,220940000.0
2409,800269871.0,Stub,Shamim Ahmed,Pakistan,SOUTH ASIA,220940000.0
2410,800269886.0,Stub,Syed Iftikhar Ul Hassan,Pakistan,SOUTH ASIA,220940000.0
2411,800269952.0,Stub,Mian Muhammad Rashid,Pakistan,SOUTH ASIA,220940000.0
2412,800269995.0,Stub,Muhammad Riaz Malik,Pakistan,SOUTH ASIA,220940000.0
2413,800270012.0,Stub,Mehr Ishtiaq Ahmed,Pakistan,SOUTH ASIA,220940000.0
2414,800270087.0,Stub,Shaikh Rohale Asghar,Pakistan,SOUTH ASIA,220940000.0
2415,800270260.0,Start,Afzal Khokhar,Pakistan,SOUTH ASIA,220940000.0
2416,800270292.0,Stub,Sohail Shaukat Butt,Pakistan,SOUTH ASIA,220940000.0
2417,800270389.0,Start,Mian Javed Latif,Pakistan,SOUTH ASIA,220940000.0
2418,800270480.0,Stub,Irfan Dogar,Pakistan,SOUTH ASIA,220940000.0
2419,800270596.0,Start,Salman Haneef,Pakistan,SOUTH ASIA,220940000.0
2420,800270639.0,Stub,Waseem Akhtar Shaikh,Pakistan,SOUTH ASIA,220940000.0
2421,800270747.0,Stub,Malik Rasheed Ahmed Khan,Pakistan,SOUTH ASIA,220940000.0
2422,800270754.0,Stub,Rana Muhammad Ishaq,Pakistan,SOUTH ASIA,220940000.0
2423,800270772.0,Stub,Rana Muhammad Hayat,Pakistan,SOUTH ASIA,220940000.0
2424,800270786.0,Stub,Chaudhry Nadeem Abbas,Pakistan,SOUTH ASIA,220940000.0
2425,800270798.0,Stub,Chaudhry Riaz-ul-Haq,Pakistan,SOUTH ASIA,220940000.0
2426,800270812.0,Stub,Ashiq Husain Khan,Pakistan,SOUTH ASIA,220940000.0
2427,800270821.0,Start,Rao Muhammad Ajmal Khan,Pakistan,SOUTH ASIA,220940000.0
2428,800270830.0,Stub,Muhammad Moeen Wattoo,Pakistan,SOUTH ASIA,220940000.0
2429,800270838.0,Stub,Malik Abdul Gafar Dogar,Pakistan,SOUTH ASIA,220940000.0
2430,800270915.0,Stub,Malik Aamir Dogar,Pakistan,SOUTH ASIA,220940000.0
2431,800271134.0,Start,Rana Muhammad Qasim Noon,Pakistan,SOUTH ASIA,220940000.0
2432,800271200.0,Stub,Muhammad Khan Daha,Pakistan,SOUTH ASIA,220940000.0
2433,800271209.0,Stub,Aslam Bodla,Pakistan,SOUTH ASIA,220940000.0
2434,800271215.0,Stub,Chaudhry Iftikhar Nazir,Pakistan,SOUTH ASIA,220940000.0
2435,800271254.0,Stub,Muhammad Tufail (politician),Pakistan,SOUTH ASIA,220940000.0
2436,800271262.0,Stub,Muhammad Munir Azhar,Pakistan,SOUTH ASIA,220940000.0
2437,800271305.0,Stub,Sardar Mansab Ali Dogar,Pakistan,SOUTH ASIA,220940000.0
2438,800271309.0,Stub,Syed Athar Hussain Gilani,Pakistan,SOUTH ASIA,220940000.0
2439,800271319.0,Stub,Rana Zahid Hussain,Pakistan,SOUTH ASIA,220940000.0
2440,800271390.0,Stub,Chaudhry Nazeer Ahmad,Pakistan,SOUTH ASIA,220940000.0
2441,800271504.0,Stub,Syed Sajid Mehdi,Pakistan,SOUTH ASIA,220940000.0
2442,800271513.0,Stub,Tahir Iqbal Chaudhry,Pakistan,SOUTH ASIA,220940000.0
2443,800271528.0,Stub,Saeed Ahmed Khan,Pakistan,SOUTH ASIA,220940000.0
2444,800271554.0,Start,Amjad Farooq Khan,Pakistan,SOUTH ASIA,220940000.0
2445,800271645.0,Start,Sardar Muhammad Jaffar Khan Leghari,Pakistan,SOUTH ASIA,220940000.0
2446,800271660.0,Stub,Sultan Mehmood,Pakistan,SOUTH ASIA,220940000.0
2447,800271678.0,Stub,Syed Basit Sultan Bukhari,Pakistan,SOUTH ASIA,220940000.0
2448,800271713.0,Stub,Faiz Ul Hassan,Pakistan,SOUTH ASIA,220940000.0
2449,800271717.0,Start,Syed Muhammad Saqlain,Pakistan,SOUTH ASIA,220940000.0
2450,800271761.0,Start,Syed Ali Hassan Gilani,Pakistan,SOUTH ASIA,220940000.0
2451,800271767.0,Start,Najibuddin Awaisi,Pakistan,SOUTH ASIA,220940000.0
2452,800271930.0,Stub,Alam Dad Lalika,Pakistan,SOUTH ASIA,220940000.0
2453,800271993.0,Stub,Tahir Bashir Cheema,Pakistan,SOUTH ASIA,220940000.0
2454,800272038.0,Stub,Khwaja Ghulam Rasool Koreja,Pakistan,SOUTH ASIA,220940000.0
2455,800272065.0,Stub,Sheikh Fayyaz Ud Din,Pakistan,SOUTH ASIA,220940000.0
2456,800272094.0,Stub,Mustafa Mehmood,Pakistan,SOUTH ASIA,220940000.0
2457,800272105.0,Start,Mian Imtiaz Ahmed,Pakistan,SOUTH ASIA,220940000.0
2458,800272136.0,Stub,Nauman Islam Shaikh,Pakistan,SOUTH ASIA,220940000.0
2459,800272167.0,Stub,Ali Gohar Khan Mahar,Pakistan,SOUTH ASIA,220940000.0
2460,800289343.0,Stub,Muhammad Ayaz Soomro,Pakistan,SOUTH ASIA,220940000.0
2461,800289348.0,Start,Ghos Bakhsh Khan Mahar,Pakistan,SOUTH ASIA,220940000.0
2462,800289359.0,Stub,Nazeer Ahmed Baghio,Pakistan,SOUTH ASIA,220940000.0
2463,800289371.0,Stub,Mir Aamir Ali Khan Magsi,Pakistan,SOUTH ASIA,220940000.0
2464,800289396.0,Start,Aijaz Hussain Jakhrani,Pakistan,SOUTH ASIA,220940000.0
2465,800289403.0,Stub,Mir Shabbir Ali,Pakistan,SOUTH ASIA,220940000.0
2466,800289408.0,Stub,Ehsan ur Rehman Mazari,Pakistan,SOUTH ASIA,220940000.0
2467,800289546.0,Start,Azra Fazal Pechuho,Pakistan,SOUTH ASIA,220940000.0
2468,800289562.0,Start,Syed Gulam Mustafa Shah,Pakistan,SOUTH ASIA,220940000.0
2469,800289583.0,Stub,Nawab Ali Wassan,Pakistan,SOUTH ASIA,220940000.0
2470,800289607.0,Stub,Syed Kazim Ali,Pakistan,SOUTH ASIA,220940000.0
2471,800289616.0,Stub,Makhdoom Saeeduz Zaman,Pakistan,SOUTH ASIA,220940000.0
2472,800289633.0,Stub,Khalid Maqbool Siddiqui,Pakistan,SOUTH ASIA,220940000.0
2473,800289682.0,Stub,Syed Waseem Hussain,Pakistan,SOUTH ASIA,220940000.0
2474,800289784.0,Start,Syed Amir Ali Shah Jamote,Pakistan,SOUTH ASIA,220940000.0
2475,800289791.0,Stub,Haji Abdul Sattar,Pakistan,SOUTH ASIA,220940000.0
2476,800289820.0,Stub,Sardar Kamal Khan,Pakistan,SOUTH ASIA,220940000.0
2477,800289840.0,C,Fahmida Mirza,Pakistan,SOUTH ASIA,220940000.0
2478,800289841.0,Stub,Hussain Shah Jilani,Pakistan,SOUTH ASIA,220940000.0
2479,800289865.0,Stub,Mir Munawar Ali,Pakistan,SOUTH ASIA,220940000.0
2480,800289871.0,Stub,Nawab Muhammad Yousuf,Pakistan,SOUTH ASIA,220940000.0
2481,800289887.0,Stub,Fakeer Sher Muhammad Bilalani,Pakistan,SOUTH ASIA,220940000.0
2482,800289896.0,Stub,Pir Noor Muhammad Shah Jeelani,Pakistan,SOUTH ASIA,220940000.0
2483,800289999.0,Stub,Asad Sikandar,Pakistan,SOUTH ASIA,220940000.0
2484,800290021.0,Stub,Imran Zafar,Pakistan,SOUTH ASIA,220940000.0
2485,800290032.0,Stub,Pir Baksh Junejo,Pakistan,SOUTH ASIA,220940000.0
2486,800290049.0,Start,Shazia Marri,Pakistan,SOUTH ASIA,220940000.0
2487,800290054.0,Stub,Roshan Din Junejo,Pakistan,SOUTH ASIA,220940000.0
2488,800290113.0,Stub,Salman Khan Baloch,Pakistan,SOUTH ASIA,220940000.0
2489,800290128.0,Stub,Khuwaja Sohail Mansoor,Pakistan,SOUTH ASIA,220940000.0
2490,800290241.0,Stub,Iqbal Qadri,Pakistan,SOUTH ASIA,220940000.0
2491,800290247.0,Stub,Mahboob Alam (politician),Pakistan,SOUTH ASIA,220940000.0
2492,800290254.0,Start,Abdul Waseem,Pakistan,SOUTH ASIA,220940000.0
2493,800290271.0,Stub,Sheikh Salahuddin (politician),Pakistan,SOUTH ASIA,220940000.0
2494,800290286.0,Stub,Muhammad Kamal Malik,Pakistan,SOUTH ASIA,220940000.0
2495,800290299.0,Stub,Kunwar Naveed Jamil,Pakistan,SOUTH ASIA,220940000.0
2496,800290306.0,Stub,Sufiyan Yousuf,Pakistan,SOUTH ASIA,220940000.0
2497,800290330.0,Stub,Shah Jahan Baloch,Pakistan,SOUTH ASIA,220940000.0
2498,800290520.0,Start,Syed Asif Husnain,Pakistan,SOUTH ASIA,220940000.0
2499,800290645.0,Stub,Muhammad Muzammil Qureshi,Pakistan,SOUTH ASIA,220940000.0
2500,800290678.0,Start,Iqbal Muhammad Ali Khan,Pakistan,SOUTH ASIA,220940000.0
2501,800290692.0,Stub,Muhammad Ali Rashid,Pakistan,SOUTH ASIA,220940000.0
2502,800290706.0,Stub,Syed Ali Raza Abidi,Pakistan,SOUTH ASIA,220940000.0
2503,800290720.0,Stub,Sajid Ahmed,Pakistan,SOUTH ASIA,220940000.0
2504,800290749.0,C,Mahmood Khan Achakzai,Pakistan,SOUTH ASIA,220940000.0
2505,800290927.0,Start,Moulvi Agha Muhammad,Pakistan,SOUTH ASIA,220940000.0
2506,800290940.0,Stub,Abdul Qahar Khan Wadan,Pakistan,SOUTH ASIA,220940000.0
2507,800290998.0,Stub,Khalid Hussain Magsi,Pakistan,SOUTH ASIA,220940000.0
2508,800291006.0,Stub,Sardar Kamal Khan Bangulzai,Pakistan,SOUTH ASIA,220940000.0
2509,800291018.0,Stub,Molana Qamar ud Din,Pakistan,SOUTH ASIA,220940000.0
2510,800291048.0,Start,Jam Kamal Khan,Pakistan,SOUTH ASIA,220940000.0
2511,800291060.0,Stub,Syed Essa Noori,Pakistan,SOUTH ASIA,220940000.0
2512,800296479.0,Start,Mohammad Aslam Khan (politician),Pakistan,SOUTH ASIA,220940000.0
2513,800453323.0,Stub,Mussarat Ahmed Zeb,Pakistan,SOUTH ASIA,220940000.0
2514,800455849.0,Start,Nafisa Shah,Pakistan,SOUTH ASIA,220940000.0
2515,800456179.0,Stub,Bhawan Das,Pakistan,SOUTH ASIA,220940000.0
2516,800456189.0,Stub,Isphanyar M. Bhandara,Pakistan,SOUTH ASIA,220940000.0
2517,800456214.0,Stub,Ramesh Kumar Vankwani,Pakistan,SOUTH ASIA,220940000.0
2518,800456218.0,Stub,Tariq Christopher Qaiser,Pakistan,SOUTH ASIA,220940000.0
2519,800456228.0,Stub,Khalil Francis,Pakistan,SOUTH ASIA,220940000.0
2520,800456243.0,Stub,Ramesh Lal,Pakistan,SOUTH ASIA,220940000.0
2521,800456249.0,Stub,Lal Chand,Pakistan,SOUTH ASIA,220940000.0
2522,800456260.0,Stub,Sanjay Perwani,Pakistan,SOUTH ASIA,220940000.0
2523,800456433.0,Stub,Raja Aamer Zaman,Pakistan,SOUTH ASIA,220940000.0
2524,800456480.0,Start,Malik Iqbal Mehdi Khan,Pakistan,SOUTH ASIA,220940000.0
2525,800456515.0,Stub,Muhammad Ijaz Ahmed Chaudhary,Pakistan,SOUTH ASIA,220940000.0
2526,800456590.0,Start,Rai Mansab Ali Khan,Pakistan,SOUTH ASIA,220940000.0
2527,800456605.0,Stub,Muhammad Arif Chaudhry,Pakistan,SOUTH ASIA,220940000.0
2528,800456637.0,Stub,Syed Ashiq Hussain Bukhari,Pakistan,SOUTH ASIA,220940000.0
2529,800456665.0,Stub,Siddique Khan Baloch,Pakistan,SOUTH ASIA,220940000.0
2530,800456675.0,Stub,Rai Hassan Nawaz,Pakistan,SOUTH ASIA,220940000.0
2531,800456747.0,Stub,Muhammad Ibrahim Jatoi,Pakistan,SOUTH ASIA,220940000.0
2532,800456750.0,Stub,Zulfiqar Ali Behan,Pakistan,SOUTH ASIA,220940000.0
2533,800456765.0,Stub,Sadiq Ali Memon,Pakistan,SOUTH ASIA,220940000.0
2534,800456781.0,Stub,Muhammad Rehan Hashmi,Pakistan,SOUTH ASIA,220940000.0
2535,800456828.0,Start,Abdul Rahim Khan Mandokhel,Pakistan,SOUTH ASIA,220940000.0
2536,800562096.0,Stub,Imran Khattak,Pakistan,SOUTH ASIA,220940000.0
2537,800569621.0,Start,Mujahid Ali,Pakistan,SOUTH ASIA,220940000.0
2538,800570820.0,Start,Khawaja Izharul Hassan,Pakistan,SOUTH ASIA,220940000.0
2539,800624562.0,C,Shahbaz Bhatti,Pakistan,SOUTH ASIA,220940000.0
2540,800736185.0,Stub,Syed Abuzar Bukhari,Pakistan,SOUTH ASIA,220940000.0
2541,800736220.0,Stub,Syed Anayat Ali Shah,Pakistan,SOUTH ASIA,220940000.0
2542,800770094.0,Stub,Sultan Mehmood Chaudhry,Pakistan,SOUTH ASIA,220940000.0
2543,800773978.0,Start,Salim Rehman,Pakistan,SOUTH ASIA,220940000.0
2544,800774519.0,Stub,Sher Akbar Khan,Pakistan,SOUTH ASIA,220940000.0
2545,800818948.0,C,Ghulam Muhammad Khan Bhurgri,Pakistan,SOUTH ASIA,220940000.0
2546,800876407.0,Start,Gul Hameed Khan Rokhri,Pakistan,SOUTH ASIA,220940000.0
2547,800876627.0,Stub,Ghazi Ghulab Jamal,Pakistan,SOUTH ASIA,220940000.0
2548,800877897.0,Start,Shahab Uddin Khan,Pakistan,SOUTH ASIA,220940000.0
2549,800878232.0,Stub,Alhaj Shah Jee Gul Afridi,Pakistan,SOUTH ASIA,220940000.0
2550,800878551.0,Stub,Nasir Khan Afridi,Pakistan,SOUTH ASIA,220940000.0
2551,800908672.0,Start,Chaudhry Khaliquzzaman,Pakistan,SOUTH ASIA,220940000.0
2552,800917339.0,C,Babar Awan,Pakistan,SOUTH ASIA,220940000.0
2553,800947032.0,Start,Asim Hussain,Pakistan,SOUTH ASIA,220940000.0
2554,801061957.0,Start,Abid Sher Ali,Pakistan,SOUTH ASIA,220940000.0
2555,801165999.0,Stub,Lady Abdullah Haroon,Pakistan,SOUTH ASIA,220940000.0
2556,801213228.0,Stub,Abdul Wahid Soomro,Pakistan,SOUTH ASIA,220940000.0
2557,801221172.0,Stub,Kiran Haider,Pakistan,SOUTH ASIA,220940000.0
2558,801221184.0,Stub,Naseema Hafeez Panezai,Pakistan,SOUTH ASIA,220940000.0
2559,801221204.0,Stub,Nafeesa Inayatullah Khan Khattak,Pakistan,SOUTH ASIA,220940000.0
2560,801221216.0,Stub,Sajida Begum,Pakistan,SOUTH ASIA,220940000.0
2561,801221235.0,Stub,Begum Tahira Bukhari,Pakistan,SOUTH ASIA,220940000.0
2562,801221291.0,Stub,Aisha Syed (politician),Pakistan,SOUTH ASIA,220940000.0
2563,801221306.0,Stub,Zaib Jaffar,Pakistan,SOUTH ASIA,220940000.0
2564,801221317.0,Stub,Parveen Masood Bhatti,Pakistan,SOUTH ASIA,220940000.0
2565,801221323.0,Stub,Kiran Imran Dar,Pakistan,SOUTH ASIA,220940000.0
2566,801221328.0,Stub,Shaista Pervaiz,Pakistan,SOUTH ASIA,220940000.0
2567,801221336.0,Stub,Nighat Parveen,Pakistan,SOUTH ASIA,220940000.0
2568,801221342.0,Stub,Begum Majeeda Wyne,Pakistan,SOUTH ASIA,220940000.0
2569,801221348.0,Stub,Khalida Mansoor,Pakistan,SOUTH ASIA,220940000.0
2570,801221355.0,Stub,Asyia Naz Tanoli,Pakistan,SOUTH ASIA,220940000.0
2571,801221367.0,Stub,Rida Khan,Pakistan,SOUTH ASIA,220940000.0
2572,801221428.0,Stub,Seema Mohiuddin Jameeli,Pakistan,SOUTH ASIA,220940000.0
2573,801221441.0,Stub,Shahnaz Saleem Malik,Pakistan,SOUTH ASIA,220940000.0
2574,801221451.0,Stub,Leila Khan,Pakistan,SOUTH ASIA,220940000.0
2575,801221463.0,Stub,Surriya Asghar,Pakistan,SOUTH ASIA,220940000.0
2576,801221466.0,Stub,Shahzadi Umerzadi Tiwana,Pakistan,SOUTH ASIA,220940000.0
2577,801221472.0,Stub,Maiza Hameed,Pakistan,SOUTH ASIA,220940000.0
2578,801221481.0,Stub,Farhana Qamar,Pakistan,SOUTH ASIA,220940000.0
2579,801221488.0,Stub,Shaheen Shafiq,Pakistan,SOUTH ASIA,220940000.0
2580,801221495.0,Stub,Iffat Liaqat,Pakistan,SOUTH ASIA,220940000.0
2581,801221497.0,Stub,Abdul Ghani Talpur,Pakistan,SOUTH ASIA,220940000.0
2582,801221513.0,Stub,Romina Khurshid Alam,Pakistan,SOUTH ASIA,220940000.0
2583,801221520.0,Stub,Zuhra Wadood Fatmi,Pakistan,SOUTH ASIA,220940000.0
2584,801221526.0,Stub,Asma Mamdot,Pakistan,SOUTH ASIA,220940000.0
2585,801221591.0,Stub,Sabiha Nazir,Pakistan,SOUTH ASIA,220940000.0
2586,801221593.0,Stub,Ammara Khan,Pakistan,SOUTH ASIA,220940000.0
2587,801221600.0,Stub,Phyllis Azeem,Pakistan,SOUTH ASIA,220940000.0
2588,801221606.0,Stub,Shaza Fatima Khawaja,Pakistan,SOUTH ASIA,220940000.0
2589,801221628.0,Stub,Shakila Luqman,Pakistan,SOUTH ASIA,220940000.0
2590,801221647.0,Stub,Munaza Hassan,Pakistan,SOUTH ASIA,220940000.0
2591,801221658.0,Stub,Belum Hasnain,Pakistan,SOUTH ASIA,220940000.0
2592,801221663.0,Stub,Suraiya Jatoi,Pakistan,SOUTH ASIA,220940000.0
2593,801221670.0,Stub,Shagufta Jumani,Pakistan,SOUTH ASIA,220940000.0
2594,801221678.0,Stub,Mahreen Razaque Bhutto,Pakistan,SOUTH ASIA,220940000.0
2595,801221688.0,Stub,Shazia Sobia,Pakistan,SOUTH ASIA,220940000.0
2596,801221695.0,Stub,Shahida Rehmani,Pakistan,SOUTH ASIA,220940000.0
2597,801221699.0,Stub,Musarat Rafique Mahesar,Pakistan,SOUTH ASIA,220940000.0
2598,801221740.0,Stub,Kishwer Zehra,Pakistan,SOUTH ASIA,220940000.0
2599,801221746.0,Stub,Fouzia Hameed,Pakistan,SOUTH ASIA,220940000.0
2600,801221752.0,Stub,Saman Sultana Jaffri,Pakistan,SOUTH ASIA,220940000.0
2601,801221762.0,Stub,Nikhat Shakeel Khan,Pakistan,SOUTH ASIA,220940000.0
2602,801221770.0,Stub,Reeta Ishwar,Pakistan,SOUTH ASIA,220940000.0
2603,801221776.0,Stub,Shahjehan (politician),Pakistan,SOUTH ASIA,220940000.0
2604,801221880.0,Stub,Abdul Haq (politician),Pakistan,SOUTH ASIA,220940000.0
2605,801221920.0,Stub,Shamasunnisa,Pakistan,SOUTH ASIA,220940000.0
2606,801221926.0,Stub,Shazia Mubashar,Pakistan,SOUTH ASIA,220940000.0
2607,801221938.0,Stub,Shizra Mansab Ali Khan,Pakistan,SOUTH ASIA,220940000.0
2608,801221957.0,Stub,Abdul Kadir Gillani,Pakistan,SOUTH ASIA,220940000.0
2609,801222097.0,Stub,Zil-e-Huma (politician),Pakistan,SOUTH ASIA,220940000.0
2610,801222179.0,Stub,Alizeh Iqbal Haider,Pakistan,SOUTH ASIA,220940000.0
2611,801222187.0,Start,Tahira Asif,Pakistan,SOUTH ASIA,220940000.0
2612,801222249.0,Stub,Abdul Maalik Wazir,Pakistan,SOUTH ASIA,220940000.0
2613,801222781.0,Stub,Abdul Qayyum Khan Jatoi,Pakistan,SOUTH ASIA,220940000.0
2614,801240166.0,Start,Atiqa Odho,Pakistan,SOUTH ASIA,220940000.0
2615,801249366.0,Start,Malik Ibrar Ahmed,Pakistan,SOUTH ASIA,220940000.0
2616,801250314.0,Stub,Malik Ihtebar Khan,Pakistan,SOUTH ASIA,220940000.0
2617,801251127.0,Stub,Muhammad Zain Elahi,Pakistan,SOUTH ASIA,220940000.0
2618,801253412.0,Stub,Nawabzada Raja Matloob Mehdi,Pakistan,SOUTH ASIA,220940000.0
2619,801257158.0,Start,Chaudhry Hamid Hameed,Pakistan,SOUTH ASIA,220940000.0
2620,801268728.0,Stub,Balach Marri,Pakistan,SOUTH ASIA,220940000.0
2621,801321773.0,B,Yousaf Raza Gillani,Pakistan,SOUTH ASIA,220940000.0
2622,801341415.0,C,Zulfiqar Shah,Pakistan,SOUTH ASIA,220940000.0
2623,801361328.0,Start,Tehmina Daultana,Pakistan,SOUTH ASIA,220940000.0
2624,801373429.0,Stub,Amar Lal,Pakistan,SOUTH ASIA,220940000.0
2625,801436145.0,Stub,Aftab Hussain Shah Jillani,Pakistan,SOUTH ASIA,220940000.0
2626,801451582.0,Stub,Chaudhry Abdul Rahim,Pakistan,SOUTH ASIA,220940000.0
2627,801534131.0,Stub,Bahadur Ahmed Khan Sihar,Pakistan,SOUTH ASIA,220940000.0
2628,801534162.0,Start,Ch. Nazar Muhammad Gondal,Pakistan,SOUTH ASIA,220940000.0
2629,801534261.0,Stub,Ghous Bakhsh Raisani,Pakistan,SOUTH ASIA,220940000.0
2630,801534301.0,Stub,Imran Ahmed Shah,Pakistan,SOUTH ASIA,220940000.0
2631,801534493.0,Stub,Omar Ayub Khan,Pakistan,SOUTH ASIA,220940000.0
2632,801536592.0,Stub,Sheraz Mahmood,Pakistan,SOUTH ASIA,220940000.0
2633,801536639.0,Stub,Sohail Mansoor,Pakistan,SOUTH ASIA,220940000.0
2634,801536719.0,Stub,Syed Sardar Ali Shah,Pakistan,SOUTH ASIA,220940000.0
2635,801558097.0,Start,My Brother (book),Pakistan,SOUTH ASIA,220940000.0
2636,801600059.0,Stub,Akhonzada Chitan,Pakistan,SOUTH ASIA,220940000.0
2637,801613996.0,Stub,Akram Masih Gill,Pakistan,SOUTH ASIA,220940000.0
2638,801676514.0,Start,Israr Ullah Zehri,Pakistan,SOUTH ASIA,220940000.0
2639,801712559.0,Start,Ghinwa Bhutto,Pakistan,SOUTH ASIA,220940000.0
2640,801840064.0,Start,Ahmad Raza Khan Kasuri,Pakistan,SOUTH ASIA,220940000.0
2641,801935104.0,Stub,Mian Aminuddin,Pakistan,SOUTH ASIA,220940000.0
2642,801959448.0,Stub,Babu Muhammad Rafique,Pakistan,SOUTH ASIA,220940000.0
2643,801995309.0,Stub,Ghazan Marri,Pakistan,SOUTH ASIA,220940000.0
2644,802002869.0,Stub,Sardar Mir Badshah Qaisrani,Pakistan,SOUTH ASIA,220940000.0
2645,802069478.0,Stub,Sahibzada Muhammad Yaqoob,Pakistan,SOUTH ASIA,220940000.0
2646,802070278.0,C,Nusrat Bhutto,Pakistan,SOUTH ASIA,220940000.0
2647,802143381.0,Start,Abdul Jabbar Khan,Pakistan,SOUTH ASIA,220940000.0
2648,802156732.0,Stub,Humayun Saifullah Khan,Pakistan,SOUTH ASIA,220940000.0
2649,802188230.0,Stub,Ghulam Murtaza Satti,Pakistan,SOUTH ASIA,220940000.0
2650,802190412.0,Stub,Syed Imran Ahmed,Pakistan,SOUTH ASIA,220940000.0
2651,802273347.0,B,Gul Khan Nasir,Pakistan,SOUTH ASIA,220940000.0
2652,802285213.0,Stub,Sultan Ali Chaudhry,Pakistan,SOUTH ASIA,220940000.0
2653,802311393.0,Stub,John Kenneth Williams,Pakistan,SOUTH ASIA,220940000.0
2654,802311595.0,Start,Kalsoom Perveen,Pakistan,SOUTH ASIA,220940000.0
2655,802311779.0,Stub,Muhammad Usman Khan Kakar,Pakistan,SOUTH ASIA,220940000.0
2656,802311832.0,Start,Mushahid Ullah Khan,Pakistan,SOUTH ASIA,220940000.0
2657,802311861.0,Start,Nehal Hashmi,Pakistan,SOUTH ASIA,220940000.0
2658,802311933.0,Stub,Rahila Magsi,Pakistan,SOUTH ASIA,220940000.0
2659,802312011.0,GA,Sherry Rehman,Pakistan,SOUTH ASIA,220940000.0
2660,802346710.0,Stub,Shahbaz Taseer,Pakistan,SOUTH ASIA,220940000.0
2661,802354609.0,Start,Agha Shorish Kashmiri,Pakistan,SOUTH ASIA,220940000.0
2662,802355238.0,Stub,Khawaja Salman Rafique,Pakistan,SOUTH ASIA,220940000.0
2663,802356099.0,Stub,Shazia Ashfaq Mattu,Pakistan,SOUTH ASIA,220940000.0
2664,802356863.0,Stub,Khawaja Muhammad Safdar,Pakistan,SOUTH ASIA,220940000.0
2665,802362679.0,Start,Qasim Zia,Pakistan,SOUTH ASIA,220940000.0
2666,802473585.0,Start,Agha Siraj Durrani,Pakistan,SOUTH ASIA,220940000.0
2667,802480664.0,Start,Abdul Rehman Khan Kanju,Pakistan,SOUTH ASIA,220940000.0
2668,802480838.0,Start,Muhammad Junaid Anwar Chaudhry,Pakistan,SOUTH ASIA,220940000.0
2669,802512882.0,Stub,Abdul Kadir Khanzada,Pakistan,SOUTH ASIA,220940000.0
2670,802543432.0,C,Andleeb Abbas,Pakistan,SOUTH ASIA,220940000.0
2671,802560404.0,GA,Hina Rabbani Khar,Pakistan,SOUTH ASIA,220940000.0
2672,802576869.0,C,Shireen Mazari,Pakistan,SOUTH ASIA,220940000.0
2673,802620569.0,Start,Dawar Khan Kundi,Pakistan,SOUTH ASIA,220940000.0
2674,802683316.0,Start,Ahmed Mian Soomro,Pakistan,SOUTH ASIA,220940000.0
2675,802692936.0,Stub,Fakhar Imam,Pakistan,SOUTH ASIA,220940000.0
2676,802760039.0,Stub,Sardar Ashiq Hussain,Pakistan,SOUTH ASIA,220940000.0
2677,802760954.0,Stub,Farah Aqil,Pakistan,SOUTH ASIA,220940000.0
2678,802774276.0,Stub,Zaeem Qadri,Pakistan,SOUTH ASIA,220940000.0
2679,802778331.0,Start,Hyder Bux Jatoi,Pakistan,SOUTH ASIA,220940000.0
2680,802795254.0,C,Farzana Raja,Pakistan,SOUTH ASIA,220940000.0
2681,802800084.0,Stub,Jinnah of Pakistan,Pakistan,SOUTH ASIA,220940000.0
2682,802809688.0,Start,Qadir Magsi,Pakistan,SOUTH ASIA,220940000.0
2683,802834867.0,Start,Anjum Aqeel Khan,Pakistan,SOUTH ASIA,220940000.0
2684,802861534.0,Stub,Murad Abro,Pakistan,SOUTH ASIA,220940000.0
2685,802873544.0,Stub,Fazal Dad Khan,Pakistan,SOUTH ASIA,220940000.0
2686,802980868.0,Stub,Lala Fazal-ur-Rehman,Pakistan,SOUTH ASIA,220940000.0
2687,803032665.0,Start,Mian Gul Akbar Zaib,Pakistan,SOUTH ASIA,220940000.0
2688,803072577.0,Start,Begum Mahmooda Salim Khan,Pakistan,SOUTH ASIA,220940000.0
2689,803083116.0,C,Amjad Bashir,Pakistan,SOUTH ASIA,220940000.0
2690,803126945.0,Stub,Arbab Zakaullah,Pakistan,SOUTH ASIA,220940000.0
2691,803130433.0,Stub,Arif Aziz Sheikh,Pakistan,SOUTH ASIA,220940000.0
2692,803130650.0,Stub,Arifa Khalid Pervaiz,Pakistan,SOUTH ASIA,220940000.0
2693,803132562.0,Start,Habibullah Bahar Chowdhury,Pakistan,SOUTH ASIA,220940000.0
2694,803136821.0,Stub,Mir Bahadur Khan Khoso,Pakistan,SOUTH ASIA,220940000.0
2695,803217606.0,Start,Firdous Ashiq Awan,Pakistan,SOUTH ASIA,220940000.0
2696,803226341.0,Stub,Hazar Khan Bijarani,Pakistan,SOUTH ASIA,220940000.0
2697,803248922.0,Start,Syed Raza Ali Gillani,Pakistan,SOUTH ASIA,220940000.0
2698,803306594.0,Stub,Asghar Ali Jutt,Pakistan,SOUTH ASIA,220940000.0
2699,803344928.0,Start,Nawab Changez Khan Marri,Pakistan,SOUTH ASIA,220940000.0
2700,803367024.0,Start,Aasia Ishaque,Pakistan,SOUTH ASIA,220940000.0
2701,803419611.0,C,Imran Farooq,Pakistan,SOUTH ASIA,220940000.0
2702,803435455.0,Start,Begum Kulsum Saifullah Khan,Pakistan,SOUTH ASIA,220940000.0
2703,803569441.0,C,Hina Jilani,Pakistan,SOUTH ASIA,220940000.0
2704,803570014.0,C,Mahmud Ali (statesman),Pakistan,SOUTH ASIA,220940000.0
2705,803599995.0,Stub,Khawaja Sheraz Mehmood,Pakistan,SOUTH ASIA,220940000.0
2706,803600005.0,Start,Syed Samsam Bukhari,Pakistan,SOUTH ASIA,220940000.0
2707,803600029.0,Start,Rana Asif Tauseef,Pakistan,SOUTH ASIA,220940000.0
2708,803614498.0,Stub,Sahibzada Farooq Ali,Pakistan,SOUTH ASIA,220940000.0
2709,803657909.0,Stub,Khaqan Abbasi,Pakistan,SOUTH ASIA,220940000.0
2710,803677249.0,Stub,Mukhtiar Ahmad Junejo,Pakistan,SOUTH ASIA,220940000.0
2711,803792208.0,Stub,Hafeez Ur Rehman,Pakistan,SOUTH ASIA,220940000.0
2712,803816250.0,Start,Sumaira Malik,Pakistan,SOUTH ASIA,220940000.0
2713,803823660.0,Stub,Nawabzada Lashkari Raisani,Pakistan,SOUTH ASIA,220940000.0
2714,803879940.0,Start,Faisal Subzwari,Pakistan,SOUTH ASIA,220940000.0
2715,803880819.0,GA,Asma Jahangir,Pakistan,SOUTH ASIA,220940000.0
2716,803895215.0,GA,Zafarullah Khan Jamali,Pakistan,SOUTH ASIA,220940000.0
2717,803896472.0,Stub,A.R. Jamali,Pakistan,SOUTH ASIA,220940000.0
2718,803914924.0,C,Wajihuddin Ahmed,Pakistan,SOUTH ASIA,220940000.0
2719,803939660.0,Start,Fatima Begum (politician),Pakistan,SOUTH ASIA,220940000.0
2720,804200928.0,Stub,Usman Badini,Pakistan,SOUTH ASIA,220940000.0
2721,804301755.0,C,Fatima Jinnah,Pakistan,SOUTH ASIA,220940000.0
2722,804404814.0,C,Tehmina Durrani,Pakistan,SOUTH ASIA,220940000.0
2723,804409397.0,Stub,Sohail Mahmood,Pakistan,SOUTH ASIA,220940000.0
2724,804424473.0,Stub,Tariq Azim Khan,Pakistan,SOUTH ASIA,220940000.0
2725,804431409.0,C,Salmaan Taseer,Pakistan,SOUTH ASIA,220940000.0
2726,804492380.0,Stub,Syed Muhammad Asghar Shah,Pakistan,SOUTH ASIA,220940000.0
2727,804517259.0,Start,Rana Afzaal Hussain,Pakistan,SOUTH ASIA,220940000.0
2728,804565270.0,C,Khurshid Anwar (Major),Pakistan,SOUTH ASIA,220940000.0
2729,804637438.0,Stub,Tahira Aurangzeb,Pakistan,SOUTH ASIA,220940000.0
2730,804664538.0,Stub,Marvi Mazhar,Pakistan,SOUTH ASIA,220940000.0
2731,804699410.0,Stub,Bilal Yasin,Pakistan,SOUTH ASIA,220940000.0
2732,804701063.0,Stub,Zafarullah Khan (lawyer),Pakistan,SOUTH ASIA,220940000.0
2733,804778423.0,C,Akbar Bugti,Pakistan,SOUTH ASIA,220940000.0
2734,804844369.0,C,Faryal Talpur,Pakistan,SOUTH ASIA,220940000.0
2735,804911060.0,Start,Khalid Anwer,Pakistan,SOUTH ASIA,220940000.0
2736,804923349.0,Stub,Habibullah Khan Tarin,Pakistan,SOUTH ASIA,220940000.0
2737,804974525.0,C,Mian Iftikharuddin,Pakistan,SOUTH ASIA,220940000.0
2738,804994336.0,Stub,Muhammad Jamil Malik,Pakistan,SOUTH ASIA,220940000.0
2739,805017978.0,Stub,Khadim Hussain Wattoo,Pakistan,SOUTH ASIA,220940000.0
2740,805117048.0,Start,Farooq Haider Khan,Pakistan,SOUTH ASIA,220940000.0
2741,805128937.0,Stub,Anwar Hayat Khan,Pakistan,SOUTH ASIA,220940000.0
2742,805146705.0,Start,Abdul Matin Khan,Pakistan,SOUTH ASIA,220940000.0
2743,805208900.0,Stub,Jan Ali Changezi,Pakistan,SOUTH ASIA,220940000.0
2744,805260821.0,Start,Rana Sanaullah Khan,Pakistan,SOUTH ASIA,220940000.0
2745,805263257.0,GA,Imran Khan,Pakistan,SOUTH ASIA,220940000.0
2746,805431799.0,GA,Maleeha Lodhi,Pakistan,SOUTH ASIA,220940000.0
2747,805451514.0,C,Murtaza Bhutto,Pakistan,SOUTH ASIA,220940000.0
2748,805453518.0,GA,Khan Muhammad Khan,Pakistan,SOUTH ASIA,220940000.0
2749,805460765.0,C,Jahan Zeb of Swat,Pakistan,SOUTH ASIA,220940000.0
2750,805474516.0,Start,Ghulam Muhammad Khan Mahar,Pakistan,SOUTH ASIA,220940000.0
2751,805493122.0,Stub,Istiqbal Khan,Pakistan,SOUTH ASIA,220940000.0
2752,805494376.0,C,Marriyum Aurangzeb,Pakistan,SOUTH ASIA,220940000.0
2753,805511480.0,C,Kulsoom Nawaz Sharif,Pakistan,SOUTH ASIA,220940000.0
2754,805574783.0,Start,Malik Khizar Hayat Tiwana,Pakistan,SOUTH ASIA,220940000.0
2755,805576347.0,Stub,Zil-e-Huma Usman,Pakistan,SOUTH ASIA,220940000.0
2756,805621756.0,C,Malik Mehr un Nisa Afridi,Pakistan,SOUTH ASIA,220940000.0
2757,805628232.0,Stub,Qari Muhammad Yousuf,Pakistan,SOUTH ASIA,220940000.0
2758,805628537.0,Stub,Muhammad Jamal ud Din,Pakistan,SOUTH ASIA,220940000.0
2759,805629447.0,Stub,Shahida Akhtar Ali,Pakistan,SOUTH ASIA,220940000.0
2760,805629686.0,Stub,Aliya Kamran,Pakistan,SOUTH ASIA,220940000.0
2761,805629728.0,Start,Aasiya Nasir,Pakistan,SOUTH ASIA,220940000.0
2762,805631648.0,Start,Muhammad Waqas Khan,Pakistan,SOUTH ASIA,220940000.0
2763,805673057.0,Stub,Zafar Iqbal Chaudhry,Pakistan,SOUTH ASIA,220940000.0
2764,805707765.0,C,Cabinet of Pakistan,Pakistan,SOUTH ASIA,220940000.0
2765,805731547.0,Stub,Jawad Hussain (politician),Pakistan,SOUTH ASIA,220940000.0
2766,805756456.0,Stub,Zil-e-Huma Usman Shaheed,Pakistan,SOUTH ASIA,220940000.0
2767,805792802.0,Start,Brahumdagh Bugti,Pakistan,SOUTH ASIA,220940000.0
2768,805921056.0,C,Gulalai Ismail,Pakistan,SOUTH ASIA,220940000.0
2769,805950363.0,Start,Chaudhary Muhammad Ali,Pakistan,SOUTH ASIA,220940000.0
2770,805975293.0,Start,Amir Abdullah Khan Rokhri,Pakistan,SOUTH ASIA,220940000.0
2771,806030100.0,C,Maryam Nawaz,Pakistan,SOUTH ASIA,220940000.0
2772,806045244.0,Start,Turkestan Bhittani,Pakistan,SOUTH ASIA,220940000.0
2773,806066938.0,GA,Anusha Rahman,Pakistan,SOUTH ASIA,220940000.0
2774,806066958.0,Stub,Abdul Ghafoor Chaudhry,Pakistan,SOUTH ASIA,220940000.0
2775,806093865.0,Stub,Chaudhry Muhammad Ashraf,Pakistan,SOUTH ASIA,220940000.0
2776,806093943.0,Stub,Chaudhry Saeed Iqbal,Pakistan,SOUTH ASIA,220940000.0
2777,806094051.0,Stub,Chaudhry Saud Majeed,Pakistan,SOUTH ASIA,220940000.0
2778,806094301.0,Stub,Chaudhry Zahid Iqbal,Pakistan,SOUTH ASIA,220940000.0
2779,806114697.0,Start,Attique Ahmed Khan,Pakistan,SOUTH ASIA,220940000.0
2780,806116337.0,Start,Soran Singh,Pakistan,SOUTH ASIA,220940000.0
2781,806177069.0,Start,Mubashir Lucman,Pakistan,SOUTH ASIA,220940000.0
2782,806181597.0,Stub,Rao Qaiser Ali Khan,Pakistan,SOUTH ASIA,220940000.0
2783,806182887.0,GA,Asif Ali Zardari,Pakistan,SOUTH ASIA,220940000.0
2784,806230250.0,Start,Ghulam Bibi Bharwana,Pakistan,SOUTH ASIA,220940000.0
2785,806263296.0,Start,General Rani,Pakistan,SOUTH ASIA,220940000.0
2786,806268841.0,B,Liaquat Ali Khan,Pakistan,SOUTH ASIA,220940000.0
2787,806280863.0,Start,Choudhry Bilal Ahmed,Pakistan,SOUTH ASIA,220940000.0
2788,806284814.0,Stub,Sardar Arif Shahid,Pakistan,SOUTH ASIA,220940000.0
2789,806369152.0,Start,Chaudhry Muhammad Afzal Sahi,Pakistan,SOUTH ASIA,220940000.0
2790,806384943.0,C,Salima Hashmi,Pakistan,SOUTH ASIA,220940000.0
2791,806432704.0,Stub,Mohammad Aslam Bhutani,Pakistan,SOUTH ASIA,220940000.0
2792,806490350.0,C,Shah Nawaz Bhutto,Pakistan,SOUTH ASIA,220940000.0
2793,806544789.0,Stub,Manzur Qadir,Pakistan,SOUTH ASIA,220940000.0
2794,806573280.0,Start,Chaudhry Abdul Majid,Pakistan,SOUTH ASIA,220940000.0
2795,806578725.0,GA,Raza Rabbani,Pakistan,SOUTH ASIA,220940000.0
2796,806645795.0,Stub,Naeema Kishwar Khan,Pakistan,SOUTH ASIA,220940000.0
2797,806647989.0,Stub,Sayab Khalid (politician),Pakistan,SOUTH ASIA,220940000.0
2798,806673360.0,Start,Liaqat Hayat Khan,Pakistan,SOUTH ASIA,220940000.0
2799,806695182.0,Stub,Tariq Mahmood Bajwa,Pakistan,SOUTH ASIA,220940000.0
2800,806695870.0,Start,Nuzhat Sadiq,Pakistan,SOUTH ASIA,220940000.0
2801,806696201.0,Stub,Ayesha Raza Farooq,Pakistan,SOUTH ASIA,220940000.0
2802,806758817.0,Start,Hamid Nasir Chattha,Pakistan,SOUTH ASIA,220940000.0
2803,806807934.0,C,Marvi Memon,Pakistan,SOUTH ASIA,220940000.0
2804,806811728.0,C,List of Pakistani politicians by net worth,Pakistan,SOUTH ASIA,220940000.0
2805,806823197.0,GA,Ra'ana Liaquat Ali Khan,Pakistan,SOUTH ASIA,220940000.0
2806,806859753.0,Stub,Asghar Ali Shah (politician),Pakistan,SOUTH ASIA,220940000.0
2807,806898824.0,C,Sajjad Zaheer,Pakistan,SOUTH ASIA,220940000.0
2808,806912989.0,Stub,Sheikh Liaquat Hussain,Pakistan,SOUTH ASIA,220940000.0
2809,806978501.0,Start,Khwaja Shahabuddin,Pakistan,SOUTH ASIA,220940000.0
2810,806994641.0,C,Tofazzal Hossain Manik Miah,Pakistan,SOUTH ASIA,220940000.0
2811,807012451.0,C,Ayesha Gulalai Wazir,Pakistan,SOUTH ASIA,220940000.0
2812,807051021.0,Stub,Muhammad Hanif Ansari,Pakistan,SOUTH ASIA,220940000.0
2813,807082434.0,Stub,Wajid Shamsul Hasan,Pakistan,SOUTH ASIA,220940000.0
2814,807158456.0,Stub,Malik Shakir Bashir Awan,Pakistan,SOUTH ASIA,220940000.0
2815,807177473.0,Stub,Muzafar Said,Pakistan,SOUTH ASIA,220940000.0
2816,807179687.0,Stub,Fazle Shakoor Khan,Pakistan,SOUTH ASIA,220940000.0
2817,807191989.0,Start,Nawabzada Nasrullah Khan,Pakistan,SOUTH ASIA,220940000.0
2818,807195925.0,Start,Cabinet of Khyber Pakhtunkhwa,Pakistan,SOUTH ASIA,220940000.0
2819,807200448.0,Stub,Muhammad Mushtaq Khan (politician),Pakistan,SOUTH ASIA,220940000.0
2820,807232416.0,B,Benazir Bhutto,Pakistan,SOUTH ASIA,220940000.0
2821,807254259.0,Start,Pir Syed Muhammad Binyamin Rizvi,Pakistan,SOUTH ASIA,220940000.0
2822,807273057.0,Stub,Abdul Khaliq Hazara (politician),Pakistan,SOUTH ASIA,220940000.0
2823,807317529.0,Stub,Arbab Amir Ayub,Pakistan,SOUTH ASIA,220940000.0
2824,807321675.0,Start,Meher Taj Roghani,Pakistan,SOUTH ASIA,220940000.0
2825,807338077.0,Stub,Inayatullah Khan Gandapur,Pakistan,SOUTH ASIA,220940000.0
2826,807405539.0,Start,Hamza Ali Abbasi,Pakistan,SOUTH ASIA,220940000.0
2827,807425320.0,GA,Hafiz Muhammad Saeed,Pakistan,SOUTH ASIA,220940000.0
2828,807433544.0,Stub,Anwar Kamal Khan,Pakistan,SOUTH ASIA,220940000.0
2829,807463466.0,C,Sarfraz Nawaz,Pakistan,SOUTH ASIA,220940000.0
2830,807472163.0,Stub,Sharjeel Memon,Pakistan,SOUTH ASIA,220940000.0
2831,470173494.0,Start,Butler-Belmont family,United States,NORTHERN AMERICA,329878000.0
2832,502721672.0,C,Heard-Hawes family,United States,NORTHERN AMERICA,329878000.0
2833,550953646.0,Stub,Russell family (American political family),United States,NORTHERN AMERICA,329878000.0
2834,651856758.0,Stub,Read family of Delaware,United States,NORTHERN AMERICA,329878000.0
2835,667815878.0,Start,National Foundation for Women Legislators,United States,NORTHERN AMERICA,329878000.0
2836,685347694.0,Stub,Murray Hill Incorporated,United States,NORTHERN AMERICA,329878000.0
2837,699520934.0,Start,Wyllys–Haynes family,United States,NORTHERN AMERICA,329878000.0
2838,701437626.0,Stub,Samuel R. Spencer,United States,NORTHERN AMERICA,329878000.0
2839,703098503.0,Stub,Garrett D. Kinney,United States,NORTHERN AMERICA,329878000.0
2840,705886439.0,Start,Gregory Schulte,United States,NORTHERN AMERICA,329878000.0
2841,706317015.0,Stub,Playing Fox,United States,NORTHERN AMERICA,329878000.0
2842,706435364.0,Stub,Michael M. Davis,United States,NORTHERN AMERICA,329878000.0
2843,706605760.0,Stub,Andrew Wiggin (judge),United States,NORTHERN AMERICA,329878000.0
2844,707654266.0,Stub,Eugene Little Coyote,United States,NORTHERN AMERICA,329878000.0
2845,708366500.0,Start,Rodney family of Delaware,United States,NORTHERN AMERICA,329878000.0
2846,710803018.0,Stub,Sah-wich-ol-gadhw,United States,NORTHERN AMERICA,329878000.0
2847,712280275.0,Start,John Brown (biography),United States,NORTHERN AMERICA,329878000.0
2848,712528813.0,Stub,Henry Throop Stanton,United States,NORTHERN AMERICA,329878000.0
2849,712578434.0,C,South–Cockrell–Hargis family,United States,NORTHERN AMERICA,329878000.0
2850,712812632.0,Stub,Matheson family,United States,NORTHERN AMERICA,329878000.0
2851,713552630.0,Start,Beshekee,United States,NORTHERN AMERICA,329878000.0
2852,713934035.0,Stub,David Hardt,United States,NORTHERN AMERICA,329878000.0
2853,715485245.0,Stub,Raymond Pitcairn,United States,NORTHERN AMERICA,329878000.0
2854,718098566.0,Stub,Norman Myhra,United States,NORTHERN AMERICA,329878000.0
2855,718734451.0,Start,Frank M. Dixon,United States,NORTHERN AMERICA,329878000.0
2856,718858500.0,Stub,Tom Moody (politician),United States,NORTHERN AMERICA,329878000.0
2857,719133534.0,Start,Harrison E. Havens,United States,NORTHERN AMERICA,329878000.0
2858,719332094.0,Stub,Jarvis W. Pike,United States,NORTHERN AMERICA,329878000.0
2859,720107711.0,Stub,Monica Milne,United States,NORTHERN AMERICA,329878000.0
2860,720356154.0,Start,Kidder family,United States,NORTHERN AMERICA,329878000.0
2861,720356280.0,Stub,LaRue Parker,United States,NORTHERN AMERICA,329878000.0
2862,720356495.0,Stub,Lawrence O. Murray,United States,NORTHERN AMERICA,329878000.0
2863,720977067.0,Stub,Walk-in-the-Water,United States,NORTHERN AMERICA,329878000.0
2864,721369686.0,Stub,Richard Real Bird,United States,NORTHERN AMERICA,329878000.0
2865,721369751.0,Start,Clifford Birdinground,United States,NORTHERN AMERICA,329878000.0
2866,721369784.0,Start,Vincent Goes Ahead,United States,NORTHERN AMERICA,329878000.0
2867,721411696.0,Stub,Henry A. Smythe,United States,NORTHERN AMERICA,329878000.0
2868,721800605.0,Start,Marge Anderson,United States,NORTHERN AMERICA,329878000.0
2869,721838961.0,Stub,Robert T. Oestreicher,United States,NORTHERN AMERICA,329878000.0
2870,721970051.0,Stub,Melanie Benjamin (Ojibwe leader),United States,NORTHERN AMERICA,329878000.0
2871,722109064.0,Stub,Trenton Stokes,United States,NORTHERN AMERICA,329878000.0
2872,722562134.0,Stub,Philip Mastin,United States,NORTHERN AMERICA,329878000.0
2873,722771207.0,Start,Thomas Shannon (Ohio politician),United States,NORTHERN AMERICA,329878000.0
2874,722771593.0,Stub,William A. Lake,United States,NORTHERN AMERICA,329878000.0
2875,722989634.0,Stub,Paul D. McGowan,United States,NORTHERN AMERICA,329878000.0
2876,723572293.0,Stub,Landrieu family,United States,NORTHERN AMERICA,329878000.0
2877,723677112.0,Stub,Floyd F. Green,United States,NORTHERN AMERICA,329878000.0
2878,723696164.0,Stub,John Nelson Hinkle,United States,NORTHERN AMERICA,329878000.0
2879,723696504.0,Stub,Samuel Jackson Swartz,United States,NORTHERN AMERICA,329878000.0
2880,723705126.0,Stub,George Silas Peters,United States,NORTHERN AMERICA,329878000.0
2881,723705178.0,Stub,Gilbert G. Collins,United States,NORTHERN AMERICA,329878000.0
2882,723741317.0,Stub,Thomas Wood (mayor),United States,NORTHERN AMERICA,329878000.0
2883,723745241.0,Stub,John Guerrant Miller,United States,NORTHERN AMERICA,329878000.0
2884,723785326.0,Stub,William Long (mayor),United States,NORTHERN AMERICA,329878000.0
2885,723792502.0,Stub,James Robinson (Ohio),United States,NORTHERN AMERICA,329878000.0
2886,723799178.0,Stub,John Laughrey,United States,NORTHERN AMERICA,329878000.0
2887,723799187.0,Stub,Eli C. King,United States,NORTHERN AMERICA,329878000.0
2888,724547793.0,Stub,Keith Westmoreland,United States,NORTHERN AMERICA,329878000.0
2889,725077269.0,Stub,John Chester (Connecticut),United States,NORTHERN AMERICA,329878000.0
2890,726603154.0,Stub,Savanukah,United States,NORTHERN AMERICA,329878000.0
2891,726654858.0,Stub,Gerard Parker,United States,NORTHERN AMERICA,329878000.0
2892,726723718.0,Start,John Shaffer,United States,NORTHERN AMERICA,329878000.0
2893,728451018.0,Start,William T. Martin (mayor),United States,NORTHERN AMERICA,329878000.0
2894,728453557.0,Stub,Alexander Patton,United States,NORTHERN AMERICA,329878000.0
2895,728518410.0,Stub,George W. Meeker,United States,NORTHERN AMERICA,329878000.0
2896,728625614.0,Stub,John H. Heitmann,United States,NORTHERN AMERICA,329878000.0
2897,729068637.0,Stub,John Addison Thomas,United States,NORTHERN AMERICA,329878000.0
2898,731519296.0,Stub,William H. Stead,United States,NORTHERN AMERICA,329878000.0
2899,731660598.0,Stub,William B. Camp,United States,NORTHERN AMERICA,329878000.0
2900,733895312.0,Start,Henry A. Moehlenpah,United States,NORTHERN AMERICA,329878000.0
2901,734527671.0,Start,John Kostuck,United States,NORTHERN AMERICA,329878000.0
2902,734832431.0,Stub,John G. King (politician),United States,NORTHERN AMERICA,329878000.0
2903,736331711.0,Stub,Anton D. Strouf,United States,NORTHERN AMERICA,329878000.0
2904,737156973.0,Start,William Schneider (politician),United States,NORTHERN AMERICA,329878000.0
2905,737278861.0,Stub,Seymour-Conkling family,United States,NORTHERN AMERICA,329878000.0
2906,737914671.0,Start,Rick McIntyre,United States,NORTHERN AMERICA,329878000.0
2907,738199614.0,C,Howe family (United States politicians),United States,NORTHERN AMERICA,329878000.0
2908,738258270.0,Stub,Coit D. Blacker,United States,NORTHERN AMERICA,329878000.0
2909,738272520.0,Start,Walt Dziedzic,United States,NORTHERN AMERICA,329878000.0
2910,738297570.0,Start,Matthew Mechtel,United States,NORTHERN AMERICA,329878000.0
2911,738357014.0,Stub,George Nelson Lester,United States,NORTHERN AMERICA,329878000.0
2912,738357018.0,Stub,Hardy Strickland,United States,NORTHERN AMERICA,329878000.0
2913,738468592.0,Stub,Samuel Calley,United States,NORTHERN AMERICA,329878000.0
2914,738626667.0,Stub,Walter Foxcroft Hawkins,United States,NORTHERN AMERICA,329878000.0
2915,738628835.0,C,John Henry Whallen,United States,NORTHERN AMERICA,329878000.0
2916,739780229.0,Start,Office-holders of the United States,United States,NORTHERN AMERICA,329878000.0
2917,740435128.0,Stub,Henry William Worley,United States,NORTHERN AMERICA,329878000.0
2918,741834878.0,Stub,Matthew Box,United States,NORTHERN AMERICA,329878000.0
2919,742129851.0,C,Edward Kern (police officer),United States,NORTHERN AMERICA,329878000.0
2920,742470225.0,Stub,James John Thomas,United States,NORTHERN AMERICA,329878000.0
2921,743281119.0,Stub,Trembling Earth,United States,NORTHERN AMERICA,329878000.0
2922,743383299.0,Stub,Harry Woods (Illinois politician),United States,NORTHERN AMERICA,329878000.0
2923,743537215.0,C,Kent Kane Parrot,United States,NORTHERN AMERICA,329878000.0
2924,743537444.0,Start,Damien Marchesseault,United States,NORTHERN AMERICA,329878000.0
2925,743686472.0,Start,Nicole Murray-Ramirez,United States,NORTHERN AMERICA,329878000.0
2926,744097921.0,Start,Muhlenberg family,United States,NORTHERN AMERICA,329878000.0
2927,744365456.0,Start,James G. Field,United States,NORTHERN AMERICA,329878000.0
2928,744447497.0,Stub,James G. Bull,United States,NORTHERN AMERICA,329878000.0
2929,744558066.0,Stub,Margo Frasier,United States,NORTHERN AMERICA,329878000.0
2930,744696341.0,Stub,Whitehill–Wise family,United States,NORTHERN AMERICA,329878000.0
2931,745569762.0,Stub,John Bailhache,United States,NORTHERN AMERICA,329878000.0
2932,745789860.0,Start,Robert H. Jeffrey,United States,NORTHERN AMERICA,329878000.0
2933,745796315.0,Stub,Samuel Lewis (politician),United States,NORTHERN AMERICA,329878000.0
2934,746818554.0,Start,Barbour family,United States,NORTHERN AMERICA,329878000.0
2935,746922350.0,Stub,John H. Crockett,United States,NORTHERN AMERICA,329878000.0
2936,747271200.0,Stub,Walter Shelley,United States,NORTHERN AMERICA,329878000.0
2937,747317075.0,Start,Smoot–Rowlett family,United States,NORTHERN AMERICA,329878000.0
2938,747355227.0,Stub,John N. Hagan,United States,NORTHERN AMERICA,329878000.0
2939,747758944.0,GA,Thomas Rhea,United States,NORTHERN AMERICA,329878000.0
2940,747774517.0,Stub,"William H. Jeffreys, Jr.",United States,NORTHERN AMERICA,329878000.0
2941,747982481.0,Start,King political family,United States,NORTHERN AMERICA,329878000.0
2942,747982801.0,Start,Waterman family,United States,NORTHERN AMERICA,329878000.0
2943,748071357.0,Stub,Henry Loucks,United States,NORTHERN AMERICA,329878000.0
2944,748841745.0,Start,George Graham (soldier),United States,NORTHERN AMERICA,329878000.0
2945,748865498.0,Stub,William Arnold Carter,United States,NORTHERN AMERICA,329878000.0
2946,749469278.0,C,"Politics of Dayton, Ohio",United States,NORTHERN AMERICA,329878000.0
2947,750025676.0,Stub,John McDowell (Pennsylvania),United States,NORTHERN AMERICA,329878000.0
2948,750924529.0,C,Susan Bitter Smith,United States,NORTHERN AMERICA,329878000.0
2949,751022785.0,Stub,Kenyon E. Giese,United States,NORTHERN AMERICA,329878000.0
2950,751647695.0,C,Armistead Thomson Mason,United States,NORTHERN AMERICA,329878000.0
2951,752305258.0,Start,Albert Frink,United States,NORTHERN AMERICA,329878000.0
2952,752331337.0,Stub,Gentry Collins,United States,NORTHERN AMERICA,329878000.0
2953,752496450.0,Stub,Louis Cardis,United States,NORTHERN AMERICA,329878000.0
2954,753684222.0,Stub,Charley Lockhart,United States,NORTHERN AMERICA,329878000.0
2955,753811222.0,Stub,Thomas Johnson (Kansas politician),United States,NORTHERN AMERICA,329878000.0
2956,753827439.0,Start,Benjamin Long,United States,NORTHERN AMERICA,329878000.0
2957,754080467.0,Start,Rudy Lozano,United States,NORTHERN AMERICA,329878000.0
2958,754478142.0,Start,Robert P. Lamont,United States,NORTHERN AMERICA,329878000.0
2959,754478861.0,Start,Frank Harris Hitchcock,United States,NORTHERN AMERICA,329878000.0
2960,754865150.0,Start,Robert Murphy Mayo,United States,NORTHERN AMERICA,329878000.0
2961,755758078.0,Start,Lee–Hamblin family,United States,NORTHERN AMERICA,329878000.0
2962,755782930.0,Start,Henry Wharton Conway,United States,NORTHERN AMERICA,329878000.0
2963,755866300.0,Start,Phil Reitinger,United States,NORTHERN AMERICA,329878000.0
2964,756170846.0,Start,Eliseo Alcon,United States,NORTHERN AMERICA,329878000.0
2965,756392850.0,Stub,Robert Brown (Georgia politician),United States,NORTHERN AMERICA,329878000.0
2966,756788897.0,C,Christine Tartaglione,United States,NORTHERN AMERICA,329878000.0
2967,757065414.0,Start,Milo Bloom,United States,NORTHERN AMERICA,329878000.0
2968,757338650.0,Stub,Wretha Hanson,United States,NORTHERN AMERICA,329878000.0
2969,757645912.0,Start,"Russell G. Lloyd, Sr.",United States,NORTHERN AMERICA,329878000.0
2970,758192183.0,Start,Tom Maidhc O'Flaherty,United States,NORTHERN AMERICA,329878000.0
2971,758192992.0,Stub,Augustus Stoner Decker,United States,NORTHERN AMERICA,329878000.0
2972,758373224.0,Stub,John Kerr (US politician),United States,NORTHERN AMERICA,329878000.0
2973,759413795.0,Stub,William Arden Maury,United States,NORTHERN AMERICA,329878000.0
2974,759815715.0,Start,Mary Kim Titla,United States,NORTHERN AMERICA,329878000.0
2975,759978791.0,Stub,Barby Wells,United States,NORTHERN AMERICA,329878000.0
2976,760109296.0,Start,Sylvanus Lowry,United States,NORTHERN AMERICA,329878000.0
2977,760386151.0,Start,John Huyler,United States,NORTHERN AMERICA,329878000.0
2978,761126708.0,Start,Larry Clapp,United States,NORTHERN AMERICA,329878000.0
2979,761157551.0,Start,Abram Irvin McDowell,United States,NORTHERN AMERICA,329878000.0
2980,761332661.0,Stub,Warren Jenkins,United States,NORTHERN AMERICA,329878000.0
2981,761403440.0,Start,Claiborne-Dallas-Boggs family,United States,NORTHERN AMERICA,329878000.0
2982,761413282.0,Start,Middleton-Rutledge-Pinckney family,United States,NORTHERN AMERICA,329878000.0
2983,761415640.0,Stub,Scranton family,United States,NORTHERN AMERICA,329878000.0
2984,762042495.0,Stub,James C. Webb,United States,NORTHERN AMERICA,329878000.0
2985,762380926.0,Start,George A. Waggaman,United States,NORTHERN AMERICA,329878000.0
2986,762851362.0,Stub,Edward Winn,United States,NORTHERN AMERICA,329878000.0
2987,763016935.0,C,List of Latino Democrats,United States,NORTHERN AMERICA,329878000.0
2988,763071951.0,Stub,Doug Sosnik,United States,NORTHERN AMERICA,329878000.0
2989,763079820.0,Start,Rebecca Gernhardt Cox,United States,NORTHERN AMERICA,329878000.0
2990,763224977.0,Stub,William S. Derrick,United States,NORTHERN AMERICA,329878000.0
2991,763298140.0,Start,John A. Wilson (politician),United States,NORTHERN AMERICA,329878000.0
2992,763464659.0,Stub,Desson Thomson,United States,NORTHERN AMERICA,329878000.0
2993,763538400.0,Start,Peter Tarnoff,United States,NORTHERN AMERICA,329878000.0
2994,763798609.0,Stub,Anthony M. Frank,United States,NORTHERN AMERICA,329878000.0
2995,763883951.0,Start,Matthew A. Dunn,United States,NORTHERN AMERICA,329878000.0
2996,763903832.0,Stub,Kristie Canegallo,United States,NORTHERN AMERICA,329878000.0
2997,763964325.0,Start,Charles H. Voorhis,United States,NORTHERN AMERICA,329878000.0
2998,763966332.0,Stub,Charles Tyroler II,United States,NORTHERN AMERICA,329878000.0
2999,763970153.0,C,Chris Cole (politician),United States,NORTHERN AMERICA,329878000.0
3000,764107941.0,Start,Gerald A. Reynolds,United States,NORTHERN AMERICA,329878000.0
3001,764146217.0,Start,Edward Follansbee Noyes,United States,NORTHERN AMERICA,329878000.0
3002,764159230.0,Stub,Eugene Fubini,United States,NORTHERN AMERICA,329878000.0
3003,764308890.0,Start,Frelinghuysen family,United States,NORTHERN AMERICA,329878000.0
3004,764318631.0,C,George P. Lawrence,United States,NORTHERN AMERICA,329878000.0
3005,764505686.0,Stub,Jacob Haussling,United States,NORTHERN AMERICA,329878000.0
3006,764598614.0,Stub,Leonard Staisey,United States,NORTHERN AMERICA,329878000.0
3007,764770780.0,Start,Thomas K. Harris,United States,NORTHERN AMERICA,329878000.0
3008,764793602.0,Start,George Greer,United States,NORTHERN AMERICA,329878000.0
3009,764834687.0,C,Michael J. Matthews,United States,NORTHERN AMERICA,329878000.0
3010,764834692.0,Stub,Michael J. Ryan (Philadelphia politician),United States,NORTHERN AMERICA,329878000.0
3011,764836516.0,Start,Albert J. Pullen,United States,NORTHERN AMERICA,329878000.0
3012,765078510.0,Stub,Peter Salentine,United States,NORTHERN AMERICA,329878000.0
3013,765107720.0,Stub,Gregory Lorjuste,United States,NORTHERN AMERICA,329878000.0
3014,765121702.0,B,Frank L. Shaw,United States,NORTHERN AMERICA,329878000.0
3015,765217334.0,Stub,Stephen Higgins,United States,NORTHERN AMERICA,329878000.0
3016,765251396.0,Start,Bill Bryant (politician),United States,NORTHERN AMERICA,329878000.0
3017,765260317.0,Start,Thorn Lord,United States,NORTHERN AMERICA,329878000.0
3018,765501465.0,Stub,Robert Snyder (civil servant),United States,NORTHERN AMERICA,329878000.0
3019,765666056.0,Stub,Thomas Hill Moore,United States,NORTHERN AMERICA,329878000.0
3020,765757279.0,Start,George L. Rives,United States,NORTHERN AMERICA,329878000.0
3021,765795179.0,C,James William Marshall,United States,NORTHERN AMERICA,329878000.0
3022,766141386.0,Stub,Suzanne Pharr,United States,NORTHERN AMERICA,329878000.0
3023,766205249.0,Start,Colin R. McMillan,United States,NORTHERN AMERICA,329878000.0
3024,766275439.0,C,Jill Alper,United States,NORTHERN AMERICA,329878000.0
3025,766870659.0,Stub,Carnahan family,United States,NORTHERN AMERICA,329878000.0
3026,766921180.0,Stub,Ralph Justice,United States,NORTHERN AMERICA,329878000.0
3027,766930428.0,Start,Hale Johnson,United States,NORTHERN AMERICA,329878000.0
3028,767010739.0,Start,Ford family (Memphis),United States,NORTHERN AMERICA,329878000.0
3029,767099817.0,Start,Edwards–Lincoln–Porter family,United States,NORTHERN AMERICA,329878000.0
3030,767153908.0,Start,Clifford M. Hardin,United States,NORTHERN AMERICA,329878000.0
3031,767384237.0,Stub,Stephen Ostroff,United States,NORTHERN AMERICA,329878000.0
3032,767842868.0,Start,Women & Politics Institute,United States,NORTHERN AMERICA,329878000.0
3033,767999364.0,Start,Symington family (United States),United States,NORTHERN AMERICA,329878000.0
3034,768181435.0,Start,Justin Holland (politician),United States,NORTHERN AMERICA,329878000.0
3035,768192129.0,C,The Family (Arkansas politics),United States,NORTHERN AMERICA,329878000.0
3036,768203069.0,C,Weld family,United States,NORTHERN AMERICA,329878000.0
3037,768238652.0,Stub,Jennifer Arndt,United States,NORTHERN AMERICA,329878000.0
3038,768959494.0,Start,Thomas McKee Bayne,United States,NORTHERN AMERICA,329878000.0
3039,769460156.0,C,William Couch,United States,NORTHERN AMERICA,329878000.0
3040,769685746.0,Start,Lezlee Westine,United States,NORTHERN AMERICA,329878000.0
3041,769717451.0,Stub,Janet J. McCoy,United States,NORTHERN AMERICA,329878000.0
3042,769882854.0,C,Julia Lathrop,United States,NORTHERN AMERICA,329878000.0
3043,770169625.0,Stub,E. T. Klassen,United States,NORTHERN AMERICA,329878000.0
3044,770535786.0,Stub,Oscar Hernandez (politician),United States,NORTHERN AMERICA,329878000.0
3045,770818162.0,Start,Joseph L. White,United States,NORTHERN AMERICA,329878000.0
3046,770818410.0,C,John A. Treutlen,United States,NORTHERN AMERICA,329878000.0
3047,771190539.0,Start,List of Asian Pacific American Democrats,United States,NORTHERN AMERICA,329878000.0
3048,771208266.0,Start,Fendall family,United States,NORTHERN AMERICA,329878000.0
3049,771270676.0,Stub,Christopher Tompkins,United States,NORTHERN AMERICA,329878000.0
3050,771538072.0,Start,Ronnie Eldridge,United States,NORTHERN AMERICA,329878000.0
3051,771848421.0,Start,Gerald Washington,United States,NORTHERN AMERICA,329878000.0
3052,771976618.0,Start,John Milton Elliott,United States,NORTHERN AMERICA,329878000.0
3053,772068379.0,Start,Woodworth political family,United States,NORTHERN AMERICA,329878000.0
3054,772447886.0,Stub,Felt family,United States,NORTHERN AMERICA,329878000.0
3055,772656152.0,C,John W. Stephens,United States,NORTHERN AMERICA,329878000.0
3056,772683503.0,C,J. Edward Addicks,United States,NORTHERN AMERICA,329878000.0
3057,773508072.0,Start,Scott Simon (politician),United States,NORTHERN AMERICA,329878000.0
3058,773527170.0,Stub,Robert Mahoney,United States,NORTHERN AMERICA,329878000.0
3059,773709753.0,Start,Harry Minto,United States,NORTHERN AMERICA,329878000.0
3060,773780592.0,Stub,David Weintraub (official),United States,NORTHERN AMERICA,329878000.0
3061,773844532.0,Stub,Floyd Parker,United States,NORTHERN AMERICA,329878000.0
3062,773888711.0,Start,Tom Hoefling,United States,NORTHERN AMERICA,329878000.0
3063,773981645.0,Start,Howard Bayless,United States,NORTHERN AMERICA,329878000.0
3064,774389738.0,Start,La Follette family,United States,NORTHERN AMERICA,329878000.0
3065,774810780.0,Stub,Arthur W. Aleshire,United States,NORTHERN AMERICA,329878000.0
3066,775182017.0,Stub,Roland Kotani,United States,NORTHERN AMERICA,329878000.0
3067,775528400.0,Start,Edward Dexter Holbrook,United States,NORTHERN AMERICA,329878000.0
3068,775561860.0,Start,Robert Potter (U.S. politician),United States,NORTHERN AMERICA,329878000.0
3069,775607049.0,Start,James Blair (South Carolina),United States,NORTHERN AMERICA,329878000.0
3070,775611464.0,Start,Goelet family,United States,NORTHERN AMERICA,329878000.0
3071,775622366.0,Start,Thomas Haughey,United States,NORTHERN AMERICA,329878000.0
3072,775633638.0,Start,John M. Pinckney,United States,NORTHERN AMERICA,329878000.0
3073,775633737.0,Start,Robert Adams Jr.,United States,NORTHERN AMERICA,329878000.0
3074,775677313.0,Start,Samuel Austin Kendall,United States,NORTHERN AMERICA,329878000.0
3075,776320032.0,C,Lester R. Rice-Wray,United States,NORTHERN AMERICA,329878000.0
3076,776966683.0,Stub,Stevenson family,United States,NORTHERN AMERICA,329878000.0
3077,777011861.0,Start,John Fontaine,United States,NORTHERN AMERICA,329878000.0
3078,777094923.0,C,John Korsmo,United States,NORTHERN AMERICA,329878000.0
3079,777119810.0,C,Boyd Petersen,United States,NORTHERN AMERICA,329878000.0
3080,777572827.0,Start,Joshua Barton,United States,NORTHERN AMERICA,329878000.0
3081,777800598.0,Stub,Julius Katz,United States,NORTHERN AMERICA,329878000.0
3082,777885675.0,C,Ruth Bennett,United States,NORTHERN AMERICA,329878000.0
3083,777936571.0,Start,Saltonstall family,United States,NORTHERN AMERICA,329878000.0
3084,778091327.0,Start,Wiley Thompson,United States,NORTHERN AMERICA,329878000.0
3085,778457323.0,Start,Tommy Burks,United States,NORTHERN AMERICA,329878000.0
3086,778558541.0,Stub,Denis Law (politician),United States,NORTHERN AMERICA,329878000.0
3087,778605534.0,C,Ken Harris (politician),United States,NORTHERN AMERICA,329878000.0
3088,778760478.0,Stub,Craig Clemmensen,United States,NORTHERN AMERICA,329878000.0
3089,778766300.0,Stub,George Sidney Marshall,United States,NORTHERN AMERICA,329878000.0
3090,778914019.0,Stub,Philip H. Bruck,United States,NORTHERN AMERICA,329878000.0
3091,778929090.0,Stub,Smithson E. Wright,United States,NORTHERN AMERICA,329878000.0
3092,778931047.0,Start,Steve Callaway,United States,NORTHERN AMERICA,329878000.0
3093,778938063.0,Stub,Watson F. Hammond,United States,NORTHERN AMERICA,329878000.0
3094,778942983.0,Stub,Charles Coleman (politician),United States,NORTHERN AMERICA,329878000.0
3095,779075337.0,Stub,Edwin M. Wright,United States,NORTHERN AMERICA,329878000.0
3096,779363419.0,Start,Henry Clay Payne,United States,NORTHERN AMERICA,329878000.0
3097,779483460.0,C,Sho Dozono,United States,NORTHERN AMERICA,329878000.0
3098,779541971.0,Start,Gary Batton,United States,NORTHERN AMERICA,329878000.0
3099,779728335.0,Stub,Richard A. Flintrop,United States,NORTHERN AMERICA,329878000.0
3100,779728355.0,Stub,Gary Howell (Michigan politician),United States,NORTHERN AMERICA,329878000.0
3101,779761013.0,Stub,William D. Blanks,United States,NORTHERN AMERICA,329878000.0
3102,779770665.0,Start,H. Dunlop Dawbarn,United States,NORTHERN AMERICA,329878000.0
3103,779881050.0,Stub,Howell C. Featherston,United States,NORTHERN AMERICA,329878000.0
3104,780112259.0,B,Ralph Wilcox,United States,NORTHERN AMERICA,329878000.0
3105,780129399.0,Start,Kevin Lembo,United States,NORTHERN AMERICA,329878000.0
3106,780131016.0,Start,Longworth family,United States,NORTHERN AMERICA,329878000.0
3107,780162625.0,GA,Herbert Charles Sanborn,United States,NORTHERN AMERICA,329878000.0
3108,780245135.0,Start,Milton Rice Polland,United States,NORTHERN AMERICA,329878000.0
3109,780295965.0,Stub,Charlotte Hallmark,United States,NORTHERN AMERICA,329878000.0
3110,780449351.0,Stub,John Kivela,United States,NORTHERN AMERICA,329878000.0
3111,780723400.0,Start,Charles E. Potter,United States,NORTHERN AMERICA,329878000.0
3112,781114162.0,Start,Old Tassel,United States,NORTHERN AMERICA,329878000.0
3113,781163541.0,Start,William Oswald Mills,United States,NORTHERN AMERICA,329878000.0
3114,781166945.0,Start,Douglas Hemphill Elliott,United States,NORTHERN AMERICA,329878000.0
3115,781191973.0,Start,Driggs family,United States,NORTHERN AMERICA,329878000.0
3116,781222627.0,Start,John A. Elston,United States,NORTHERN AMERICA,329878000.0
3117,781366957.0,Start,Albert G. Schmedeman,United States,NORTHERN AMERICA,329878000.0
3118,781384498.0,Start,Karl Weidel,United States,NORTHERN AMERICA,329878000.0
3119,781884186.0,Start,Edward Longstreet Bodin,United States,NORTHERN AMERICA,329878000.0
3120,781933847.0,Stub,Charles C. P. Arndt,United States,NORTHERN AMERICA,329878000.0
3121,782491016.0,C,E. H. Crump,United States,NORTHERN AMERICA,329878000.0
3122,782499025.0,Stub,Ken Clark (politician),United States,NORTHERN AMERICA,329878000.0
3123,782584155.0,Start,Alexander P. Crittenden,United States,NORTHERN AMERICA,329878000.0
3124,782898594.0,Start,Pedro Agulto Tenorio,United States,NORTHERN AMERICA,329878000.0
3125,782924806.0,Start,Joan Jett Blakk,United States,NORTHERN AMERICA,329878000.0
3126,783072997.0,Start,Christopher Augustine Buckley,United States,NORTHERN AMERICA,329878000.0
3127,783165483.0,Start,Kristen Cox,United States,NORTHERN AMERICA,329878000.0
3128,783269147.0,C,Lupe Valdez,United States,NORTHERN AMERICA,329878000.0
3129,783280325.0,C,José Francisco Chaves,United States,NORTHERN AMERICA,329878000.0
3130,783419710.0,Start,Margaret D. Tutwiler,United States,NORTHERN AMERICA,329878000.0
3131,783439515.0,Start,Mari Maseng Will,United States,NORTHERN AMERICA,329878000.0
3132,783479486.0,Start,Deborah McFadden,United States,NORTHERN AMERICA,329878000.0
3133,783489667.0,Start,Torrey Westrom,United States,NORTHERN AMERICA,329878000.0
3134,783579413.0,Stub,Mark Dudzic,United States,NORTHERN AMERICA,329878000.0
3135,783612516.0,C,Mark Sanchez (politician),United States,NORTHERN AMERICA,329878000.0
3136,783821571.0,GA,Paul Babeu,United States,NORTHERN AMERICA,329878000.0
3137,784138992.0,Start,Tony Miller (California),United States,NORTHERN AMERICA,329878000.0
3138,784238885.0,Start,Barbara Boggs Sigmund,United States,NORTHERN AMERICA,329878000.0
3139,784341891.0,Stub,Edward C. Krause,United States,NORTHERN AMERICA,329878000.0
3140,784404386.0,C,Melissa Helmbrecht,United States,NORTHERN AMERICA,329878000.0
3141,784534150.0,Stub,Alfred R. Lea,United States,NORTHERN AMERICA,329878000.0
3142,784549737.0,Start,Felix Grundy McConnell,United States,NORTHERN AMERICA,329878000.0
3143,784552501.0,B,Davis political family,United States,NORTHERN AMERICA,329878000.0
3144,784689730.0,C,Fish family,United States,NORTHERN AMERICA,329878000.0
3145,784763652.0,GA,Jack Williams (American politician),United States,NORTHERN AMERICA,329878000.0
3146,785078831.0,Start,Mike Swoboda,United States,NORTHERN AMERICA,329878000.0
3147,785282540.0,Stub,Deirdre Griswold,United States,NORTHERN AMERICA,329878000.0
3148,785321223.0,Stub,Teresa Gutierrez,United States,NORTHERN AMERICA,329878000.0
3149,785450274.0,Stub,Reino A. Perala,United States,NORTHERN AMERICA,329878000.0
3150,785593317.0,Stub,Henry J. Tasca,United States,NORTHERN AMERICA,329878000.0
3151,785838448.0,Start,Thomas D. Schall,United States,NORTHERN AMERICA,329878000.0
3152,785884411.0,Stub,Michael V. Lee,United States,NORTHERN AMERICA,329878000.0
3153,785976706.0,B,John Morse (US politician),United States,NORTHERN AMERICA,329878000.0
3154,786014383.0,Start,Stephen Watt,United States,NORTHERN AMERICA,329878000.0
3155,786018917.0,Start,Van H. Wanggaard,United States,NORTHERN AMERICA,329878000.0
3156,786110207.0,C,Dan McConchie,United States,NORTHERN AMERICA,329878000.0
3157,786447819.0,Start,George McGovern in popular culture,United States,NORTHERN AMERICA,329878000.0
3158,786506579.0,Stub,David H. Locke,United States,NORTHERN AMERICA,329878000.0
3159,786507820.0,C,List of Latino Republicans,United States,NORTHERN AMERICA,329878000.0
3160,786507898.0,Stub,Frederic Jesup Stimson,United States,NORTHERN AMERICA,329878000.0
3161,786513823.0,Start,Frank N. Costa,United States,NORTHERN AMERICA,329878000.0
3162,786547471.0,C,J. Quinn Brisben,United States,NORTHERN AMERICA,329878000.0
3163,786972205.0,C,Ron Galperin,United States,NORTHERN AMERICA,329878000.0
3164,787008529.0,Start,List of American professional sports figures who held elective office,United States,NORTHERN AMERICA,329878000.0
3165,787014919.0,C,"Thomas ""Bud"" Brady",United States,NORTHERN AMERICA,329878000.0
3166,787194577.0,Start,Henry Cooper (U.S. Senator),United States,NORTHERN AMERICA,329878000.0
3167,787244101.0,Stub,Jacob L. Martin,United States,NORTHERN AMERICA,329878000.0
3168,787279291.0,Start,Andrew O'Brien (politician),United States,NORTHERN AMERICA,329878000.0
3169,787332100.0,Start,Juan Hernandez (political advisor),United States,NORTHERN AMERICA,329878000.0
3170,787352545.0,Start,Nancy Halliday Ely-Raphel,United States,NORTHERN AMERICA,329878000.0
3171,787366120.0,Stub,Richard M. Moose,United States,NORTHERN AMERICA,329878000.0
3172,787378692.0,Start,Thomas T. Riley,United States,NORTHERN AMERICA,329878000.0
3173,787496972.0,C,Albert Patterson,United States,NORTHERN AMERICA,329878000.0
3174,787551762.0,Start,Mary Previte,United States,NORTHERN AMERICA,329878000.0
3175,787834595.0,Stub,Jessica Upshaw,United States,NORTHERN AMERICA,329878000.0
3176,787864260.0,C,John P. Slough,United States,NORTHERN AMERICA,329878000.0
3177,788278977.0,Start,List of chairpersons of the College Republicans,United States,NORTHERN AMERICA,329878000.0
3178,788291574.0,Stub,Dean Watkins,United States,NORTHERN AMERICA,329878000.0
3179,788375638.0,Start,Tim Rieser,United States,NORTHERN AMERICA,329878000.0
3180,788378814.0,GA,Sam Kooiker,United States,NORTHERN AMERICA,329878000.0
3181,788439272.0,Start,Tommy Tanaka,United States,NORTHERN AMERICA,329878000.0
3182,788471046.0,B,Steuart family,United States,NORTHERN AMERICA,329878000.0
3183,788533743.0,C,Tom Pendergast,United States,NORTHERN AMERICA,329878000.0
3184,788635538.0,C,Almon W. Babbitt,United States,NORTHERN AMERICA,329878000.0
3185,788945328.0,B,Wentworth family,United States,NORTHERN AMERICA,329878000.0
3186,789196362.0,C,Angela Giron,United States,NORTHERN AMERICA,329878000.0
3187,789215364.0,C,Ernest Morrell,United States,NORTHERN AMERICA,329878000.0
3188,789379900.0,Start,Rick Romley,United States,NORTHERN AMERICA,329878000.0
3189,789394274.0,Stub,Patrick F. McDonough,United States,NORTHERN AMERICA,329878000.0
3190,789485309.0,GA,William Goebel,United States,NORTHERN AMERICA,329878000.0
3191,789712434.0,Stub,Joseph B. Keenan,United States,NORTHERN AMERICA,329878000.0
3192,789833501.0,Start,Woodrow Stanley,United States,NORTHERN AMERICA,329878000.0
3193,789907556.0,C,Frank B. Brandegee,United States,NORTHERN AMERICA,329878000.0
3194,789943338.0,C,Levi Tillemann,United States,NORTHERN AMERICA,329878000.0
3195,789966772.0,Stub,Steven Engel,United States,NORTHERN AMERICA,329878000.0
3196,790080674.0,GA,Pratt family,United States,NORTHERN AMERICA,329878000.0
3197,790113228.0,Stub,Rusty Kidd,United States,NORTHERN AMERICA,329878000.0
3198,790150115.0,Start,Brian Sullivan (district attorney),United States,NORTHERN AMERICA,329878000.0
3199,790272716.0,Start,Anna M. Rosenberg,United States,NORTHERN AMERICA,329878000.0
3200,790278527.0,Stub,John S.R. Shad,United States,NORTHERN AMERICA,329878000.0
3201,790358159.0,C,Josiah Henry Combs,United States,NORTHERN AMERICA,329878000.0
3202,790519006.0,Stub,Neal Foster,United States,NORTHERN AMERICA,329878000.0
3203,790519084.0,Start,Richard Foster (Alaska politician),United States,NORTHERN AMERICA,329878000.0
3204,790519785.0,Start,Albert Kookesh,United States,NORTHERN AMERICA,329878000.0
3205,790521491.0,Start,Benjamin Nageak,United States,NORTHERN AMERICA,329878000.0
3206,790521557.0,Start,Donny Olson,United States,NORTHERN AMERICA,329878000.0
3207,790522733.0,Start,Woodie Salmon,United States,NORTHERN AMERICA,329878000.0
3208,790523186.0,Stub,Dean Westlake,United States,NORTHERN AMERICA,329878000.0
3209,790535957.0,Start,George J. Karb,United States,NORTHERN AMERICA,329878000.0
3210,790555177.0,Stub,Joseph Wayne Mercer,United States,NORTHERN AMERICA,329878000.0
3211,790562453.0,Start,Elijah Gates,United States,NORTHERN AMERICA,329878000.0
3212,790568079.0,Start,Margarethe Cammermeyer,United States,NORTHERN AMERICA,329878000.0
3213,790580372.0,Start,Darci Vetter,United States,NORTHERN AMERICA,329878000.0
3214,790710255.0,Start,William H. Brawley,United States,NORTHERN AMERICA,329878000.0
3215,790747992.0,FA,Thomas C. Hindman,United States,NORTHERN AMERICA,329878000.0
3216,790748697.0,Start,William B. Slaughter,United States,NORTHERN AMERICA,329878000.0
3217,790752591.0,B,John Hicklin Hall,United States,NORTHERN AMERICA,329878000.0
3218,790854428.0,Stub,Audrey P. Beck,United States,NORTHERN AMERICA,329878000.0
3219,790929395.0,C,Beecher family,United States,NORTHERN AMERICA,329878000.0
3220,790975446.0,Start,Louis Carpenter (judge),United States,NORTHERN AMERICA,329878000.0
3221,791396847.0,Stub,Julien Gunn,United States,NORTHERN AMERICA,329878000.0
3222,791431553.0,Start,Bill Gwatney,United States,NORTHERN AMERICA,329878000.0
3223,791732995.0,C,A. A. Ames,United States,NORTHERN AMERICA,329878000.0
3224,791815119.0,Start,Bobby Carter,United States,NORTHERN AMERICA,329878000.0
3225,791962485.0,Start,John Sandy,United States,NORTHERN AMERICA,329878000.0
3226,792015412.0,B,List of Italian-American politicians by state,United States,NORTHERN AMERICA,329878000.0
3227,792120129.0,Start,Nancy Lord,United States,NORTHERN AMERICA,329878000.0
3228,792301200.0,C,Spencer Darwin Pettis,United States,NORTHERN AMERICA,329878000.0
3229,792504448.0,C,Mary Garrett Hay,United States,NORTHERN AMERICA,329878000.0
3230,792517818.0,C,Anita Lee Blair,United States,NORTHERN AMERICA,329878000.0
3231,792531046.0,C,Mike O'Callaghan,United States,NORTHERN AMERICA,329878000.0
3232,792620625.0,Stub,John Brooks (mayor),United States,NORTHERN AMERICA,329878000.0
3233,792667220.0,Stub,Delmas H. Nucker,United States,NORTHERN AMERICA,329878000.0
3234,792997376.0,FA,Harry E. Claiborne,United States,NORTHERN AMERICA,329878000.0
3235,793042940.0,GA,Cannon family,United States,NORTHERN AMERICA,329878000.0
3236,793092275.0,Stub,John F. Smulski,United States,NORTHERN AMERICA,329878000.0
3237,793186778.0,C,Carlos Álvarez (mayor),United States,NORTHERN AMERICA,329878000.0
3238,793264615.0,C,Price Daniel Jr.,United States,NORTHERN AMERICA,329878000.0
3239,793509733.0,Start,Charles Lucas (Missouri),United States,NORTHERN AMERICA,329878000.0
3240,793668525.0,Start,Bo Williams,United States,NORTHERN AMERICA,329878000.0
3241,793698226.0,C,Charles R. Brayton,United States,NORTHERN AMERICA,329878000.0
3242,793780837.0,Start,Edward Gilbert,United States,NORTHERN AMERICA,329878000.0
3243,793825081.0,Stub,Gerard Robinson,United States,NORTHERN AMERICA,329878000.0
3244,793909337.0,Stub,"Tom J. Bordonaro, Jr.",United States,NORTHERN AMERICA,329878000.0
3245,793913490.0,C,Robert McLane,United States,NORTHERN AMERICA,329878000.0
3246,793920567.0,Start,Nicholas Fish II,United States,NORTHERN AMERICA,329878000.0
3247,793920627.0,C,Nelson G. Gross,United States,NORTHERN AMERICA,329878000.0
3248,793973758.0,C,Roberto Arango,United States,NORTHERN AMERICA,329878000.0
3249,794081016.0,Stub,Emperor Brim,United States,NORTHERN AMERICA,329878000.0
3250,794287186.0,C,Benjamin Cruz,United States,NORTHERN AMERICA,329878000.0
3251,794389935.0,Start,Celebrezze family,United States,NORTHERN AMERICA,329878000.0
3252,794416814.0,Start,Larry Kenck,United States,NORTHERN AMERICA,329878000.0
3253,794456450.0,C,Marion Zioncheck,United States,NORTHERN AMERICA,329878000.0
3254,794470010.0,Start,Bob Shamansky,United States,NORTHERN AMERICA,329878000.0
3255,794563613.0,Start,Charles Jordan (government official),United States,NORTHERN AMERICA,329878000.0
3256,794580760.0,C,David C. Broderick,United States,NORTHERN AMERICA,329878000.0
3257,794581658.0,Start,Cuomo family,United States,NORTHERN AMERICA,329878000.0
3258,794584623.0,Start,Vincent A. Marchiselli,United States,NORTHERN AMERICA,329878000.0
3259,794586378.0,Start,Jeremiah Russell,United States,NORTHERN AMERICA,329878000.0
3260,794589646.0,C,Thomas C. Campbell,United States,NORTHERN AMERICA,329878000.0
3261,794592981.0,Start,Tanya Melich,United States,NORTHERN AMERICA,329878000.0
3262,794593033.0,Stub,Charles D. Millard,United States,NORTHERN AMERICA,329878000.0
3263,794593383.0,C,Bill Nojay,United States,NORTHERN AMERICA,329878000.0
3264,794594535.0,Start,Whitney North Seymour,United States,NORTHERN AMERICA,329878000.0
3265,794594822.0,Start,C. Tracey Stagg,United States,NORTHERN AMERICA,329878000.0
3266,794666842.0,Stub,Verne L. Reynolds,United States,NORTHERN AMERICA,329878000.0
3267,794666861.0,Start,Preston King (politician),United States,NORTHERN AMERICA,329878000.0
3268,794667250.0,Stub,Maura DeLuca,United States,NORTHERN AMERICA,329878000.0
3269,794667259.0,Start,Arrin Hawkins,United States,NORTHERN AMERICA,329878000.0
3270,794667296.0,Start,Matilde Zimmermann,United States,NORTHERN AMERICA,329878000.0
3271,794682497.0,Stub,Daley family,United States,NORTHERN AMERICA,329878000.0
3272,794682505.0,GA,Ludington family,United States,NORTHERN AMERICA,329878000.0
3273,794745000.0,Start,Alfred Kohlberg,United States,NORTHERN AMERICA,329878000.0
3274,794767172.0,C,James W. Holley III,United States,NORTHERN AMERICA,329878000.0
3275,794772692.0,Start,Ryan Butler,United States,NORTHERN AMERICA,329878000.0
3276,794811011.0,GA,Micah Kellner,United States,NORTHERN AMERICA,329878000.0
3277,794970822.0,B,Joseph C. Eversole,United States,NORTHERN AMERICA,329878000.0
3278,795141838.0,Start,Paul Morton,United States,NORTHERN AMERICA,329878000.0
3279,795143032.0,Start,Ben C. Henley,United States,NORTHERN AMERICA,329878000.0
3280,795407779.0,C,Rodney Alexander,United States,NORTHERN AMERICA,329878000.0
3281,795409751.0,C,Ralph Hall,United States,NORTHERN AMERICA,329878000.0
3282,795422257.0,Stub,Craig T. Smith,United States,NORTHERN AMERICA,329878000.0
3283,795508654.0,Start,Wallace Townsend,United States,NORTHERN AMERICA,329878000.0
3284,795537409.0,C,Harry M. Caudill,United States,NORTHERN AMERICA,329878000.0
3285,795548632.0,C,Floyd Spence,United States,NORTHERN AMERICA,329878000.0
3286,795555206.0,Start,Greg Laughlin,United States,NORTHERN AMERICA,329878000.0
3287,795574330.0,Stub,Philo H. Olmsted,United States,NORTHERN AMERICA,329878000.0
3288,795649853.0,Start,Bob C. Riley,United States,NORTHERN AMERICA,329878000.0
3289,795653748.0,Start,Curt Kalk,United States,NORTHERN AMERICA,329878000.0
3290,795701332.0,Start,George LeBreton,United States,NORTHERN AMERICA,329878000.0
3291,795731514.0,C,William Thornton (immigrant),United States,NORTHERN AMERICA,329878000.0
3292,795733384.0,C,Richard Cocke,United States,NORTHERN AMERICA,329878000.0
3293,795810214.0,Start,Jimmy Hayes,United States,NORTHERN AMERICA,329878000.0
3294,795820464.0,Start,Paul H. Scott,United States,NORTHERN AMERICA,329878000.0
3295,795835405.0,Stub,John Carmichael (Kansas politician),United States,NORTHERN AMERICA,329878000.0
3296,795838141.0,Start,Gracia Hillman,United States,NORTHERN AMERICA,329878000.0
3297,795879171.0,Stub,Nancy Ballance,United States,NORTHERN AMERICA,329878000.0
3298,795879205.0,Stub,Jon Knokey,United States,NORTHERN AMERICA,329878000.0
3299,795879264.0,Stub,Theresa Manzella,United States,NORTHERN AMERICA,329878000.0
3300,795879300.0,Stub,Fred Anderson (Montana politician),United States,NORTHERN AMERICA,329878000.0
3301,795879322.0,Stub,Tom Welch (politician),United States,NORTHERN AMERICA,329878000.0
3302,795879350.0,Stub,Kirk Wagoner,United States,NORTHERN AMERICA,329878000.0
3303,795879399.0,Stub,Adam Hertz,United States,NORTHERN AMERICA,329878000.0
3304,795879442.0,Stub,Denley Loge,United States,NORTHERN AMERICA,329878000.0
3305,795879474.0,Stub,Mark Noland,United States,NORTHERN AMERICA,329878000.0
3306,795879498.0,Stub,Frank Garner,United States,NORTHERN AMERICA,329878000.0
3307,795879568.0,Stub,Matt Regier,United States,NORTHERN AMERICA,329878000.0
3308,795879572.0,Stub,Steve Gunderson (Montana politician),United States,NORTHERN AMERICA,329878000.0
3309,795879582.0,Stub,Jedediah Hinkle,United States,NORTHERN AMERICA,329878000.0
3310,795879598.0,Stub,Tom Richmond (Montana politician),United States,NORTHERN AMERICA,329878000.0
3311,795879603.0,Stub,Roger Webb (politician),United States,NORTHERN AMERICA,329878000.0
3312,795879608.0,Stub,Jason Small (Montana politician),United States,NORTHERN AMERICA,329878000.0
3313,795879615.0,Stub,Steve Hinebauch,United States,NORTHERN AMERICA,329878000.0
3314,795879617.0,Stub,Mike Lang (Montana politician),United States,NORTHERN AMERICA,329878000.0
3315,795879621.0,Stub,Russel Tempel,United States,NORTHERN AMERICA,329878000.0
3316,795879624.0,Stub,Albert Olszewski,United States,NORTHERN AMERICA,329878000.0
3317,795879628.0,Stub,Pat Connell,United States,NORTHERN AMERICA,329878000.0
3318,795879633.0,Stub,Terry Gauthier,United States,NORTHERN AMERICA,329878000.0
3319,795881968.0,GA,Solomon P. Sharp,United States,NORTHERN AMERICA,329878000.0
3320,795978666.0,Start,Duck for President,United States,NORTHERN AMERICA,329878000.0
3321,796034138.0,Start,Terry Considine,United States,NORTHERN AMERICA,329878000.0
3322,796035420.0,Stub,Steven Simon,United States,NORTHERN AMERICA,329878000.0
3323,796035471.0,Stub,Frank H. Warder,United States,NORTHERN AMERICA,329878000.0
3324,796035509.0,Stub,Joelle Fishman,United States,NORTHERN AMERICA,329878000.0
3325,796035520.0,Stub,Charles C. Lips,United States,NORTHERN AMERICA,329878000.0
3326,796035770.0,Stub,William Jefferies Jr.,United States,NORTHERN AMERICA,329878000.0
3327,796035794.0,Stub,Robert I. Johnson,United States,NORTHERN AMERICA,329878000.0
3328,796035960.0,Start,Steven W. Churchill,United States,NORTHERN AMERICA,329878000.0
3329,796035982.0,Stub,Matthew O'Shea,United States,NORTHERN AMERICA,329878000.0
3330,796036029.0,Start,James W. Mason,United States,NORTHERN AMERICA,329878000.0
3331,796036144.0,Start,Vanleer Polk,United States,NORTHERN AMERICA,329878000.0
3332,796036412.0,Stub,Martha Farmer Brewer,United States,NORTHERN AMERICA,329878000.0
3333,796036494.0,Start,Ed Jackson (Tennessee politician),United States,NORTHERN AMERICA,329878000.0
3334,796036512.0,Start,John A. Polk,United States,NORTHERN AMERICA,329878000.0
3335,796036522.0,Start,David Parker (Mississippi politician),United States,NORTHERN AMERICA,329878000.0
3336,796036544.0,Start,Chad McMahan,United States,NORTHERN AMERICA,329878000.0
3337,796036564.0,Start,Erven T. Nelson,United States,NORTHERN AMERICA,329878000.0
3338,796036642.0,Start,Brent A. Jones,United States,NORTHERN AMERICA,329878000.0
3339,796036719.0,Start,Jill Dickman,United States,NORTHERN AMERICA,329878000.0
3340,796036847.0,Start,Robin L. Titus,United States,NORTHERN AMERICA,329878000.0
3341,796036862.0,Start,John Moore (Nevada politician),United States,NORTHERN AMERICA,329878000.0
3342,796036891.0,Start,Henry P. Sullivan,United States,NORTHERN AMERICA,329878000.0
3343,796036942.0,Start,Leonard W. Buck,United States,NORTHERN AMERICA,329878000.0
3344,796036979.0,Start,Alfred A. Lama,United States,NORTHERN AMERICA,329878000.0
3345,796036987.0,Start,Sidney A. Marchand,United States,NORTHERN AMERICA,329878000.0
3346,796037024.0,Stub,Theodore J. Marchand,United States,NORTHERN AMERICA,329878000.0
3347,796037041.0,Stub,Charmaine Marchand-Stiaes,United States,NORTHERN AMERICA,329878000.0
3348,796037071.0,Start,Michael Dively,United States,NORTHERN AMERICA,329878000.0
3349,796037617.0,Start,Jean-Paul Coussan,United States,NORTHERN AMERICA,329878000.0
3350,796040133.0,Start,Kathleen Merrigan,United States,NORTHERN AMERICA,329878000.0
3351,796095475.0,Start,Jim Shelton,United States,NORTHERN AMERICA,329878000.0
3352,796167100.0,Start,Mary Cal Hollis,United States,NORTHERN AMERICA,329878000.0
3353,796167539.0,Start,Monica Moorehead,United States,NORTHERN AMERICA,329878000.0
3354,796204377.0,Stub,Mike Hopkins (politician),United States,NORTHERN AMERICA,329878000.0
3355,796300514.0,Start,B. T. Collins,United States,NORTHERN AMERICA,329878000.0
3356,796321986.0,Start,List of United States politicians with doctorates,United States,NORTHERN AMERICA,329878000.0
3357,796345224.0,Start,Stacie Laughton,United States,NORTHERN AMERICA,329878000.0
3358,796451244.0,C,Charles Bowles,United States,NORTHERN AMERICA,329878000.0
3359,796515756.0,Start,William Flynt Nichols,United States,NORTHERN AMERICA,329878000.0
3360,796753284.0,Start,Amy Tuck,United States,NORTHERN AMERICA,329878000.0
3361,796753459.0,Start,Videt Carmichael,United States,NORTHERN AMERICA,329878000.0
3362,797015825.0,Start,Audrey Gelman,United States,NORTHERN AMERICA,329878000.0
3363,797049556.0,Stub,Barry S. Wynn,United States,NORTHERN AMERICA,329878000.0
3364,797094937.0,Start,Michael Ranzenhofer,United States,NORTHERN AMERICA,329878000.0
3365,797097345.0,Start,Víctor Castro (landowner),United States,NORTHERN AMERICA,329878000.0
3366,797098442.0,Start,Brad Courtney,United States,NORTHERN AMERICA,329878000.0
3367,797133197.0,Start,C. Louis Kincannon,United States,NORTHERN AMERICA,329878000.0
3368,797136951.0,B,Cabot family,United States,NORTHERN AMERICA,329878000.0
3369,797149477.0,Start,Caren Merrick,United States,NORTHERN AMERICA,329878000.0
3370,797150597.0,Stub,Carl Venne,United States,NORTHERN AMERICA,329878000.0
3371,797223921.0,C,Bob Ryan (mayor),United States,NORTHERN AMERICA,329878000.0
3372,797258429.0,GA,Clementa C. Pinckney,United States,NORTHERN AMERICA,329878000.0
3373,797291537.0,C,Chris Simcox,United States,NORTHERN AMERICA,329878000.0
3374,797307861.0,GA,Whitfield family of the United States,United States,NORTHERN AMERICA,329878000.0
3375,797339419.0,Start,Deb Callahan,United States,NORTHERN AMERICA,329878000.0
3376,797362699.0,Stub,Margaret Wright (American politician),United States,NORTHERN AMERICA,329878000.0
3377,797362969.0,Stub,Nickey Browning,United States,NORTHERN AMERICA,329878000.0
3378,797422904.0,C,John Bell Williams,United States,NORTHERN AMERICA,329878000.0
3379,797424208.0,Start,John M. Clayton (Arkansas),United States,NORTHERN AMERICA,329878000.0
3380,797445717.0,Start,Eugene Atkinson,United States,NORTHERN AMERICA,329878000.0
3381,797446083.0,Start,Andy Ireland,United States,NORTHERN AMERICA,329878000.0
3382,797446113.0,Start,James W. Grant,United States,NORTHERN AMERICA,329878000.0
3383,797469359.0,Start,Eli Houston Murray,United States,NORTHERN AMERICA,329878000.0
3384,797566520.0,Start,Allan Rosenberg (spy),United States,NORTHERN AMERICA,329878000.0
3385,797682606.0,Start,J. Kirk Sullivan,United States,NORTHERN AMERICA,329878000.0
3386,797710302.0,Stub,Michael P. Mullin,United States,NORTHERN AMERICA,329878000.0
3387,797794627.0,Start,Trent Clark (politician),United States,NORTHERN AMERICA,329878000.0
3388,797972524.0,Start,Frederick W. M. Holliday,United States,NORTHERN AMERICA,329878000.0
3389,797974170.0,C,Rocky Suhayda,United States,NORTHERN AMERICA,329878000.0
3390,797990810.0,C,Crowninshield family,United States,NORTHERN AMERICA,329878000.0
3391,798029256.0,C,Kent Williams (politician),United States,NORTHERN AMERICA,329878000.0
3392,798164565.0,C,Clay Davis,United States,NORTHERN AMERICA,329878000.0
3393,798165504.0,Start,George Landrith,United States,NORTHERN AMERICA,329878000.0
3394,798242765.0,Stub,John J. Carson,United States,NORTHERN AMERICA,329878000.0
3395,798250934.0,GA,Russell Pearce,United States,NORTHERN AMERICA,329878000.0
3396,798258646.0,Start,Huntington family,United States,NORTHERN AMERICA,329878000.0
3397,798274511.0,C,Ronald D. Castille,United States,NORTHERN AMERICA,329878000.0
3398,798284432.0,C,George Washington Adams,United States,NORTHERN AMERICA,329878000.0
3399,798306105.0,C,Jim Gilchrist,United States,NORTHERN AMERICA,329878000.0
3400,798311879.0,C,George W. Ashburn,United States,NORTHERN AMERICA,329878000.0
3401,798341059.0,C,J. Steven Griles,United States,NORTHERN AMERICA,329878000.0
3402,798341137.0,Start,J. W. Robinson (mayor),United States,NORTHERN AMERICA,329878000.0
3403,798343125.0,GA,Jack Davis (industrialist),United States,NORTHERN AMERICA,329878000.0
3404,798354186.0,C,James E. West (politician),United States,NORTHERN AMERICA,329878000.0
3405,798356368.0,Start,James J. Reynolds,United States,NORTHERN AMERICA,329878000.0
3406,798359416.0,GA,James R. Tanner,United States,NORTHERN AMERICA,329878000.0
3407,798360902.0,Start,Christy Goldfuss,United States,NORTHERN AMERICA,329878000.0
3408,798375349.0,GA,Maura Healey,United States,NORTHERN AMERICA,329878000.0
3409,798405048.0,Start,Jim Jordan (political consultant),United States,NORTHERN AMERICA,329878000.0
3410,798418102.0,C,Joe Vogler,United States,NORTHERN AMERICA,329878000.0
3411,798439249.0,C,John P. Wheeler III,United States,NORTHERN AMERICA,329878000.0
3412,798441576.0,Start,John S. Herrington,United States,NORTHERN AMERICA,329878000.0
3413,798446583.0,Start,Adele Morris,United States,NORTHERN AMERICA,329878000.0
3414,798496573.0,Start,Kara Stein,United States,NORTHERN AMERICA,329878000.0
3415,798526086.0,Start,Kevin Sullivan (communications professional),United States,NORTHERN AMERICA,329878000.0
3416,798611065.0,Start,Lee C. White,United States,NORTHERN AMERICA,329878000.0
3417,798612322.0,C,James E. Davis (councilman),United States,NORTHERN AMERICA,329878000.0
3418,798612337.0,C,Leon Jordan,United States,NORTHERN AMERICA,329878000.0
3419,798615883.0,Start,Peter Lawson Jones,United States,NORTHERN AMERICA,329878000.0
3420,798615991.0,C,Arthur Teele,United States,NORTHERN AMERICA,329878000.0
3421,798665641.0,Start,Rushern Baker IV,United States,NORTHERN AMERICA,329878000.0
3422,798682011.0,Start,Gaylord J. Clarke,United States,NORTHERN AMERICA,329878000.0
3423,798682635.0,C,Jonathan Cilley,United States,NORTHERN AMERICA,329878000.0
3424,798684146.0,Start,Cornelius S. Hamilton,United States,NORTHERN AMERICA,329878000.0
3425,798684380.0,Start,Frank Hatton (U.S. politician),United States,NORTHERN AMERICA,329878000.0
3426,798736535.0,C,James M. Hinds,United States,NORTHERN AMERICA,329878000.0
3427,798740930.0,Stub,Herschel L. Carnahan,United States,NORTHERN AMERICA,329878000.0
3428,798803407.0,B,List of politicians affiliated with the Tea Party movement,United States,NORTHERN AMERICA,329878000.0
3429,798856013.0,Start,Daniel Johnson (naval officer),United States,NORTHERN AMERICA,329878000.0
3430,798895703.0,C,Marion Christopher Barry,United States,NORTHERN AMERICA,329878000.0
3431,798917443.0,C,List of assassinated American politicians,United States,NORTHERN AMERICA,329878000.0
3432,798920722.0,C,Frank Steunenberg,United States,NORTHERN AMERICA,329878000.0
3433,798934064.0,Stub,Mattie Pinnette,United States,NORTHERN AMERICA,329878000.0
3434,798937177.0,C,Max Cleland,United States,NORTHERN AMERICA,329878000.0
3435,798973710.0,Start,Michael A. Hess,United States,NORTHERN AMERICA,329878000.0
3436,798973740.0,Stub,Michael A. McManus Jr.,United States,NORTHERN AMERICA,329878000.0
3437,799028568.0,C,Patty Wetterling,United States,NORTHERN AMERICA,329878000.0
3438,799061535.0,Stub,Ron Ehli,United States,NORTHERN AMERICA,329878000.0
3439,799081064.0,C,David B. Henderson,United States,NORTHERN AMERICA,329878000.0
3440,799118912.0,Start,Billie Sutton,United States,NORTHERN AMERICA,329878000.0
3441,799136515.0,Start,William David Upshaw,United States,NORTHERN AMERICA,329878000.0
3442,799136692.0,C,James I. Loeb,United States,NORTHERN AMERICA,329878000.0
3443,799211603.0,C,Henry A. Melvin,United States,NORTHERN AMERICA,329878000.0
3444,799223779.0,C,David Safavian,United States,NORTHERN AMERICA,329878000.0
3445,799236587.0,C,Victor Vifquain,United States,NORTHERN AMERICA,329878000.0
3446,799236624.0,Stub,William H. Withington,United States,NORTHERN AMERICA,329878000.0
3447,799236686.0,Start,James H. Harris,United States,NORTHERN AMERICA,329878000.0
3448,799237084.0,B,Martin T. McMahon,United States,NORTHERN AMERICA,329878000.0
3449,799237132.0,Start,John H. Moffitt,United States,NORTHERN AMERICA,329878000.0
3450,799237531.0,C,Henry H. Bingham,United States,NORTHERN AMERICA,329878000.0
3451,799237614.0,B,John C. Black,United States,NORTHERN AMERICA,329878000.0
3452,799237748.0,C,Hubert Dilger,United States,NORTHERN AMERICA,329878000.0
3453,799237807.0,C,Guy Vernor Henry,United States,NORTHERN AMERICA,329878000.0
3454,799237933.0,B,William Y. W. Ripley,United States,NORTHERN AMERICA,329878000.0
3455,799238099.0,Start,Amos J. Cummings,United States,NORTHERN AMERICA,329878000.0
3456,799238154.0,GA,John C. Robinson,United States,NORTHERN AMERICA,329878000.0
3457,799238275.0,Start,Thomas W. Bradley,United States,NORTHERN AMERICA,329878000.0
3458,799238310.0,C,William Joyce Sewell,United States,NORTHERN AMERICA,329878000.0
3459,799238641.0,C,Henry A. du Pont,United States,NORTHERN AMERICA,329878000.0
3460,799238901.0,Start,William E. Simonds,United States,NORTHERN AMERICA,329878000.0
3461,799239335.0,C,Webb Hayes,United States,NORTHERN AMERICA,329878000.0
3462,799239505.0,C,Willis W. Bradley,United States,NORTHERN AMERICA,329878000.0
3463,799240260.0,C,Clyde L. Choate,United States,NORTHERN AMERICA,329878000.0
3464,799240386.0,Start,Peter J. Dalessandro,United States,NORTHERN AMERICA,329878000.0
3465,799240429.0,C,Nathan Green Gordon,United States,NORTHERN AMERICA,329878000.0
3466,799241413.0,Stub,Tucker P. Smith,United States,NORTHERN AMERICA,329878000.0
3467,799241662.0,GA,Leo K. Thorsness,United States,NORTHERN AMERICA,329878000.0
3468,799284067.0,Start,Brooke Ellison,United States,NORTHERN AMERICA,329878000.0
3469,799300226.0,Start,Norm Semanko,United States,NORTHERN AMERICA,329878000.0
3470,799305133.0,C,Samuel E. Pingree,United States,NORTHERN AMERICA,329878000.0
3471,799328317.0,Start,Oscar R. Ewing,United States,NORTHERN AMERICA,329878000.0
3472,799332403.0,Start,Andrew Davidson (soldier),United States,NORTHERN AMERICA,329878000.0
3473,799380364.0,C,Lyman Trumbull,United States,NORTHERN AMERICA,329878000.0
3474,799388822.0,Start,Lynn Frazier,United States,NORTHERN AMERICA,329878000.0
3475,799414334.0,B,Otis family,United States,NORTHERN AMERICA,329878000.0
3476,799448205.0,Start,Edward J. Brundage,United States,NORTHERN AMERICA,329878000.0
3477,799505429.0,C,Sonia Johnson,United States,NORTHERN AMERICA,329878000.0
3478,799528192.0,GA,Leo Ryan,United States,NORTHERN AMERICA,329878000.0
3479,799542005.0,B,Political positions of Jeb Bush,United States,NORTHERN AMERICA,329878000.0
3480,799542168.0,B,Political positions of Sarah Palin,United States,NORTHERN AMERICA,329878000.0
3481,799576966.0,Start,Sara Flounders,United States,NORTHERN AMERICA,329878000.0
3482,799611429.0,C,Denise Juneau,United States,NORTHERN AMERICA,329878000.0
3483,799634548.0,C,Benjamin F. Tracy,United States,NORTHERN AMERICA,329878000.0
3484,799646889.0,C,Van Rensselaer (family),United States,NORTHERN AMERICA,329878000.0
3485,799649001.0,FA,José Sarria,United States,NORTHERN AMERICA,329878000.0
3486,799654475.0,Start,Charles Frankel,United States,NORTHERN AMERICA,329878000.0
3487,799748512.0,Start,Biden family,United States,NORTHERN AMERICA,329878000.0
3488,799768653.0,Stub,Jose Aristimuño,United States,NORTHERN AMERICA,329878000.0
3489,799829904.0,C,Nick Shalosky,United States,NORTHERN AMERICA,329878000.0
3490,799852266.0,C,Public image of Mike Huckabee,United States,NORTHERN AMERICA,329878000.0
3491,799852277.0,FA,Public image of Mitt Romney,United States,NORTHERN AMERICA,329878000.0
3492,799852293.0,GA,Public image of Rudy Giuliani,United States,NORTHERN AMERICA,329878000.0
3493,799852308.0,B,Public image of Sarah Palin,United States,NORTHERN AMERICA,329878000.0
3494,799867185.0,Start,R. M. Wanamaker,United States,NORTHERN AMERICA,329878000.0
3495,799879909.0,Start,Raj Date,United States,NORTHERN AMERICA,329878000.0
3496,799885588.0,C,Randy Hopper,United States,NORTHERN AMERICA,329878000.0
3497,799940018.0,Start,Richard J. Griffin,United States,NORTHERN AMERICA,329878000.0
3498,800067435.0,Stub,Samuel M. Lambert,United States,NORTHERN AMERICA,329878000.0
3499,800077011.0,C,Sarasota Assassination Society,United States,NORTHERN AMERICA,329878000.0
3500,800079152.0,Stub,Carl Choisser,United States,NORTHERN AMERICA,329878000.0
3501,800087209.0,Stub,John M. Bolton,United States,NORTHERN AMERICA,329878000.0
3502,800253145.0,Start,Doris Allen (politician),United States,NORTHERN AMERICA,329878000.0
3503,800275688.0,GA,Don Owen (news anchor),United States,NORTHERN AMERICA,329878000.0
3504,800303793.0,Start,Donald Manes,United States,NORTHERN AMERICA,329878000.0
3505,800378745.0,C,Robert Smith Vance,United States,NORTHERN AMERICA,329878000.0
3506,800400804.0,C,Doug Hoffman,United States,NORTHERN AMERICA,329878000.0
3507,800443919.0,C,Kit Bond,United States,NORTHERN AMERICA,329878000.0
3508,800516402.0,C,Charles Bent,United States,NORTHERN AMERICA,329878000.0
3509,800607565.0,Start,Susan Tierney,United States,NORTHERN AMERICA,329878000.0
3510,800638438.0,B,List of minority governors and lieutenant governors in the United States,United States,NORTHERN AMERICA,329878000.0
3511,800692309.0,Start,Stephanie Hannon,United States,NORTHERN AMERICA,329878000.0
3512,800750042.0,B,Taft family,United States,NORTHERN AMERICA,329878000.0
3513,800779451.0,Start,Stephanie Schriock,United States,NORTHERN AMERICA,329878000.0
3514,800785078.0,Start,Jackson family of West Virginia,United States,NORTHERN AMERICA,329878000.0
3515,800871691.0,Start,Van Cortlandt family,United States,NORTHERN AMERICA,329878000.0
3516,800881001.0,C,Jennifer Gale,United States,NORTHERN AMERICA,329878000.0
3517,800947016.0,Start,Theodore Joslin,United States,NORTHERN AMERICA,329878000.0
3518,800957254.0,Start,Thomas Boylston Adams (1910–1997),United States,NORTHERN AMERICA,329878000.0
3519,800961804.0,Start,Thomas Lowndes Snead,United States,NORTHERN AMERICA,329878000.0
3520,800961966.0,Start,Thomas M. Hodgson,United States,NORTHERN AMERICA,329878000.0
3521,800964866.0,B,Thomas W. Hyde,United States,NORTHERN AMERICA,329878000.0
3522,800989655.0,Stub,Aysh-ke-bah-ke-ko-zhay,United States,NORTHERN AMERICA,329878000.0
3523,800991757.0,C,James Langevin,United States,NORTHERN AMERICA,329878000.0
3524,801002772.0,C,Tony Coelho,United States,NORTHERN AMERICA,329878000.0
3525,801009679.0,Stub,Edison Real Bird,United States,NORTHERN AMERICA,329878000.0
3526,801038355.0,Start,Chuck Graham,United States,NORTHERN AMERICA,329878000.0
3527,801050452.0,C,Udall family,United States,NORTHERN AMERICA,329878000.0
3528,801061518.0,B,United States Children's Bureau,United States,NORTHERN AMERICA,329878000.0
3529,801104860.0,Start,Clayton family,United States,NORTHERN AMERICA,329878000.0
3530,801109736.0,C,Jason Rae,United States,NORTHERN AMERICA,329878000.0
3531,801125891.0,C,Jack Deveraux,United States,NORTHERN AMERICA,329878000.0
3532,801144750.0,C,Linda Moore (businesswoman),United States,NORTHERN AMERICA,329878000.0
3533,801184528.0,Start,Edwin Stanton McCook,United States,NORTHERN AMERICA,329878000.0
3534,801186962.0,C,Larry McDonald,United States,NORTHERN AMERICA,329878000.0
3535,801246654.0,C,William Bulger,United States,NORTHERN AMERICA,329878000.0
3536,801252303.0,Start,William H. Frankhauser,United States,NORTHERN AMERICA,329878000.0
3537,801252456.0,Stub,William H. Lash,United States,NORTHERN AMERICA,329878000.0
3538,801255343.0,Stub,William J. Henderson,United States,NORTHERN AMERICA,329878000.0
3539,801284282.0,C,Women in the Black Panther Party,United States,NORTHERN AMERICA,329878000.0
3540,801288994.0,C,Byron M. Cutcheon,United States,NORTHERN AMERICA,329878000.0
3541,801289746.0,Start,Horatio Collins King,United States,NORTHERN AMERICA,329878000.0
3542,801411518.0,C,Richard Grenell,United States,NORTHERN AMERICA,329878000.0
3543,801438901.0,Start,Suzanne Chun Oakland,United States,NORTHERN AMERICA,329878000.0
3544,801444165.0,Stub,Julie Kirchner,United States,NORTHERN AMERICA,329878000.0
3545,801454959.0,C,Mo Udall,United States,NORTHERN AMERICA,329878000.0
3546,801482128.0,C,Cyrus Habib,United States,NORTHERN AMERICA,329878000.0
3547,801497817.0,B,Florence Jaffray Harriman,United States,NORTHERN AMERICA,329878000.0
3548,801512271.0,GA,Isaac S. Catlin,United States,NORTHERN AMERICA,329878000.0
3549,801519440.0,GA,Ogden R. Reid,United States,NORTHERN AMERICA,329878000.0
3550,801600439.0,Stub,Gavrielle Holmes,United States,NORTHERN AMERICA,329878000.0
3551,801601799.0,C,Nancy Nord,United States,NORTHERN AMERICA,329878000.0
3552,801606821.0,Start,Christopher J. Ward,United States,NORTHERN AMERICA,329878000.0
3553,801613040.0,C,Pamela Harriman,United States,NORTHERN AMERICA,329878000.0
3554,801618037.0,Stub,Wray Thomas,United States,NORTHERN AMERICA,329878000.0
3555,801619618.0,C,James E. Livingston,United States,NORTHERN AMERICA,329878000.0
3556,801643968.0,C,Edwin Walker,United States,NORTHERN AMERICA,329878000.0
3557,801710196.0,Start,Monique Dorsainvil,United States,NORTHERN AMERICA,329878000.0
3558,801712575.0,B,Norm Coleman,United States,NORTHERN AMERICA,329878000.0
3559,801734660.0,B,John Francis Wheaton,United States,NORTHERN AMERICA,329878000.0
3560,801737432.0,GA,Nancy Kulp,United States,NORTHERN AMERICA,329878000.0
3561,801769794.0,GA,Roy Cohn,United States,NORTHERN AMERICA,329878000.0
3562,801798257.0,C,Hiram Gill,United States,NORTHERN AMERICA,329878000.0
3563,801808557.0,C,Steve Novick,United States,NORTHERN AMERICA,329878000.0
3564,801838976.0,Stub,Janet H. Brown,United States,NORTHERN AMERICA,329878000.0
3565,801845997.0,Stub,Gary Loftus,United States,NORTHERN AMERICA,329878000.0
3566,801880072.0,C,Tom Dennison (political boss),United States,NORTHERN AMERICA,329878000.0
3567,801885694.0,Start,Sheffield Nelson,United States,NORTHERN AMERICA,329878000.0
3568,801932716.0,Start,Christopher Morgan (politician),United States,NORTHERN AMERICA,329878000.0
3569,801940675.0,Start,Barry Peterson (Idaho),United States,NORTHERN AMERICA,329878000.0
3570,801968862.0,C,Tom Schweich,United States,NORTHERN AMERICA,329878000.0
3571,802032634.0,Start,Bayard family,United States,NORTHERN AMERICA,329878000.0
3572,802034478.0,Stub,Richard Ward Greene,United States,NORTHERN AMERICA,329878000.0
3573,802034491.0,Start,Robert Brank Vance,United States,NORTHERN AMERICA,329878000.0
3574,802051788.0,Start,Misty Snow,United States,NORTHERN AMERICA,329878000.0
3575,802069394.0,C,Charles Woods (Alabama),United States,NORTHERN AMERICA,329878000.0
3576,802102037.0,C,Sean Eldridge,United States,NORTHERN AMERICA,329878000.0
3577,802174551.0,FA,Benjamin Tillman,United States,NORTHERN AMERICA,329878000.0
3578,802178601.0,C,William C. Oates,United States,NORTHERN AMERICA,329878000.0
3579,802242737.0,C,Delano family,United States,NORTHERN AMERICA,329878000.0
3580,802268156.0,C,Steve Lonegan,United States,NORTHERN AMERICA,329878000.0
3581,802269152.0,C,Parker Griffith,United States,NORTHERN AMERICA,329878000.0
3582,802421652.0,GA,Arlen Specter,United States,NORTHERN AMERICA,329878000.0
3583,802428164.0,C,Maurice Britt,United States,NORTHERN AMERICA,329878000.0
3584,802430572.0,C,Thomas Jefferson Rusk,United States,NORTHERN AMERICA,329878000.0
3585,802430648.0,C,Anson Jones,United States,NORTHERN AMERICA,329878000.0
3586,802475167.0,Stub,George Petak,United States,NORTHERN AMERICA,329878000.0
3587,802519489.0,C,Joel Pollak,United States,NORTHERN AMERICA,329878000.0
3588,802524504.0,Start,William Clark Falkner,United States,NORTHERN AMERICA,329878000.0
3589,802526223.0,Start,Alyson Kennedy,United States,NORTHERN AMERICA,329878000.0
3590,802545472.0,C,Eric C. Bauman,United States,NORTHERN AMERICA,329878000.0
3591,802585427.0,Stub,Craig Johnson (Iowa politician),United States,NORTHERN AMERICA,329878000.0
3592,802611588.0,Stub,Andrew Do,United States,NORTHERN AMERICA,329878000.0
3593,802640221.0,C,Richmond P. Hobson,United States,NORTHERN AMERICA,329878000.0
3594,802643483.0,GA,Voltaire P. Twombly,United States,NORTHERN AMERICA,329878000.0
3595,802683756.0,Start,Joel Bomgar,United States,NORTHERN AMERICA,329878000.0
3596,802698458.0,Stub,Norris Cochran,United States,NORTHERN AMERICA,329878000.0
3597,802699065.0,C,James Stockdale,United States,NORTHERN AMERICA,329878000.0
3598,802745249.0,Start,William Byrd III,United States,NORTHERN AMERICA,329878000.0
3599,802819262.0,Start,John Milton (Florida politician),United States,NORTHERN AMERICA,329878000.0
3600,802859459.0,Start,Lodge family,United States,NORTHERN AMERICA,329878000.0
3601,802907676.0,FA,Gray Davis,United States,NORTHERN AMERICA,329878000.0
3602,803030286.0,C,Carter Harrison Sr.,United States,NORTHERN AMERICA,329878000.0
3603,803042016.0,Start,Joseph Wilson Ervin,United States,NORTHERN AMERICA,329878000.0
3604,803076089.0,B,List of Jewish American politicians,United States,NORTHERN AMERICA,329878000.0
3605,803095195.0,C,Joanne Herring,United States,NORTHERN AMERICA,329878000.0
3606,803109508.0,Start,Fighting Dems,United States,NORTHERN AMERICA,329878000.0
3607,803123449.0,C,Tommy F. Robinson,United States,NORTHERN AMERICA,329878000.0
3608,803135822.0,C,Lucy Tayiah Eads,United States,NORTHERN AMERICA,329878000.0
3609,803184209.0,Start,Martin D. Hamilton,United States,NORTHERN AMERICA,329878000.0
3610,803200362.0,Stub,Harry Johnston (politician),United States,NORTHERN AMERICA,329878000.0
3611,803246012.0,C,Matthew Quay,United States,NORTHERN AMERICA,329878000.0
3612,803265175.0,Start,Michael Podhorzer,United States,NORTHERN AMERICA,329878000.0
3613,803298752.0,Start,Robert Dorsey Watkins,United States,NORTHERN AMERICA,329878000.0
3614,803300682.0,Start,Thayer family,United States,NORTHERN AMERICA,329878000.0
3615,803307197.0,C,Edward W. Carmack,United States,NORTHERN AMERICA,329878000.0
3616,803319558.0,C,Phyllis Schlafly,United States,NORTHERN AMERICA,329878000.0
3617,803341014.0,Start,Saunders family,United States,NORTHERN AMERICA,329878000.0
3618,803346570.0,Start,Houghton family,United States,NORTHERN AMERICA,329878000.0
3619,803364874.0,C,Bob Smith (American politician),United States,NORTHERN AMERICA,329878000.0
3620,803367518.0,C,Samuel Newitt Wood,United States,NORTHERN AMERICA,329878000.0
3621,803425364.0,B,Clare Boothe Luce,United States,NORTHERN AMERICA,329878000.0
3622,803440441.0,GA,Dorian Lord,United States,NORTHERN AMERICA,329878000.0
3623,803574094.0,C,Anton Cermak,United States,NORTHERN AMERICA,329878000.0
3624,803619692.0,Stub,Bear's Rib,United States,NORTHERN AMERICA,329878000.0
3625,803648860.0,Stub,Stephen Boyd (attorney),United States,NORTHERN AMERICA,329878000.0
3626,803679942.0,Stub,James E. Smith (politician),United States,NORTHERN AMERICA,329878000.0
3627,803692835.0,Start,Philip Willkie,United States,NORTHERN AMERICA,329878000.0
3628,803693853.0,Start,Jennifer Ho,United States,NORTHERN AMERICA,329878000.0
3629,803707427.0,C,Billy Tauzin,United States,NORTHERN AMERICA,329878000.0
3630,803709580.0,Start,Lee E. Goodman,United States,NORTHERN AMERICA,329878000.0
3631,803713970.0,Start,Amy Dacey,United States,NORTHERN AMERICA,329878000.0
3632,803753209.0,C,John Moran Bailey,United States,NORTHERN AMERICA,329878000.0
3633,803772608.0,C,Greg Hyatt,United States,NORTHERN AMERICA,329878000.0
3634,803813597.0,C,David McReynolds,United States,NORTHERN AMERICA,329878000.0
3635,803821108.0,C,Richard J. Daronco,United States,NORTHERN AMERICA,329878000.0
3636,803906441.0,C,Albert Jennings Fountain,United States,NORTHERN AMERICA,329878000.0
3637,803920747.0,C,Edouard Izac,United States,NORTHERN AMERICA,329878000.0
3638,803931974.0,Start,John J. Kennedy (New York State Treasurer),United States,NORTHERN AMERICA,329878000.0
3639,803933397.0,B,David Paterson,United States,NORTHERN AMERICA,329878000.0
3640,803953141.0,Start,Francisco Guerrero (politician),United States,NORTHERN AMERICA,329878000.0
3641,803955866.0,Start,John Kriesel,United States,NORTHERN AMERICA,329878000.0
3642,803964189.0,FA,Douglas MacArthur,United States,NORTHERN AMERICA,329878000.0
3643,803995478.0,C,George Moscone,United States,NORTHERN AMERICA,329878000.0
3644,804003806.0,Start,Ellen Lord,United States,NORTHERN AMERICA,329878000.0
3645,804018714.0,C,Ed Martin (Missouri politician),United States,NORTHERN AMERICA,329878000.0
3646,804038363.0,Start,Boren family,United States,NORTHERN AMERICA,329878000.0
3647,804051551.0,C,Charles E. Phelps,United States,NORTHERN AMERICA,329878000.0
3648,804057284.0,FA,Mark Hanna,United States,NORTHERN AMERICA,329878000.0
3649,804067052.0,Start,Jesse B. Thomas,United States,NORTHERN AMERICA,329878000.0
3650,804068881.0,Start,National Women's Political Caucus,United States,NORTHERN AMERICA,329878000.0
3651,804081210.0,Stub,Michael Olbrich,United States,NORTHERN AMERICA,329878000.0
3652,804082579.0,B,Political positions of Rudy Giuliani,United States,NORTHERN AMERICA,329878000.0
3653,804083434.0,C,Dan Kapanke,United States,NORTHERN AMERICA,329878000.0
3654,804093651.0,Stub,William F. Tisch,United States,NORTHERN AMERICA,329878000.0
3655,804095077.0,Start,Rick Gudex,United States,NORTHERN AMERICA,329878000.0
3656,804105984.0,C,John Swainson,United States,NORTHERN AMERICA,329878000.0
3657,804123422.0,C,Kevin James (broadcaster),United States,NORTHERN AMERICA,329878000.0
3658,804151581.0,GA,Fred Karger,United States,NORTHERN AMERICA,329878000.0
3659,804201211.0,C,John Gilbert Winant,United States,NORTHERN AMERICA,329878000.0
3660,804203329.0,C,Philip S. Post,United States,NORTHERN AMERICA,329878000.0
3661,804241784.0,Start,Richard G. Green (lawyer),United States,NORTHERN AMERICA,329878000.0
3662,804286248.0,FA,President of the Continental Congress,United States,NORTHERN AMERICA,329878000.0
3663,804354264.0,GA,Nick Wasicsko,United States,NORTHERN AMERICA,329878000.0
3664,804412006.0,Start,Karine Jean-Pierre,United States,NORTHERN AMERICA,329878000.0
3665,804424179.0,FA,Views of Lyndon LaRouche and the LaRouche movement,United States,NORTHERN AMERICA,329878000.0
3666,804431277.0,Start,Michael Parker (politician),United States,NORTHERN AMERICA,329878000.0
3667,804460353.0,C,Nelson A. Miles,United States,NORTHERN AMERICA,329878000.0
3668,804494845.0,B,Public image of George W. Bush,United States,NORTHERN AMERICA,329878000.0
3669,804514223.0,Start,Jenifer Branning,United States,NORTHERN AMERICA,329878000.0
3670,804537464.0,C,Kathy Augustine,United States,NORTHERN AMERICA,329878000.0
3671,804545909.0,B,Chase family,United States,NORTHERN AMERICA,329878000.0
3672,804550748.0,B,Richard Shelby,United States,NORTHERN AMERICA,329878000.0
3673,804599753.0,Start,James Henderson Berry,United States,NORTHERN AMERICA,329878000.0
3674,804608578.0,C,Ben Nighthorse Campbell,United States,NORTHERN AMERICA,329878000.0
3675,804697452.0,Start,John M. Farquhar,United States,NORTHERN AMERICA,329878000.0
3676,804734033.0,C,Francis T. Nicholls,United States,NORTHERN AMERICA,329878000.0
3677,804746568.0,C,"William P. MacCracken, Jr.",United States,NORTHERN AMERICA,329878000.0
3678,804752771.0,C,Adams political family,United States,NORTHERN AMERICA,329878000.0
3679,804756849.0,C,List of United States political appointments across party lines,United States,NORTHERN AMERICA,329878000.0
3680,804757304.0,C,Mark E. Clayton,United States,NORTHERN AMERICA,329878000.0
3681,804768298.0,GA,Lincoln Chafee,United States,NORTHERN AMERICA,329878000.0
3682,804782901.0,Stub,Nels Swandal,United States,NORTHERN AMERICA,329878000.0
3683,804785068.0,Stub,Henry A. Crabb,United States,NORTHERN AMERICA,329878000.0
3684,804819065.0,C,Gary George (Wisconsin politician),United States,NORTHERN AMERICA,329878000.0
3685,804854342.0,GA,R. Budd Dwyer,United States,NORTHERN AMERICA,329878000.0
3686,804861266.0,C,Daniel Inouye,United States,NORTHERN AMERICA,329878000.0
3687,804864900.0,Stub,Fleming Amyx,United States,NORTHERN AMERICA,329878000.0
3688,804869037.0,Stub,Andrej Lisanik,United States,NORTHERN AMERICA,329878000.0
3689,804887590.0,C,O'Carroll,United States,NORTHERN AMERICA,329878000.0
3690,804896412.0,C,David Ramsay (historian),United States,NORTHERN AMERICA,329878000.0
3691,804931631.0,C,Doug Wead,United States,NORTHERN AMERICA,329878000.0
3692,804933514.0,C,Adelbert Ames,United States,NORTHERN AMERICA,329878000.0
3693,804936582.0,GA,Frank Kameny,United States,NORTHERN AMERICA,329878000.0
3694,804937199.0,GA,Lester C. Hunt,United States,NORTHERN AMERICA,329878000.0
3695,804937385.0,Start,Forrest H. Anderson,United States,NORTHERN AMERICA,329878000.0
3696,804937399.0,GA,Christine A. Varney,United States,NORTHERN AMERICA,329878000.0
3697,804937479.0,Start,Robert Lee Henry,United States,NORTHERN AMERICA,329878000.0
3698,804937526.0,Start,Fred Hasley,United States,NORTHERN AMERICA,329878000.0
3699,804937595.0,C,Aris T. Allen,United States,NORTHERN AMERICA,329878000.0
3700,804937784.0,Start,Michael D. Harter,United States,NORTHERN AMERICA,329878000.0
3701,804937844.0,C,Roy Hampton,United States,NORTHERN AMERICA,329878000.0
3702,804940426.0,Start,William H. Hughes,United States,NORTHERN AMERICA,329878000.0
3703,804940476.0,Start,Frank B. Arnold,United States,NORTHERN AMERICA,329878000.0
3704,804941144.0,Start,Vincent Luke Palmisano,United States,NORTHERN AMERICA,329878000.0
3705,804941339.0,Start,Coleman W. Avery,United States,NORTHERN AMERICA,329878000.0
3706,804941459.0,Start,Paul C. Barth,United States,NORTHERN AMERICA,329878000.0
3707,804941532.0,C,James D. Johnson,United States,NORTHERN AMERICA,329878000.0
3708,804941654.0,Start,Julius S. Berg,United States,NORTHERN AMERICA,329878000.0
3709,804941696.0,Stub,Charles A. Binder,United States,NORTHERN AMERICA,329878000.0
3710,804941770.0,Stub,Joseph Wheeler Bloodgood,United States,NORTHERN AMERICA,329878000.0
3711,804941914.0,C,Charles Jonas (Wisconsin politician),United States,NORTHERN AMERICA,329878000.0
3712,804942108.0,C,Ricardo Bordallo,United States,NORTHERN AMERICA,329878000.0
3713,804942202.0,Stub,John S. Farrell,United States,NORTHERN AMERICA,329878000.0
3714,804942311.0,C,Martin H. Glynn,United States,NORTHERN AMERICA,329878000.0
3715,804943813.0,Stub,B. G. Plumer,United States,NORTHERN AMERICA,329878000.0
3716,804944197.0,Stub,Al Pearlman,United States,NORTHERN AMERICA,329878000.0
3717,804945043.0,C,Will Rogers Jr.,United States,NORTHERN AMERICA,329878000.0
3718,804945170.0,C,Thomas Reynolds (governor),United States,NORTHERN AMERICA,329878000.0
3719,804945652.0,Stub,Justus Cornelius Ramsey,United States,NORTHERN AMERICA,329878000.0
3720,804945715.0,Stub,Henry English Read,United States,NORTHERN AMERICA,329878000.0
3721,804945844.0,C,Thomas Caute Reynolds,United States,NORTHERN AMERICA,329878000.0
3722,804946008.0,Stub,Charles T. Perry,United States,NORTHERN AMERICA,329878000.0
3723,804946057.0,Stub,Christian A. Koenitzer,United States,NORTHERN AMERICA,329878000.0
3724,804946097.0,Start,Horace Worth Vaughan,United States,NORTHERN AMERICA,329878000.0
3725,804946404.0,Stub,Joseph Vilas,United States,NORTHERN AMERICA,329878000.0
3726,804946512.0,Start,Buron Fitts,United States,NORTHERN AMERICA,329878000.0
3727,804946617.0,Start,James DiPaola,United States,NORTHERN AMERICA,329878000.0
3728,804946771.0,Start,John Porter East,United States,NORTHERN AMERICA,329878000.0
3729,804946812.0,Start,Francis J. D'Eramo,United States,NORTHERN AMERICA,329878000.0
3730,804947150.0,Start,John Christopher Cutler,United States,NORTHERN AMERICA,329878000.0
3731,804947189.0,Start,Gentry Crowell,United States,NORTHERN AMERICA,329878000.0
3732,804950843.0,C,John F. Collins,United States,NORTHERN AMERICA,329878000.0
3733,804967392.0,C,Bonnie Dumanis,United States,NORTHERN AMERICA,329878000.0
3734,804968910.0,C,Soapy Smith,United States,NORTHERN AMERICA,329878000.0
3735,804989176.0,Stub,William Crook (politician),United States,NORTHERN AMERICA,329878000.0
3736,805010001.0,Start,Russell Veh,United States,NORTHERN AMERICA,329878000.0
3737,805016377.0,Stub,Hiester family,United States,NORTHERN AMERICA,329878000.0
3738,805048542.0,Start,Dennis Peron,United States,NORTHERN AMERICA,329878000.0
3739,805092837.0,C,Michela Alioto-Pier,United States,NORTHERN AMERICA,329878000.0
3740,805103271.0,GA,Family of Donald Trump,United States,NORTHERN AMERICA,329878000.0
3741,805108145.0,Stub,Hogan Gidley,United States,NORTHERN AMERICA,329878000.0
3742,805130443.0,B,Arnold family,United States,NORTHERN AMERICA,329878000.0
3743,805132451.0,C,John F. Hartranft,United States,NORTHERN AMERICA,329878000.0
3744,805132499.0,C,James A. Beaver,United States,NORTHERN AMERICA,329878000.0
3745,805143869.0,C,George Berham Parr,United States,NORTHERN AMERICA,329878000.0
3746,805162001.0,GA,Thomas Gore,United States,NORTHERN AMERICA,329878000.0
3747,805168975.0,Start,Douglas Domenech,United States,NORTHERN AMERICA,329878000.0
3748,805180647.0,C,Mike Boyle,United States,NORTHERN AMERICA,329878000.0
3749,805180928.0,Start,Lyman Hoffman,United States,NORTHERN AMERICA,329878000.0
3750,805182675.0,Start,Misty Plowright,United States,NORTHERN AMERICA,329878000.0
3751,805212999.0,Start,List of United States political families,United States,NORTHERN AMERICA,329878000.0
3752,805273173.0,FA,George Wythe,United States,NORTHERN AMERICA,329878000.0
3753,805287852.0,Start,Carmen Lucia (union organizer),United States,NORTHERN AMERICA,329878000.0
3754,805314310.0,C,Button Gwinnett,United States,NORTHERN AMERICA,329878000.0
3755,805326323.0,B,List of foreign-born United States politicians,United States,NORTHERN AMERICA,329878000.0
3756,805347719.0,Start,Rupert Phillips,United States,NORTHERN AMERICA,329878000.0
3757,805350408.0,C,Sumner Welles,United States,NORTHERN AMERICA,329878000.0
3758,805352961.0,GA,Trump family,United States,NORTHERN AMERICA,329878000.0
3759,805372992.0,Start,Shailagh Murray,United States,NORTHERN AMERICA,329878000.0
3760,805407219.0,C,Robert M. La Follette Jr.,United States,NORTHERN AMERICA,329878000.0
3761,805409467.0,C,McCormick family,United States,NORTHERN AMERICA,329878000.0
3762,805411937.0,C,Leonard Wood,United States,NORTHERN AMERICA,329878000.0
3763,805454221.0,C,Timothy Davlin,United States,NORTHERN AMERICA,329878000.0
3764,805454804.0,GA,Sonny Perdue,United States,NORTHERN AMERICA,329878000.0
3765,805480792.0,C,Rockefeller family,United States,NORTHERN AMERICA,329878000.0
3766,805535192.0,C,Matthew G. Martínez,United States,NORTHERN AMERICA,329878000.0
3767,805568724.0,C,Theodore Roosevelt Jr.,United States,NORTHERN AMERICA,329878000.0
3768,805569443.0,Start,Alfred Nakak,United States,NORTHERN AMERICA,329878000.0
3769,805571279.0,C,Donald W. Riegle Jr.,United States,NORTHERN AMERICA,329878000.0
3770,805638733.0,C,William F. Knowland,United States,NORTHERN AMERICA,329878000.0
3771,805651443.0,C,Ben Klassen,United States,NORTHERN AMERICA,329878000.0
3772,805683729.0,Start,Mark Costello (Oklahoma politician),United States,NORTHERN AMERICA,329878000.0
3773,805713742.0,C,Joe Foss,United States,NORTHERN AMERICA,329878000.0
3774,805772949.0,Stub,Moffie Funk,United States,NORTHERN AMERICA,329878000.0
3775,805779507.0,GA,Arthur A. Ballantine,United States,NORTHERN AMERICA,329878000.0
3776,805802544.0,C,Political boss,United States,NORTHERN AMERICA,329878000.0
3777,805827465.0,C,Schuyler family,United States,NORTHERN AMERICA,329878000.0
3778,805854822.0,GA,Buddy Roemer,United States,NORTHERN AMERICA,329878000.0
3779,805857707.0,GA,Victoria Lord,United States,NORTHERN AMERICA,329878000.0
3780,805863876.0,C,Bob Kerrey,United States,NORTHERN AMERICA,329878000.0
3781,805865647.0,GA,Nathan Deal,United States,NORTHERN AMERICA,329878000.0
3782,805927617.0,Start,Glenn Hearn,United States,NORTHERN AMERICA,329878000.0
3783,805927642.0,C,John C. Stennis,United States,NORTHERN AMERICA,329878000.0
3784,805934002.0,FA,Stephen Hopkins (politician),United States,NORTHERN AMERICA,329878000.0
3785,805955059.0,C,Jocelyn Benson,United States,NORTHERN AMERICA,329878000.0
3786,805980023.0,Stub,Victoria Neave,United States,NORTHERN AMERICA,329878000.0
3787,805997998.0,C,Dan White,United States,NORTHERN AMERICA,329878000.0
3788,806003157.0,C,Richard Dobbs Spaight,United States,NORTHERN AMERICA,329878000.0
3789,806027450.0,C,Koch family,United States,NORTHERN AMERICA,329878000.0
3790,806048772.0,FA,Thaddeus Stevens,United States,NORTHERN AMERICA,329878000.0
3791,806109794.0,C,Steve Kerrigan,United States,NORTHERN AMERICA,329878000.0
3792,806127336.0,Start,Quincy political family,United States,NORTHERN AMERICA,329878000.0
3793,806137279.0,Start,Lincoln family,United States,NORTHERN AMERICA,329878000.0
3794,806153574.0,Start,Widow's succession,United States,NORTHERN AMERICA,329878000.0
3795,806156996.0,B,Harrison family of Virginia,United States,NORTHERN AMERICA,329878000.0
3796,806157002.0,C,Lee family,United States,NORTHERN AMERICA,329878000.0
3797,806157006.0,C,Roosevelt family,United States,NORTHERN AMERICA,329878000.0
3798,806165568.0,GA,James Michael Curley,United States,NORTHERN AMERICA,329878000.0
3799,806176639.0,C,John H. Hager,United States,NORTHERN AMERICA,329878000.0
3800,806251135.0,FA,Smedley Butler,United States,NORTHERN AMERICA,329878000.0
3801,806265292.0,B,List of the first LGBT holders of political offices in the United States,United States,NORTHERN AMERICA,329878000.0
3802,806287221.0,C,Julius Stahel,United States,NORTHERN AMERICA,329878000.0
3803,806288612.0,B,List of richest American politicians,United States,NORTHERN AMERICA,329878000.0
3804,806367442.0,C,Patrick Miles Jr.,United States,NORTHERN AMERICA,329878000.0
3805,806372230.0,Start,Arthur Brown (Utah senator),United States,NORTHERN AMERICA,329878000.0
3806,806380699.0,C,Gouverneur Morris,United States,NORTHERN AMERICA,329878000.0
3807,806395302.0,C,James Henry Lane (Union general),United States,NORTHERN AMERICA,329878000.0
3808,806399157.0,Start,Rudy Moise,United States,NORTHERN AMERICA,329878000.0
3809,806406121.0,GA,James Forrestal,United States,NORTHERN AMERICA,329878000.0
3810,806438353.0,C,Grace Ross,United States,NORTHERN AMERICA,329878000.0
3811,806460970.0,Stub,Warren Daniel,United States,NORTHERN AMERICA,329878000.0
3812,806513820.0,Start,Marshall Parker,United States,NORTHERN AMERICA,329878000.0
3813,806545368.0,Start,Mike Jacobs (Georgia politician),United States,NORTHERN AMERICA,329878000.0
3814,806554506.0,GA,Clinton family,United States,NORTHERN AMERICA,329878000.0
3815,806563994.0,GA,Rick Perry,United States,NORTHERN AMERICA,329878000.0
3816,806570475.0,Stub,Nathaniel Ledbetter,United States,NORTHERN AMERICA,329878000.0
3817,806590590.0,Start,Marion B. Folsom,United States,NORTHERN AMERICA,329878000.0
3818,806592277.0,B,List of American federal politicians convicted of crimes,United States,NORTHERN AMERICA,329878000.0
3819,806618866.0,GA,List of United States politicians who have acknowledged cannabis use,United States,NORTHERN AMERICA,329878000.0
3820,806641448.0,C,Jim Jeffords,United States,NORTHERN AMERICA,329878000.0
3821,806650098.0,C,Bob Dole,United States,NORTHERN AMERICA,329878000.0
3822,806674128.0,B,Public image of Barack Obama,United States,NORTHERN AMERICA,329878000.0
3823,806674160.0,B,Criticism of Franklin D. Roosevelt,United States,NORTHERN AMERICA,329878000.0
3824,806676114.0,GA,Jack Kevorkian,United States,NORTHERN AMERICA,329878000.0
3825,806677734.0,C,George Lincoln Rockwell,United States,NORTHERN AMERICA,329878000.0
3826,806717973.0,C,Daniel Sickles,United States,NORTHERN AMERICA,329878000.0
3827,806719268.0,C,Greg Brannon,United States,NORTHERN AMERICA,329878000.0
3828,806754064.0,C,Bush family,United States,NORTHERN AMERICA,329878000.0
3829,806755755.0,GA,Public image of Bill Clinton,United States,NORTHERN AMERICA,329878000.0
3830,806757522.0,C,Allard K. Lowenstein,United States,NORTHERN AMERICA,329878000.0
3831,806771467.0,FA,Theodore Roosevelt,United States,NORTHERN AMERICA,329878000.0
3832,806774219.0,B,Family of Barack Obama,United States,NORTHERN AMERICA,329878000.0
3833,806818215.0,Start,John H. Wood Jr.,United States,NORTHERN AMERICA,329878000.0
3834,806833497.0,C,Kennedy family,United States,NORTHERN AMERICA,329878000.0
3835,806849567.0,Start,William S. Maynard,United States,NORTHERN AMERICA,329878000.0
3836,806859964.0,FA,James Strang,United States,NORTHERN AMERICA,329878000.0
3837,806921107.0,FA,Woodrow Wilson,United States,NORTHERN AMERICA,329878000.0
3838,806932052.0,FA,Evan Mecham,United States,NORTHERN AMERICA,329878000.0
3839,806961306.0,C,Joshua Chamberlain,United States,NORTHERN AMERICA,329878000.0
3840,807007010.0,FA,Cultural and political image of John McCain,United States,NORTHERN AMERICA,329878000.0
3841,807028903.0,C,John Schofield,United States,NORTHERN AMERICA,329878000.0
3842,807033614.0,C,Patrick Leahy,United States,NORTHERN AMERICA,329878000.0
3843,807034552.0,B,List of American state and local politicians convicted of crimes,United States,NORTHERN AMERICA,329878000.0
3844,807066604.0,B,"List of Hillary Clinton presidential campaign political endorsements, 2016",United States,NORTHERN AMERICA,329878000.0
3845,807110438.0,C,Robert Toombs,United States,NORTHERN AMERICA,329878000.0
3846,807113113.0,GA,Greg Abbott,United States,NORTHERN AMERICA,329878000.0
3847,807114797.0,B,Party switching in the United States,United States,NORTHERN AMERICA,329878000.0
3848,807127241.0,C,Strom Thurmond,United States,NORTHERN AMERICA,329878000.0
3849,807140113.0,B,List of African-American Republicans,United States,NORTHERN AMERICA,329878000.0
3850,807141944.0,C,Women in conservatism in the United States,United States,NORTHERN AMERICA,329878000.0
3851,807153248.0,C,Jim Justice,United States,NORTHERN AMERICA,329878000.0
3852,807174953.0,C,Michael Forbes,United States,NORTHERN AMERICA,329878000.0
3853,807193226.0,C,Jay R. Vargas,United States,NORTHERN AMERICA,329878000.0
3854,807224264.0,C,Judy Feder,United States,NORTHERN AMERICA,329878000.0
3855,807225049.0,C,John Pope (Kentucky politician),United States,NORTHERN AMERICA,329878000.0
3856,807240901.0,GA,Robert F. Kennedy,United States,NORTHERN AMERICA,329878000.0
3857,807247873.0,Start,Bruce R. Watkins,United States,NORTHERN AMERICA,329878000.0
3858,807249726.0,GA,Tammy Duckworth,United States,NORTHERN AMERICA,329878000.0
3859,807254420.0,Start,Darrell Kick,United States,NORTHERN AMERICA,329878000.0
3860,807271995.0,B,Angela Davis,United States,NORTHERN AMERICA,329878000.0
3861,807285819.0,C,Virgil Goode,United States,NORTHERN AMERICA,329878000.0
3862,807287067.0,C,Hillaryland,United States,NORTHERN AMERICA,329878000.0
3863,807298433.0,GA,Alexander Hamilton,United States,NORTHERN AMERICA,329878000.0
3864,807305287.0,Start,John Rood,United States,NORTHERN AMERICA,329878000.0
3865,807308113.0,Start,Edward I. Edwards,United States,NORTHERN AMERICA,329878000.0
3866,807336702.0,B,Environmental activism of Al Gore,United States,NORTHERN AMERICA,329878000.0
3867,807341393.0,Start,Stuart M. Gerson,United States,NORTHERN AMERICA,329878000.0
3868,807351794.0,C,Gabriel Rothblatt,United States,NORTHERN AMERICA,329878000.0
3869,807355312.0,GA,Charlie Crist,United States,NORTHERN AMERICA,329878000.0
3870,807355682.0,Start,Brian Fitzpatrick (American politician),United States,NORTHERN AMERICA,329878000.0
3871,807357467.0,C,Brian Mast,United States,NORTHERN AMERICA,329878000.0
3872,807361852.0,C,Breckinridge family,United States,NORTHERN AMERICA,329878000.0
3873,807367296.0,C,Joseph M. McCormick,United States,NORTHERN AMERICA,329878000.0
3874,807378110.0,B,First Family of the United States,United States,NORTHERN AMERICA,329878000.0
3875,807378589.0,C,Danica Roem,United States,NORTHERN AMERICA,329878000.0
3876,807378968.0,FA,Harvey Milk,United States,NORTHERN AMERICA,329878000.0
3877,807386502.0,B,Romney family,United States,NORTHERN AMERICA,329878000.0
3878,807395895.0,FA,Franklin D. Roosevelt,United States,NORTHERN AMERICA,329878000.0
3879,807396897.0,GA,Warren Terhune,United States,NORTHERN AMERICA,329878000.0
3880,807413826.0,Start,Washburn family,United States,NORTHERN AMERICA,329878000.0
3881,807428251.0,FA,John McCain,United States,NORTHERN AMERICA,329878000.0
3882,807429322.0,B,United States Attorneys appointed by Donald Trump,United States,NORTHERN AMERICA,329878000.0
3883,807439921.0,C,Political appointments by Donald Trump,United States,NORTHERN AMERICA,329878000.0
3884,807439945.0,C,Bob Stump (U.S. Congressman),United States,NORTHERN AMERICA,329878000.0
3885,807454637.0,GA,Mason family,United States,NORTHERN AMERICA,329878000.0
3886,807459157.0,Start,Jan Lee,United States,NORTHERN AMERICA,329878000.0
3887,807470407.0,Stub,Hans A. Aune,United States,NORTHERN AMERICA,329878000.0
3888,807473939.0,B,Huey Long,United States,NORTHERN AMERICA,329878000.0
3889,807473969.0,C,Hamilton family,United States,NORTHERN AMERICA,329878000.0
3890,807481636.0,C,Hal Bidlack,United States,NORTHERN AMERICA,329878000.0
3891,807483006.0,C,Lucius Fairchild,United States,NORTHERN AMERICA,329878000.0
3892,807483270.0,C,Francis Fessenden,United States,NORTHERN AMERICA,329878000.0
3893,492060822.0,Stub,Sheikh Sadiq Ali Ansari,India,SOUTH ASIA,1400100000.0
3894,638214719.0,Stub,Pheroze Sethna,India,SOUTH ASIA,1400100000.0
3895,638377138.0,Stub,Dilip Sarkar,India,SOUTH ASIA,1400100000.0
3896,648271473.0,Stub,Fathema Ismail,India,SOUTH ASIA,1400100000.0
3897,664822251.0,Stub,Political families of Odisha,India,SOUTH ASIA,1400100000.0
3898,668258382.0,Stub,Brij Bhushan Mehra,India,SOUTH ASIA,1400100000.0
3899,693337130.0,Stub,Lalbuaia,India,SOUTH ASIA,1400100000.0
3900,694588693.0,Stub,Mahadeo Deole,India,SOUTH ASIA,1400100000.0
3901,696606312.0,Stub,Electoral history of Atal Bihari Vajpayee,India,SOUTH ASIA,1400100000.0
3902,696608668.0,Stub,Palden Tsering Gyamtso,India,SOUTH ASIA,1400100000.0
3903,697662367.0,Stub,Gaya Prasad,India,SOUTH ASIA,1400100000.0
3904,698048774.0,Stub,S. Ganesan,India,SOUTH ASIA,1400100000.0
3905,705607317.0,Stub,Lalhmingthanga,India,SOUTH ASIA,1400100000.0
3906,705607410.0,Stub,Srirang Narvekar,India,SOUTH ASIA,1400100000.0
3907,708935044.0,Stub,Shakuntala Gamlin,India,SOUTH ASIA,1400100000.0
3908,709607698.0,Start,Jayant Prasad,India,SOUTH ASIA,1400100000.0
3909,711781073.0,Stub,Amolak Rattan Kohli,India,SOUTH ASIA,1400100000.0
3910,713133852.0,Stub,Rakesh Sood,India,SOUTH ASIA,1400100000.0
3911,714026654.0,Stub,Vatsu Meru,India,SOUTH ASIA,1400100000.0
3912,714430378.0,Stub,Kant Kishore Bhargava,India,SOUTH ASIA,1400100000.0
3913,714640755.0,Stub,Prabhat Prakash Shukla,India,SOUTH ASIA,1400100000.0
3914,716169915.0,Stub,Koora Rajanna,India,SOUTH ASIA,1400100000.0
3915,717912563.0,Stub,Shyamal Datta,India,SOUTH ASIA,1400100000.0
3916,718400488.0,Stub,Mukhi Gobindram Pritamdas,India,SOUTH ASIA,1400100000.0
3917,719056744.0,Stub,C. H. Sibghatullah,India,SOUTH ASIA,1400100000.0
3918,719422020.0,Stub,Mohammad Aslam Kohli,India,SOUTH ASIA,1400100000.0
3919,719811980.0,Stub,M. A. Kadar,India,SOUTH ASIA,1400100000.0
3920,720230222.0,Stub,Master Taj-ud-Din Ansari,India,SOUTH ASIA,1400100000.0
3921,720279719.0,Stub,Sanjeev Saxena,India,SOUTH ASIA,1400100000.0
3922,720284030.0,Stub,B. Mohan Reddy,India,SOUTH ASIA,1400100000.0
3923,720303644.0,Stub,Santiram Mahato,India,SOUTH ASIA,1400100000.0
3924,720429567.0,Stub,Sheikh Hissam-ud-Din,India,SOUTH ASIA,1400100000.0
3925,720494745.0,Stub,U. Rama Rao,India,SOUTH ASIA,1400100000.0
3926,720554317.0,Stub,Ashoknath Banerji,India,SOUTH ASIA,1400100000.0
3927,721201043.0,Stub,Madhav R. Bir,India,SOUTH ASIA,1400100000.0
3928,721391486.0,Stub,Joginder Pal Pandey,India,SOUTH ASIA,1400100000.0
3929,721394464.0,Stub,Jagat Ram Soondh,India,SOUTH ASIA,1400100000.0
3930,721713036.0,Stub,Mahendra Sarvaiya,India,SOUTH ASIA,1400100000.0
3931,721809950.0,Stub,Tej Singh (politician),India,SOUTH ASIA,1400100000.0
3932,722600003.0,Start,Azhikodan Raghavan,India,SOUTH ASIA,1400100000.0
3933,722745301.0,Stub,William Mackworth Young,India,SOUTH ASIA,1400100000.0
3934,723132931.0,Stub,P. Chandra Mohan,India,SOUTH ASIA,1400100000.0
3935,723341660.0,Stub,Mohammed Adam Mallik,India,SOUTH ASIA,1400100000.0
3936,723343448.0,Stub,Pu Zoduha,India,SOUTH ASIA,1400100000.0
3937,723352694.0,Start,Vinod Saroj,India,SOUTH ASIA,1400100000.0
3938,723439312.0,Stub,Jagadisan Mohandas Kumarappa,India,SOUTH ASIA,1400100000.0
3939,723631747.0,Stub,Moulana Abdullah Tari,India,SOUTH ASIA,1400100000.0
3940,724179391.0,Stub,M. D. R. Ramachandran,India,SOUTH ASIA,1400100000.0
3941,724628450.0,Stub,Kedar Nath Rai,India,SOUTH ASIA,1400100000.0
3942,724740096.0,Stub,Ngairangbam Bijoy Singh,India,SOUTH ASIA,1400100000.0
3943,724803914.0,Stub,Ch. Sarup Singh,India,SOUTH ASIA,1400100000.0
3944,725178575.0,Stub,K. R. Guruswami Iyer,India,SOUTH ASIA,1400100000.0
3945,725205938.0,Stub,Jagjivan Prasad Babu,India,SOUTH ASIA,1400100000.0
3946,725358923.0,Stub,Mohd. Ali Khan,India,SOUTH ASIA,1400100000.0
3947,725508627.0,Stub,Dinesh Chandra (politician),India,SOUTH ASIA,1400100000.0
3948,726493686.0,Stub,Kumar Sankar Roy,India,SOUTH ASIA,1400100000.0
3949,726846455.0,Stub,K. Vasudeva Aiyangar,India,SOUTH ASIA,1400100000.0
3950,728958694.0,Stub,Scato Swu,India,SOUTH ASIA,1400100000.0
3951,728993886.0,Start,Bhrigu Phukan,India,SOUTH ASIA,1400100000.0
3952,729877150.0,Stub,P. A. Mohideen,India,SOUTH ASIA,1400100000.0
3953,731125096.0,Stub,Sohan Singh Thandal,India,SOUTH ASIA,1400100000.0
3954,732643498.0,Stub,Srikumar Mukherjee,India,SOUTH ASIA,1400100000.0
3955,732801963.0,Stub,N Gokulakrishnan,India,SOUTH ASIA,1400100000.0
3956,732802068.0,Stub,Anil Kumar Sahani,India,SOUTH ASIA,1400100000.0
3957,732802209.0,Stub,Harivansh Narayan Singh,India,SOUTH ASIA,1400100000.0
3958,732802243.0,Stub,A V Swamy,India,SOUTH ASIA,1400100000.0
3959,733099701.0,Stub,Pabitra Kar,India,SOUTH ASIA,1400100000.0
3960,736324000.0,Stub,Lalsawia,India,SOUTH ASIA,1400100000.0
3961,737383830.0,Stub,Vedas Venkaiah,India,SOUTH ASIA,1400100000.0
3962,737765797.0,Stub,Lalit Kumar Debbarma,India,SOUTH ASIA,1400100000.0
3963,738225579.0,Start,K.A. Keraleeyan,India,SOUTH ASIA,1400100000.0
3964,738506882.0,Stub,Kizhekethil Chandy,India,SOUTH ASIA,1400100000.0
3965,738566806.0,Stub,Vasantham Karthikeyan,India,SOUTH ASIA,1400100000.0
3966,738642646.0,Stub,Bhagwati Singh,India,SOUTH ASIA,1400100000.0
3967,739559254.0,Stub,C. S. Ratnasabhapathy Mudaliar,India,SOUTH ASIA,1400100000.0
3968,739984310.0,Stub,Kamen Ringu,India,SOUTH ASIA,1400100000.0
3969,740014832.0,Stub,V. R. Ramanatha Iyer,India,SOUTH ASIA,1400100000.0
3970,740636552.0,Stub,Vinayak Sitaram Sarwate,India,SOUTH ASIA,1400100000.0
3971,740935302.0,Stub,R. K. Trivedi,India,SOUTH ASIA,1400100000.0
3972,740948267.0,Stub,Prabhudutt Brahmachari,India,SOUTH ASIA,1400100000.0
3973,741093977.0,Stub,Sardar Ridha Singh,India,SOUTH ASIA,1400100000.0
3974,741225037.0,Start,Syed Hussain Bilgrami,India,SOUTH ASIA,1400100000.0
3975,741263033.0,Stub,Ram Sathe,India,SOUTH ASIA,1400100000.0
3976,741541041.0,Stub,Gaganvihari Lallubhai Mehta,India,SOUTH ASIA,1400100000.0
3977,743806845.0,Stub,John Geekie,India,SOUTH ASIA,1400100000.0
3978,743974915.0,Start,Nihal Singh Takshak,India,SOUTH ASIA,1400100000.0
3979,744275939.0,Stub,Bindeshwari Prasad Verma,India,SOUTH ASIA,1400100000.0
3980,744562421.0,Stub,Mayimama Marakkar,India,SOUTH ASIA,1400100000.0
3981,745561376.0,Stub,Mohammad Majid Hussain,India,SOUTH ASIA,1400100000.0
3982,747089933.0,Stub,R. Swaminatha Merkondar,India,SOUTH ASIA,1400100000.0
3983,747242192.0,Stub,Suhasini Chattopadhyay,India,SOUTH ASIA,1400100000.0
3984,747263285.0,Stub,V. K. Duggal,India,SOUTH ASIA,1400100000.0
3985,748567593.0,Stub,Yashwant Singh (politician),India,SOUTH ASIA,1400100000.0
3986,749034711.0,Start,Monika Kapil Mohta,India,SOUTH ASIA,1400100000.0
3987,749084576.0,Stub,Vikram Sood,India,SOUTH ASIA,1400100000.0
3988,749155897.0,Stub,Nadimul Haque,India,SOUTH ASIA,1400100000.0
3989,749326866.0,Stub,A. M. Sahay,India,SOUTH ASIA,1400100000.0
3990,749354148.0,Stub,Thengamam Balakrishnan,India,SOUTH ASIA,1400100000.0
3991,750629406.0,Stub,Madan Bhatia,India,SOUTH ASIA,1400100000.0
3992,750640764.0,Stub,Lala Hansraj Gupta,India,SOUTH ASIA,1400100000.0
3993,751156832.0,Stub,Brajagopal Roy,India,SOUTH ASIA,1400100000.0
3994,751266631.0,Start,Lallan Prasad Singh,India,SOUTH ASIA,1400100000.0
3995,751308347.0,Start,Virendra Singh (Lokayukta),India,SOUTH ASIA,1400100000.0
3996,751321785.0,Stub,K. Punnaiah,India,SOUTH ASIA,1400100000.0
3997,751972699.0,Stub,Manager Singh,India,SOUTH ASIA,1400100000.0
3998,752262036.0,Start,Donald Friell McLeod,India,SOUTH ASIA,1400100000.0
3999,752804353.0,Stub,Kalyan Das Jain,India,SOUTH ASIA,1400100000.0
4000,752833350.0,Stub,O. Joy Singh,India,SOUTH ASIA,1400100000.0
4001,753235836.0,Stub,Rafiq Ahmed,India,SOUTH ASIA,1400100000.0
4002,753399588.0,Stub,Jyoti Khandelwal,India,SOUTH ASIA,1400100000.0
4003,753992078.0,Stub,Lalit Mohan Gandhi,India,SOUTH ASIA,1400100000.0
4004,754069400.0,Stub,Kurugondla Ramakrishna,India,SOUTH ASIA,1400100000.0
4005,754076679.0,Stub,Nelavala Subrahmanyam,India,SOUTH ASIA,1400100000.0
4006,754110642.0,Stub,G. Ganapati Sastriar,India,SOUTH ASIA,1400100000.0
4007,754527699.0,Stub,Ram Nath Thakur,India,SOUTH ASIA,1400100000.0
4008,755222236.0,Stub,Sridam Pal,India,SOUTH ASIA,1400100000.0
4009,755222720.0,Stub,Saroj Mukherjee,India,SOUTH ASIA,1400100000.0
4010,755224295.0,Stub,Brajamohan Jamatia,India,SOUTH ASIA,1400100000.0
4011,755224960.0,Stub,Ramendra Chandra Debnath,India,SOUTH ASIA,1400100000.0
4012,755225148.0,Stub,Sudhangshu Dasgupta,India,SOUTH ASIA,1400100000.0
4013,755627493.0,Stub,Chandulal Patel,India,SOUTH ASIA,1400100000.0
4014,755794988.0,Stub,V. Sivankutty,India,SOUTH ASIA,1400100000.0
4015,755895559.0,Stub,Savita Gupta,India,SOUTH ASIA,1400100000.0
4016,755895877.0,Stub,Sushma Singh,India,SOUTH ASIA,1400100000.0
4017,756023976.0,Start,Eken Riba,India,SOUTH ASIA,1400100000.0
4018,757432747.0,Stub,Hargovind Pant,India,SOUTH ASIA,1400100000.0
4019,757634461.0,Stub,W. Kulabindu Singh,India,SOUTH ASIA,1400100000.0
4020,758051315.0,Stub,Parvez Hashmi,India,SOUTH ASIA,1400100000.0
4021,759567624.0,Stub,R. Lakshmanan,India,SOUTH ASIA,1400100000.0
4022,759567804.0,Stub,S. Muthukaruppan,India,SOUTH ASIA,1400100000.0
4023,759573340.0,Stub,T. Rathinavel,India,SOUTH ASIA,1400100000.0
4024,759661223.0,Stub,SVSN Varma,India,SOUTH ASIA,1400100000.0
4025,759899434.0,Start,Prem Singh Tamang,India,SOUTH ASIA,1400100000.0
4026,760449447.0,Start,Shekhar Dutt,India,SOUTH ASIA,1400100000.0
4027,760487348.0,Stub,M. M. Ismail,India,SOUTH ASIA,1400100000.0
4028,760487381.0,Stub,Sundar Lal Khurana,India,SOUTH ASIA,1400100000.0
4029,760599350.0,Start,Political families of Tamil Nadu,India,SOUTH ASIA,1400100000.0
4030,760608625.0,Start,Political families of Rajasthan,India,SOUTH ASIA,1400100000.0
4031,760624699.0,Stub,Political families of Kerala,India,SOUTH ASIA,1400100000.0
4032,761006329.0,Stub,Jogendra Singh (politician),India,SOUTH ASIA,1400100000.0
4033,761006382.0,Stub,Raghukul Tilak,India,SOUTH ASIA,1400100000.0
4034,761007420.0,Stub,Navrang Lal Tibrewal,India,SOUTH ASIA,1400100000.0
4035,761160906.0,Stub,Pankaj Gupta (politician),India,SOUTH ASIA,1400100000.0
4036,761715082.0,Stub,M. Vaithianathan,India,SOUTH ASIA,1400100000.0
4037,762379528.0,Stub,Hangmila Shaiza,India,SOUTH ASIA,1400100000.0
4038,762551550.0,Stub,Ashok B. Gokhale,India,SOUTH ASIA,1400100000.0
4039,762869795.0,Stub,Balwant Singh Thind,India,SOUTH ASIA,1400100000.0
4040,763658724.0,Stub,Harnirpal Singh,India,SOUTH ASIA,1400100000.0
4041,764374988.0,Stub,R. V. Janakiraman,India,SOUTH ASIA,1400100000.0
4042,765045490.0,C,T. P. Chandrasekharan,India,SOUTH ASIA,1400100000.0
4043,765856753.0,Stub,Zosiama Pachuau,India,SOUTH ASIA,1400100000.0
4044,765965463.0,Stub,Gulam Rasool Balyawi,India,SOUTH ASIA,1400100000.0
4045,766225250.0,Stub,Gunanand Pathik,India,SOUTH ASIA,1400100000.0
4046,766234201.0,Stub,M.N. Jois,India,SOUTH ASIA,1400100000.0
4047,766262631.0,Stub,Nihar Mukherjee,India,SOUTH ASIA,1400100000.0
4048,766466221.0,Stub,Robert Romawia Royte,India,SOUTH ASIA,1400100000.0
4049,766549749.0,Stub,P. R. Sudhakara Lal,India,SOUTH ASIA,1400100000.0
4050,766766179.0,Stub,Ram Kumar Kashyap,India,SOUTH ASIA,1400100000.0
4051,766867424.0,Stub,Imtikumzuk,India,SOUTH ASIA,1400100000.0
4052,766967944.0,Stub,Thangjam Nandakishor Singh,India,SOUTH ASIA,1400100000.0
4053,767151456.0,Stub,Varinder Singh Bajwa,India,SOUTH ASIA,1400100000.0
4054,767151500.0,Stub,Raj Mohinder Singh Majitha,India,SOUTH ASIA,1400100000.0
4055,767176041.0,Stub,Nakul Das Rai,India,SOUTH ASIA,1400100000.0
4056,767176094.0,Stub,Sonam Gyatso Lepcha,India,SOUTH ASIA,1400100000.0
4057,767197489.0,Start,Golap Borbora,India,SOUTH ASIA,1400100000.0
4058,767198003.0,Stub,Binod Gowal,India,SOUTH ASIA,1400100000.0
4059,767198047.0,Stub,Gunin Hazarika,India,SOUTH ASIA,1400100000.0
4060,767200784.0,Stub,Radheshyam Biswas,India,SOUTH ASIA,1400100000.0
4061,767201049.0,Stub,Sirajuddin Ajmal,India,SOUTH ASIA,1400100000.0
4062,767355588.0,Stub,Moturu Hanumantha Rao,India,SOUTH ASIA,1400100000.0
4063,767442011.0,Start,K. A. P. Viswanatham,India,SOUTH ASIA,1400100000.0
4064,767490566.0,Stub,T. S. Patil,India,SOUTH ASIA,1400100000.0
4065,767572195.0,Stub,M. Subramaniam,India,SOUTH ASIA,1400100000.0
4066,767591238.0,Stub,Subrat Sahoo,India,SOUTH ASIA,1400100000.0
4067,767597890.0,Start,Bisahu Das Mahant,India,SOUTH ASIA,1400100000.0
4068,767975794.0,Stub,Mohan Lal Gupta,India,SOUTH ASIA,1400100000.0
4069,768683139.0,Stub,Raoof Valiullah,India,SOUTH ASIA,1400100000.0
4070,768683541.0,Stub,Mohammed Surti,India,SOUTH ASIA,1400100000.0
4071,768686718.0,Stub,Zile Ram Chochra,India,SOUTH ASIA,1400100000.0
4072,768686720.0,Stub,Ranjit Singh Chautala,India,SOUTH ASIA,1400100000.0
4073,768686723.0,Stub,Vinod Bhayana,India,SOUTH ASIA,1400100000.0
4074,768687722.0,Stub,Asha Kumari (politician),India,SOUTH ASIA,1400100000.0
4075,768755034.0,Stub,Kalidas Nag,India,SOUTH ASIA,1400100000.0
4076,769039973.0,Start,Nityananda Mohapatra,India,SOUTH ASIA,1400100000.0
4077,769119665.0,Start,Chandrashekhar Prasad,India,SOUTH ASIA,1400100000.0
4078,769130559.0,Stub,Chitlem Narsi Reddy,India,SOUTH ASIA,1400100000.0
4079,769504790.0,Stub,Ananta Narcina Naik,India,SOUTH ASIA,1400100000.0
4080,769504881.0,Stub,Govind Raghuchandra Acharya,India,SOUTH ASIA,1400100000.0
4081,769504974.0,Stub,Avertano Furtado,India,SOUTH ASIA,1400100000.0
4082,769530606.0,Stub,Mohinder Singh Chaudhury,India,SOUTH ASIA,1400100000.0
4083,769567371.0,Stub,Jai Prakash Verma,India,SOUTH ASIA,1400100000.0
4084,769615004.0,Stub,Khwaja Shams-ud-Din,India,SOUTH ASIA,1400100000.0
4085,769615091.0,Stub,Jagdish Raj Dubey,India,SOUTH ASIA,1400100000.0
4086,769615320.0,Start,Sheikh Mustafa Kamal,India,SOUTH ASIA,1400100000.0
4087,769615334.0,Stub,Devi Das Thakur,India,SOUTH ASIA,1400100000.0
4088,769615410.0,Start,Nazir Ahmad Laway,India,SOUTH ASIA,1400100000.0
4089,769617589.0,Stub,Ghulam Mustafa Bhat,India,SOUTH ASIA,1400100000.0
4090,769618705.0,Stub,Ghulam Mohammad Mir Magami,India,SOUTH ASIA,1400100000.0
4091,769620090.0,Stub,S. A. Shamim,India,SOUTH ASIA,1400100000.0
4092,769621650.0,Stub,Suresh Paswan,India,SOUTH ASIA,1400100000.0
4093,769621787.0,Stub,Ram Chandra Sahis,India,SOUTH ASIA,1400100000.0
4094,769621793.0,Stub,Umakant Rajak,India,SOUTH ASIA,1400100000.0
4095,769621837.0,Stub,Jagannath Mahto,India,SOUTH ASIA,1400100000.0
4096,769630655.0,Start,Mumtaz Begum (politician),India,SOUTH ASIA,1400100000.0
4097,769641902.0,Stub,Suresh Keswani,India,SOUTH ASIA,1400100000.0
4098,770265831.0,Start,Women's Reservation Bill,India,SOUTH ASIA,1400100000.0
4099,770300097.0,Stub,Shriman Narayan,India,SOUTH ASIA,1400100000.0
4100,770350230.0,Stub,Dilip Kumar Saikia,India,SOUTH ASIA,1400100000.0
4101,770580506.0,Stub,Admiral K. Sangma,India,SOUTH ASIA,1400100000.0
4102,770580584.0,Stub,Brening Sangma,India,SOUTH ASIA,1400100000.0
4103,770580683.0,Stub,Masonsing Sangma,India,SOUTH ASIA,1400100000.0
4104,770785890.0,Stub,Shivinder Singh Sidhu,India,SOUTH ASIA,1400100000.0
4105,771386645.0,Stub,K. G. Kenye,India,SOUTH ASIA,1400100000.0
4106,771664470.0,Start,Vinod Kumar Grover,India,SOUTH ASIA,1400100000.0
4107,771835254.0,Stub,Phillipole Marak,India,SOUTH ASIA,1400100000.0
4108,772135102.0,Stub,Khriehu Liezietsu,India,SOUTH ASIA,1400100000.0
4109,772317998.0,Stub,Harish Chandra Singh Rawat (politician),India,SOUTH ASIA,1400100000.0
4110,772709956.0,Stub,V. Chenthamarakshan,India,SOUTH ASIA,1400100000.0
4111,773555949.0,Stub,S. B. Tambe,India,SOUTH ASIA,1400100000.0
4112,773571501.0,Start,Ashok Kumar Walia,India,SOUTH ASIA,1400100000.0
4113,774012513.0,Stub,Abdul Khaleque (Assamese politician),India,SOUTH ASIA,1400100000.0
4114,774491511.0,Stub,Santosh Meena,India,SOUTH ASIA,1400100000.0
4115,774896841.0,Start,Yashodhar Phanse,India,SOUTH ASIA,1400100000.0
4116,775042583.0,Stub,Snehal Ambekar,India,SOUTH ASIA,1400100000.0
4117,775457351.0,Stub,Abdul Ghani Malik (politician),India,SOUTH ASIA,1400100000.0
4118,775631159.0,Stub,Bosiram Siram,India,SOUTH ASIA,1400100000.0
4119,775631187.0,Stub,Tangor Tapak,India,SOUTH ASIA,1400100000.0
4120,775636636.0,Start,Santiuse Kujur,India,SOUTH ASIA,1400100000.0
4121,775774630.0,Stub,"Mir Laiq Ali Khan, Salar Jung II",India,SOUTH ASIA,1400100000.0
4122,776197785.0,Stub,Lokanath Misra,India,SOUTH ASIA,1400100000.0
4123,776198912.0,Stub,T Thangzalam Haokip,India,SOUTH ASIA,1400100000.0
4124,776475986.0,Stub,Satyadev Katare,India,SOUTH ASIA,1400100000.0
4125,776653040.0,Stub,Muhammad Akbar Khan (politician),India,SOUTH ASIA,1400100000.0
4126,777322086.0,Stub,R. K. Chaudhary,India,SOUTH ASIA,1400100000.0
4127,777368063.0,Stub,S. Pandi,India,SOUTH ASIA,1400100000.0
4128,777455129.0,Stub,R. Srinivasan,India,SOUTH ASIA,1400100000.0
4129,777508272.0,Stub,Shyamali Gupta,India,SOUTH ASIA,1400100000.0
4130,777623116.0,Stub,Hari Krishna Shastri,India,SOUTH ASIA,1400100000.0
4131,777651279.0,Stub,Onkar Singh (politician),India,SOUTH ASIA,1400100000.0
4132,777909303.0,Stub,K. B. Lall,India,SOUTH ASIA,1400100000.0
4133,777939801.0,Stub,K. C. Rastogi,India,SOUTH ASIA,1400100000.0
4134,777940645.0,Stub,K. G. Ambegaonkar,India,SOUTH ASIA,1400100000.0
4135,778419320.0,C,N. Rangaswamy,India,SOUTH ASIA,1400100000.0
4136,778594387.0,Stub,Mohammad Sultan Tantray,India,SOUTH ASIA,1400100000.0
4137,778598945.0,Start,Pyarimohan Mohapatra,India,SOUTH ASIA,1400100000.0
4138,778605969.0,Stub,Bhaskar Tukaram Auti,India,SOUTH ASIA,1400100000.0
4139,778661491.0,Stub,Kewal Singh Dhillon,India,SOUTH ASIA,1400100000.0
4140,778768586.0,Stub,Haji Hussain Ansari,India,SOUTH ASIA,1400100000.0
4141,778783349.0,Stub,K. D. Sharma,India,SOUTH ASIA,1400100000.0
4142,778783483.0,Stub,K. Selvaraj,India,SOUTH ASIA,1400100000.0
4143,778783779.0,Start,Kanwal Sibal,India,SOUTH ASIA,1400100000.0
4144,778870925.0,Stub,Kihoto Hollon,India,SOUTH ASIA,1400100000.0
4145,778882962.0,Stub,Madhukar Bhosale,India,SOUTH ASIA,1400100000.0
4146,778907820.0,Start,Murtaza Ahmed Khan,India,SOUTH ASIA,1400100000.0
4147,778911531.0,Stub,Parinay Phuke,India,SOUTH ASIA,1400100000.0
4148,778914952.0,Stub,Vishnu Sadashiv Kokje,India,SOUTH ASIA,1400100000.0
4149,778916079.0,Stub,Rajani Rai,India,SOUTH ASIA,1400100000.0
4150,778923186.0,Stub,S. K. Bhatnagar,India,SOUTH ASIA,1400100000.0
4151,778933957.0,Stub,Thangkhangin Ngaihte,India,SOUTH ASIA,1400100000.0
4152,779062330.0,Start,Akbar Hydari,India,SOUTH ASIA,1400100000.0
4153,779475289.0,Stub,Narain Singh (politician),India,SOUTH ASIA,1400100000.0
4154,779476840.0,Stub,Sunil Singh (politician),India,SOUTH ASIA,1400100000.0
4155,779476976.0,Stub,Lajja Ram (politician),India,SOUTH ASIA,1400100000.0
4156,779542918.0,Stub,Sadabhau Khot,India,SOUTH ASIA,1400100000.0
4157,779581694.0,Start,Saryoo Singh,India,SOUTH ASIA,1400100000.0
4158,779665711.0,Stub,Brajbir Saran Das,India,SOUTH ASIA,1400100000.0
4159,779795100.0,Start,Arun Singh,India,SOUTH ASIA,1400100000.0
4160,779819115.0,Start,Political families of Madhya Pradesh,India,SOUTH ASIA,1400100000.0
4161,779939769.0,Stub,Darshan Singh Kaypee,India,SOUTH ASIA,1400100000.0
4162,780399858.0,Stub,Kuka Parray,India,SOUTH ASIA,1400100000.0
4163,780455934.0,Stub,Anubhav Patnaik,India,SOUTH ASIA,1400100000.0
4164,780625216.0,B,Political views of Subhas Chandra Bose,India,SOUTH ASIA,1400100000.0
4165,781604853.0,Start,Kamala Sinha,India,SOUTH ASIA,1400100000.0
4166,781815710.0,C,Parimal Nathwani,India,SOUTH ASIA,1400100000.0
4167,782032727.0,Stub,Suman Patil,India,SOUTH ASIA,1400100000.0
4168,782166820.0,Stub,Diwan Chaman Lall,India,SOUTH ASIA,1400100000.0
4169,782209943.0,GA,Allah Bux Soomro,India,SOUTH ASIA,1400100000.0
4170,782226599.0,Stub,Garikapati Mohan Rao,India,SOUTH ASIA,1400100000.0
4171,782233701.0,Stub,Haji Abdul Salam,India,SOUTH ASIA,1400100000.0
4172,782257988.0,Stub,Doman Singh Nagpure,India,SOUTH ASIA,1400100000.0
4173,782308382.0,Stub,Maharaja Sir Kishen Pershad,India,SOUTH ASIA,1400100000.0
4174,782354268.0,Stub,Iftikhar Khan (governor),India,SOUTH ASIA,1400100000.0
4175,782436817.0,Stub,G. Raj Kumar,India,SOUTH ASIA,1400100000.0
4176,782477269.0,Stub,Mukrand Rai,India,SOUTH ASIA,1400100000.0
4177,782485801.0,Start,K. Kannaiyan,India,SOUTH ASIA,1400100000.0
4178,782631095.0,Stub,Badal Patralekh,India,SOUTH ASIA,1400100000.0
4179,782691758.0,Stub,Kamal Singh Narzary,India,SOUTH ASIA,1400100000.0
4180,782768860.0,Start,Political families of Uttar Pradesh,India,SOUTH ASIA,1400100000.0
4181,783261429.0,C,Manoj Pradhan,India,SOUTH ASIA,1400100000.0
4182,783505381.0,Stub,Sukhdev Rajbhar,India,SOUTH ASIA,1400100000.0
4183,783597538.0,Start,Qudsia Begum,India,SOUTH ASIA,1400100000.0
4184,783625963.0,Stub,P. K. Banerjee (Indian diplomat),India,SOUTH ASIA,1400100000.0
4185,783796404.0,Start,Political families of Andhra Pradesh,India,SOUTH ASIA,1400100000.0
4186,784082773.0,Stub,Mahipal Shastri,India,SOUTH ASIA,1400100000.0
4187,784334470.0,C,Meghraj Tawar,India,SOUTH ASIA,1400100000.0
4188,784397096.0,Stub,Melhupra Vero,India,SOUTH ASIA,1400100000.0
4189,784634784.0,Stub,P. V. Kurian,India,SOUTH ASIA,1400100000.0
4190,784647544.0,Start,Chakravarthi V. Narasimhan,India,SOUTH ASIA,1400100000.0
4191,784656510.0,Stub,Shahab-ud-Din Virk,India,SOUTH ASIA,1400100000.0
4192,784656568.0,Start,Abdul Haye,India,SOUTH ASIA,1400100000.0
4193,784789944.0,Start,P. C. Bhattacharya,India,SOUTH ASIA,1400100000.0
4194,784799587.0,C,Uday Bhembre,India,SOUTH ASIA,1400100000.0
4195,785060541.0,Stub,Kandula Obul Reddy,India,SOUTH ASIA,1400100000.0
4196,785138921.0,Stub,Nagendra Nath Jha,India,SOUTH ASIA,1400100000.0
4197,785155525.0,Stub,Thakur Ram Singh (revolutionary),India,SOUTH ASIA,1400100000.0
4198,785263010.0,Start,Nand Kumar Patel,India,SOUTH ASIA,1400100000.0
4199,785263204.0,Stub,Uday Mudliyar,India,SOUTH ASIA,1400100000.0
4200,785288787.0,Stub,S.M. Siddaiah,India,SOUTH ASIA,1400100000.0
4201,785459160.0,Stub,Sangram Yadav,India,SOUTH ASIA,1400100000.0
4202,785509091.0,Stub,Chandra Prakash Choudhary,India,SOUTH ASIA,1400100000.0
4203,785792156.0,Stub,Tirong Aboh,India,SOUTH ASIA,1400100000.0
4204,785792184.0,Stub,Pasang Dorjee Sona,India,SOUTH ASIA,1400100000.0
4205,785792198.0,Stub,Tatung Jamoh,India,SOUTH ASIA,1400100000.0
4206,785792204.0,Stub,Nyamar Karbak,India,SOUTH ASIA,1400100000.0
4207,785792222.0,Stub,Wanglin Lowangdong,India,SOUTH ASIA,1400100000.0
4208,785792227.0,Stub,Punji Mara,India,SOUTH ASIA,1400100000.0
4209,785792238.0,Stub,Mutchu Mithi,India,SOUTH ASIA,1400100000.0
4210,785792256.0,Stub,Takam Pario,India,SOUTH ASIA,1400100000.0
4211,785792287.0,Stub,Likha Saaya,India,SOUTH ASIA,1400100000.0
4212,785792289.0,Stub,Wanglam Sawin,India,SOUTH ASIA,1400100000.0
4213,785792313.0,Stub,Pani Taram,India,SOUTH ASIA,1400100000.0
4214,785792318.0,Stub,Tsering Tashi,India,SOUTH ASIA,1400100000.0
4215,785899430.0,Stub,Sudarshan Agarwal,India,SOUTH ASIA,1400100000.0
4216,786044577.0,Stub,Thottakkattu Madhaviamma,India,SOUTH ASIA,1400100000.0
4217,786112902.0,C,Narmada Akka,India,SOUTH ASIA,1400100000.0
4218,786230150.0,Stub,Khalil ur Rahman (politician),India,SOUTH ASIA,1400100000.0
4219,786481109.0,Stub,Datta Dalvi,India,SOUTH ASIA,1400100000.0
4220,786538040.0,Stub,Najm-i-Sani dynasty,India,SOUTH ASIA,1400100000.0
4221,786591280.0,Stub,Inder Pal Khosla,India,SOUTH ASIA,1400100000.0
4222,786691702.0,Stub,Meera Deepak Yadav,India,SOUTH ASIA,1400100000.0
4223,786714076.0,Stub,S. S. Kolkebail,India,SOUTH ASIA,1400100000.0
4224,786876040.0,Stub,P. Selvie Das,India,SOUTH ASIA,1400100000.0
4225,787142416.0,Stub,A. K. S. Usgaonkar,India,SOUTH ASIA,1400100000.0
4226,787157759.0,Stub,Manmohan Malhoutra,India,SOUTH ASIA,1400100000.0
4227,787357232.0,Stub,"Gandhi, Fighter Without a Sword",India,SOUTH ASIA,1400100000.0
4228,787357762.0,Stub,Matters of Discretion,India,SOUTH ASIA,1400100000.0
4229,787357964.0,Stub,Letters from a Father to His Daughter,India,SOUTH ASIA,1400100000.0
4230,787683163.0,Stub,Nekkhomang Neihsial,India,SOUTH ASIA,1400100000.0
4231,787775041.0,Start,V. Venkatasubha Reddiar,India,SOUTH ASIA,1400100000.0
4232,788091312.0,Start,"Political families of Punjab, India",India,SOUTH ASIA,1400100000.0
4233,788225929.0,Stub,Harmeet Singh Kalka,India,SOUTH ASIA,1400100000.0
4234,788226101.0,Stub,Arti Mehra,India,SOUTH ASIA,1400100000.0
4235,788226833.0,Stub,Praful Goradia,India,SOUTH ASIA,1400100000.0
4236,788227720.0,Stub,Karan Dev Kamboj,India,SOUTH ASIA,1400100000.0
4237,788227958.0,Start,Rao Narbir Singh,India,SOUTH ASIA,1400100000.0
4238,788228676.0,Stub,Shamsheer Singh Manhas,India,SOUTH ASIA,1400100000.0
4239,788229081.0,Start,Mahesh Poddar,India,SOUTH ASIA,1400100000.0
4240,788231384.0,Stub,Sanjay Kakade,India,SOUTH ASIA,1400100000.0
4241,788232679.0,Stub,Gangmumei Kamei,India,SOUTH ASIA,1400100000.0
4242,788232701.0,Start,Radhabinod Koijam,India,SOUTH ASIA,1400100000.0
4243,788232721.0,Stub,Khwairakpam Loken Singh,India,SOUTH ASIA,1400100000.0
4244,788234283.0,Stub,Mohan Charan Majhi,India,SOUTH ASIA,1400100000.0
4245,788238079.0,Stub,Vembaukum Sadagopacharlu,India,SOUTH ASIA,1400100000.0
4246,788238631.0,Stub,Sami Venkatachalam Chetty,India,SOUTH ASIA,1400100000.0
4247,788422608.0,Stub,Angad Singh,India,SOUTH ASIA,1400100000.0
4248,788467526.0,C,Maya Kodnani,India,SOUTH ASIA,1400100000.0
4249,788482166.0,Stub,Rajinder Beri,India,SOUTH ASIA,1400100000.0
4250,788622834.0,Start,Mirza Mohammad Afzal Beg,India,SOUTH ASIA,1400100000.0
4251,788705779.0,Stub,Subhash Pasi,India,SOUTH ASIA,1400100000.0
4252,788705855.0,Stub,Sharad Vir Singh,India,SOUTH ASIA,1400100000.0
4253,788706986.0,Stub,Somjibhai Damor,India,SOUTH ASIA,1400100000.0
4254,788709265.0,C,Lalit Narayan Mishra,India,SOUTH ASIA,1400100000.0
4255,788709582.0,Stub,Abdul Rashid Shaheen,India,SOUTH ASIA,1400100000.0
4256,788713837.0,Stub,Sukhdev Singh Dhindsa,India,SOUTH ASIA,1400100000.0
4257,788714182.0,Stub,Tek Lal Mahto,India,SOUTH ASIA,1400100000.0
4258,788714542.0,Start,Harcharan Singh Brar,India,SOUTH ASIA,1400100000.0
4259,788714613.0,Start,Pusapati Vijayarama Gajapati Raju,India,SOUTH ASIA,1400100000.0
4260,788714784.0,Stub,K. L. Shrimali,India,SOUTH ASIA,1400100000.0
4261,788714872.0,Stub,Prem Kumar Sharma,India,SOUTH ASIA,1400100000.0
4262,788715119.0,Start,Pratap Chandra Chunder,India,SOUTH ASIA,1400100000.0
4263,788715122.0,Stub,Brij Lal Varma,India,SOUTH ASIA,1400100000.0
4264,788715322.0,Stub,Vishno Datt Sharma,India,SOUTH ASIA,1400100000.0
4265,788715449.0,Stub,Ujagar Singh Sekhwan,India,SOUTH ASIA,1400100000.0
4266,788715891.0,Start,Prem Singh Chandumajra,India,SOUTH ASIA,1400100000.0
4267,788716039.0,Start,Kamakhya Narain Singh,India,SOUTH ASIA,1400100000.0
4268,788716246.0,C,Aladi Aruna,India,SOUTH ASIA,1400100000.0
4269,788719482.0,Start,Dadichiluka Veera Gouri Sankara Rao,India,SOUTH ASIA,1400100000.0
4270,788719515.0,Stub,Surendra Mishra,India,SOUTH ASIA,1400100000.0
4271,788719751.0,Stub,P. A. Antony,India,SOUTH ASIA,1400100000.0
4272,788719799.0,Stub,Maulana Abdur Rahman,India,SOUTH ASIA,1400100000.0
4273,788719883.0,Start,Krishna Desai,India,SOUTH ASIA,1400100000.0
4274,788719990.0,Start,Hassan Khan,India,SOUTH ASIA,1400100000.0
4275,788720612.0,Stub,Muhi Ram Saikia,India,SOUTH ASIA,1400100000.0
4276,788720617.0,Stub,Liladhar Kotoki,India,SOUTH ASIA,1400100000.0
4277,788720727.0,Start,Neelalohithadasan Nadar,India,SOUTH ASIA,1400100000.0
4278,788721039.0,Stub,Pius Tirkey,India,SOUTH ASIA,1400100000.0
4279,788721217.0,Start,S. M. Banerjee,India,SOUTH ASIA,1400100000.0
4280,788721241.0,Stub,Chintaman Vanaga,India,SOUTH ASIA,1400100000.0
4281,788721424.0,Stub,Kanwar Lal Gupta,India,SOUTH ASIA,1400100000.0
4282,788721427.0,Stub,Manohar Lal Sondhi,India,SOUTH ASIA,1400100000.0
4283,788721553.0,Stub,Gopal Mayekar,India,SOUTH ASIA,1400100000.0
4284,788721884.0,Start,Surendranath Dwivedy,India,SOUTH ASIA,1400100000.0
4285,788722058.0,Stub,Dhanaji Sitaram Ahire,India,SOUTH ASIA,1400100000.0
4286,788722131.0,Stub,Thakur Baldev Singh,India,SOUTH ASIA,1400100000.0
4287,788722306.0,Stub,Kinder Lal,India,SOUTH ASIA,1400100000.0
4288,788722685.0,Stub,Maitreyee Bose,India,SOUTH ASIA,1400100000.0
4289,788722885.0,Stub,Ramakant Angle,India,SOUTH ASIA,1400100000.0
4290,788722887.0,Stub,Bhadreswar Tanti,India,SOUTH ASIA,1400100000.0
4291,788722918.0,Stub,Kalyan Jain,India,SOUTH ASIA,1400100000.0
4292,788723375.0,Stub,W. Wangyuh,India,SOUTH ASIA,1400100000.0
4293,788723378.0,Stub,Mani Charenamei,India,SOUTH ASIA,1400100000.0
4294,788723483.0,C,Madhu Koda,India,SOUTH ASIA,1400100000.0
4295,788723730.0,Stub,Harish Nagpal,India,SOUTH ASIA,1400100000.0
4296,788723948.0,Stub,Hemlal Murmu,India,SOUTH ASIA,1400100000.0
4297,788724171.0,Start,Sajjad Gani Lone,India,SOUTH ASIA,1400100000.0
4298,788724473.0,Start,Tarun Mandal,India,SOUTH ASIA,1400100000.0
4299,788724675.0,Stub,Rajan Sushant,India,SOUTH ASIA,1400100000.0
4300,788724982.0,Stub,Anand Sen Yadav,India,SOUTH ASIA,1400100000.0
4301,788725007.0,Start,Hemant Soren,India,SOUTH ASIA,1400100000.0
4302,788725122.0,Stub,Sewa Singh Sekhwan,India,SOUTH ASIA,1400100000.0
4303,788725225.0,Stub,Zafar Saifullah,India,SOUTH ASIA,1400100000.0
4304,788725403.0,Stub,C. M. Chang,India,SOUTH ASIA,1400100000.0
4305,788725468.0,Stub,Sharanjit Singh Dhillon,India,SOUTH ASIA,1400100000.0
4306,788725493.0,Stub,Ismail Hussain,India,SOUTH ASIA,1400100000.0
4307,788725509.0,Stub,Joseph Toppo,India,SOUTH ASIA,1400100000.0
4308,788725525.0,Stub,Arjun Roy,India,SOUTH ASIA,1400100000.0
4309,788725613.0,C,Pradeep Kumar Majhi,India,SOUTH ASIA,1400100000.0
4310,788726092.0,Stub,V. P. Sajeendran,India,SOUTH ASIA,1400100000.0
4311,788726271.0,Stub,Harmeet Singh Sandhu,India,SOUTH ASIA,1400100000.0
4312,788726430.0,Stub,Nawang Rigzin Jora,India,SOUTH ASIA,1400100000.0
4313,788727017.0,Stub,Yashwant Singh,India,SOUTH ASIA,1400100000.0
4314,788727047.0,Stub,Ranjit Singh Brahmpura,India,SOUTH ASIA,1400100000.0
4315,788727103.0,Stub,Joice George,India,SOUTH ASIA,1400100000.0
4316,788727152.0,Stub,Kamakhya Prasad Tasa,India,SOUTH ASIA,1400100000.0
4317,788727163.0,Stub,Dharmendra Kashyap,India,SOUTH ASIA,1400100000.0
4318,788727205.0,Stub,Vijay Hansdak,India,SOUTH ASIA,1400100000.0
4319,788727281.0,Stub,Tariq Hameed Karra,India,SOUTH ASIA,1400100000.0
4320,788727284.0,Stub,Sunil Kumar Singh,India,SOUTH ASIA,1400100000.0
4321,788727379.0,Stub,Tapas Mandal,India,SOUTH ASIA,1400100000.0
4322,788727530.0,Stub,Shrikant Shinde,India,SOUTH ASIA,1400100000.0
4323,788727561.0,Stub,Charanjeet Singh Rori,India,SOUTH ASIA,1400100000.0
4324,788727757.0,Stub,Krishan Tyagi,India,SOUTH ASIA,1400100000.0
4325,788727843.0,Stub,Vinayakrao Kishanrao Jadhav Patil,India,SOUTH ASIA,1400100000.0
4326,788727845.0,Stub,Sangram Arun Jagtap,India,SOUTH ASIA,1400100000.0
4327,788727861.0,Stub,Shirish Hiralal Chaudhari,India,SOUTH ASIA,1400100000.0
4328,788727885.0,Stub,Ravi Rana,India,SOUTH ASIA,1400100000.0
4329,788728009.0,Stub,Sat Prakash Rana,India,SOUTH ASIA,1400100000.0
4330,788728013.0,Stub,Ajeet Singh Kharkhari,India,SOUTH ASIA,1400100000.0
4331,788728032.0,Start,Ajay Dutt,India,SOUTH ASIA,1400100000.0
4332,788728055.0,Stub,Praveen Kumar (Delhi politician),India,SOUTH ASIA,1400100000.0
4333,788728068.0,Stub,Shiv Charan Goel,India,SOUTH ASIA,1400100000.0
4334,788728077.0,Stub,Vijender Garg Vijay,India,SOUTH ASIA,1400100000.0
4335,788728096.0,Stub,Rajesh Gupta,India,SOUTH ASIA,1400100000.0
4336,788728103.0,Start,Ajesh Yadav,India,SOUTH ASIA,1400100000.0
4337,788728119.0,Start,Shri Dutt Sharma,India,SOUTH ASIA,1400100000.0
4338,788728123.0,Stub,Rituraj Govind,India,SOUTH ASIA,1400100000.0
4339,788728136.0,Stub,Sukhvir Singh,India,SOUTH ASIA,1400100000.0
4340,788728302.0,Stub,Anil Sukhdevrao Bonde,India,SOUTH ASIA,1400100000.0
4341,788728347.0,Stub,Pankaj Bhujbal,India,SOUTH ASIA,1400100000.0
4342,788728492.0,Stub,Anosh Ekka,India,SOUTH ASIA,1400100000.0
4343,788728494.0,Stub,Bhanu Pratap Sahi,India,SOUTH ASIA,1400100000.0
4344,788728497.0,Stub,Pradeep Hemsingh Jadhav,India,SOUTH ASIA,1400100000.0
4345,788728536.0,Stub,Vasantrao Balwantrao Chavan,India,SOUTH ASIA,1400100000.0
4346,788728613.0,Start,Aneesurrehman,India,SOUTH ASIA,1400100000.0
4347,788728977.0,Stub,Ulhas Patil,India,SOUTH ASIA,1400100000.0
4348,788729238.0,Stub,Gaveet Nirmala Ramesh,India,SOUTH ASIA,1400100000.0
4349,788729435.0,Stub,Brindaban Goswami,India,SOUTH ASIA,1400100000.0
4350,788729523.0,Stub,Girindra Kumar Baruah,India,SOUTH ASIA,1400100000.0
4351,788729530.0,Stub,Phani Bhusan Choudhury,India,SOUTH ASIA,1400100000.0
4352,788729609.0,Stub,Bhabesh Kalita,India,SOUTH ASIA,1400100000.0
4353,788729803.0,Stub,Emmanuel Mosahary,India,SOUTH ASIA,1400100000.0
4354,788729937.0,Stub,Altaf Ahmad Wani,India,SOUTH ASIA,1400100000.0
4355,788729976.0,Stub,Jayantbhai Patel Boskey,India,SOUTH ASIA,1400100000.0
4356,788730179.0,Stub,Geeta Koda,India,SOUTH ASIA,1400100000.0
4357,788730183.0,Stub,Vikash Kumar Munda,India,SOUTH ASIA,1400100000.0
4358,788730186.0,Stub,Raj Kishore Mahato,India,SOUTH ASIA,1400100000.0
4359,788730189.0,Stub,Pawan Kumar Gupta,India,SOUTH ASIA,1400100000.0
4360,788730202.0,Stub,Karam Shyam,India,SOUTH ASIA,1400100000.0
4361,788730290.0,Stub,Neel Ratan,India,SOUTH ASIA,1400100000.0
4362,788730308.0,Stub,Hariram (politician),India,SOUTH ASIA,1400100000.0
4363,788730311.0,Stub,Rahul Prakash,India,SOUTH ASIA,1400100000.0
4364,788730317.0,Stub,Triveni Ram,India,SOUTH ASIA,1400100000.0
4365,788730320.0,Stub,Ramanand Baudh,India,SOUTH ASIA,1400100000.0
4366,788730325.0,Stub,Leena Tiwari,India,SOUTH ASIA,1400100000.0
4367,788730330.0,Stub,Amar Singh Chaudhary,India,SOUTH ASIA,1400100000.0
4368,788730333.0,Stub,Jamuna Prasad,India,SOUTH ASIA,1400100000.0
4369,788764098.0,C,M. Appavu,India,SOUTH ASIA,1400100000.0
4370,788764209.0,Start,A. N. Munirathinam,India,SOUTH ASIA,1400100000.0
4371,788764226.0,Start,M. Abdul Lathief,India,SOUTH ASIA,1400100000.0
4372,788764305.0,Stub,C. Chandrasekaran,India,SOUTH ASIA,1400100000.0
4373,788764592.0,Stub,B. M. Mubarak,India,SOUTH ASIA,1400100000.0
4374,788890404.0,Stub,Amjed Ullah Khan,India,SOUTH ASIA,1400100000.0
4375,788966222.0,Start,Anand Kumar (sociologist),India,SOUTH ASIA,1400100000.0
4376,788967812.0,Start,Lal Bahadur Basnet,India,SOUTH ASIA,1400100000.0
4377,789139087.0,C,Partap Singh Kairon,India,SOUTH ASIA,1400100000.0
4378,789230984.0,Stub,Nawab Ali Haider Khan,India,SOUTH ASIA,1400100000.0
4379,789246211.0,Stub,Animesh Debbarma,India,SOUTH ASIA,1400100000.0
4380,789321136.0,Start,Eli Ben-Menachem,India,SOUTH ASIA,1400100000.0
4381,789368369.0,Start,Malkiat Singh Sidhu,India,SOUTH ASIA,1400100000.0
4382,789427354.0,Stub,Badri Datt Pandey,India,SOUTH ASIA,1400100000.0
4383,789427710.0,Stub,Lalit Kumar (politician),India,SOUTH ASIA,1400100000.0
4384,789444400.0,Stub,Honey Benjamin,India,SOUTH ASIA,1400100000.0
4385,789444445.0,Start,V. Rajendrababu,India,SOUTH ASIA,1400100000.0
4386,789591739.0,Stub,Araber Rahaman,India,SOUTH ASIA,1400100000.0
4387,789735448.0,Start,Lalit Maken,India,SOUTH ASIA,1400100000.0
4388,789735998.0,Start,Darshan Singh Canadian,India,SOUTH ASIA,1400100000.0
4389,789736744.0,Start,Shaminder Singh,India,SOUTH ASIA,1400100000.0
4390,789761024.0,Start,Muzaffar Hussain Baig,India,SOUTH ASIA,1400100000.0
4391,789808071.0,Start,Rajkumar Rai,India,SOUTH ASIA,1400100000.0
4392,789837081.0,Stub,Chinmaya Gharekhan,India,SOUTH ASIA,1400100000.0
4393,789847231.0,Stub,Shashank (diplomat),India,SOUTH ASIA,1400100000.0
4394,789891149.0,Start,Asgar Ali Karbalai,India,SOUTH ASIA,1400100000.0
4395,789891504.0,Stub,Herbert William Emerson,India,SOUTH ASIA,1400100000.0
4396,789915325.0,Stub,Ashok Parnami,India,SOUTH ASIA,1400100000.0
4397,790082992.0,Start,Azimulhaq Pahalwan,India,SOUTH ASIA,1400100000.0
4398,790100161.0,Start,Fazal Ali,India,SOUTH ASIA,1400100000.0
4399,790235504.0,Start,Shibdas Ghosh,India,SOUTH ASIA,1400100000.0
4400,790328535.0,Stub,Dalip Mehta,India,SOUTH ASIA,1400100000.0
4401,790328590.0,Start,Aftab Seth,India,SOUTH ASIA,1400100000.0
4402,790334458.0,Start,Pulavar K. Govindan,India,SOUTH ASIA,1400100000.0
4403,790378354.0,Start,T. N. Sadalakshmi,India,SOUTH ASIA,1400100000.0
4404,790453225.0,Stub,Kanwar Lal Meena,India,SOUTH ASIA,1400100000.0
4405,790461095.0,Start,And Who Will Make the Chapatis?,India,SOUTH ASIA,1400100000.0
4406,790823169.0,Start,Omprakash Babarao Kadu,India,SOUTH ASIA,1400100000.0
4407,790914932.0,Stub,Bedabrata Barua,India,SOUTH ASIA,1400100000.0
4408,790971111.0,C,Sheila Kaul,India,SOUTH ASIA,1400100000.0
4409,790971261.0,Start,Lakshmi N. Menon,India,SOUTH ASIA,1400100000.0
4410,790971572.0,C,Sathyavani Muthu,India,SOUTH ASIA,1400100000.0
4411,790974018.0,Stub,Sanchaman Limboo,India,SOUTH ASIA,1400100000.0
4412,791295147.0,Stub,Bhagwan Singh Gyanee,India,SOUTH ASIA,1400100000.0
4413,791319177.0,Stub,Bhojsing Gurdinomal Pahalajani,India,SOUTH ASIA,1400100000.0
4414,791368367.0,Stub,Kumar Sushant Singh,India,SOUTH ASIA,1400100000.0
4415,791419006.0,Stub,Kamal Kishore Bhagat,India,SOUTH ASIA,1400100000.0
4416,791419100.0,Start,Rasheed Masood,India,SOUTH ASIA,1400100000.0
4417,791419261.0,Start,Jagdish Sharma,India,SOUTH ASIA,1400100000.0
4418,791432933.0,Stub,C.P. Narayanan,India,SOUTH ASIA,1400100000.0
4419,791485337.0,Start,Binay Ranjan Sen,India,SOUTH ASIA,1400100000.0
4420,791557518.0,Start,Khagendra Nath Dasgupta,India,SOUTH ASIA,1400100000.0
4421,791609826.0,Start,Shurhozelie Liezietsu,India,SOUTH ASIA,1400100000.0
4422,791693207.0,Start,Arun Kumar Singh,India,SOUTH ASIA,1400100000.0
4423,791722663.0,Stub,Jaffer Hussain,India,SOUTH ASIA,1400100000.0
4424,791730250.0,Stub,Amarnath Gami,India,SOUTH ASIA,1400100000.0
4425,791767179.0,Start,Jagannath Mishra,India,SOUTH ASIA,1400100000.0
4426,791824057.0,Stub,Gurjeet Singh Aujla,India,SOUTH ASIA,1400100000.0
4427,791948212.0,Start,Hari Dev Joshi,India,SOUTH ASIA,1400100000.0
4428,791972162.0,Stub,As'ad Madani,India,SOUTH ASIA,1400100000.0
4429,791994111.0,Stub,V. C. Palanisami Gounder,India,SOUTH ASIA,1400100000.0
4430,792057608.0,Start,Hemchandra Kanungo,India,SOUTH ASIA,1400100000.0
4431,792077230.0,Stub,David Jacob Cohen,India,SOUTH ASIA,1400100000.0
4432,792161177.0,Start,Political families of West Bengal,India,SOUTH ASIA,1400100000.0
4433,792162276.0,Stub,Parthasarathy Reddy,India,SOUTH ASIA,1400100000.0
4434,792184118.0,Stub,C. Jayan Babu,India,SOUTH ASIA,1400100000.0
4435,792184265.0,Stub,M. Bhaskaran,India,SOUTH ASIA,1400100000.0
4436,792315756.0,Stub,K. Venkatesh,India,SOUTH ASIA,1400100000.0
4437,792316482.0,C,Madhavrao Bagal,India,SOUTH ASIA,1400100000.0
4438,792391246.0,Start,K. Kunhali,India,SOUTH ASIA,1400100000.0
4439,792507219.0,Start,Shanti Swaroop Dhavan,India,SOUTH ASIA,1400100000.0
4440,792590145.0,Start,Alimineti Madhava Reddy,India,SOUTH ASIA,1400100000.0
4441,792896300.0,Stub,Satish Chavan,India,SOUTH ASIA,1400100000.0
4442,793028762.0,Start,Minimata Agam Dass Guru,India,SOUTH ASIA,1400100000.0
4443,793107823.0,Stub,Mohan Lal Chakma,India,SOUTH ASIA,1400100000.0
4444,793209526.0,Start,Kalpana Saini,India,SOUTH ASIA,1400100000.0
4445,793216451.0,Stub,Sanju Devi,India,SOUTH ASIA,1400100000.0
4446,793216514.0,Stub,Brahm Dutt Dwivedi,India,SOUTH ASIA,1400100000.0
4447,793216860.0,Stub,Rajbala,India,SOUTH ASIA,1400100000.0
4448,793217757.0,Stub,Vikramjeet (politician),India,SOUTH ASIA,1400100000.0
4449,793218288.0,Stub,Sahender Singh,India,SOUTH ASIA,1400100000.0
4450,793221762.0,Start,Ambika Soni,India,SOUTH ASIA,1400100000.0
4451,793222263.0,Stub,Kahkashan Perween,India,SOUTH ASIA,1400100000.0
4452,793222606.0,C,Mahila Rashtriya Sangha,India,SOUTH ASIA,1400100000.0
4453,793225033.0,Stub,Chandrima Bhattacharya,India,SOUTH ASIA,1400100000.0
4454,793244092.0,Start,Haider Aziz Safwi,India,SOUTH ASIA,1400100000.0
4455,793341226.0,Stub,Maganbhai Barot,India,SOUTH ASIA,1400100000.0
4456,793354600.0,Stub,Ranbir Singh Prajapati,India,SOUTH ASIA,1400100000.0
4457,793359998.0,Stub,Akshay Pratap Singh,India,SOUTH ASIA,1400100000.0
4458,793360527.0,Stub,Dipak Singh,India,SOUTH ASIA,1400100000.0
4459,793632365.0,Stub,Hanif Awan,India,SOUTH ASIA,1400100000.0
4460,793796106.0,Stub,Nihim D. Shira,India,SOUTH ASIA,1400100000.0
4461,794088033.0,Stub,Chow Tewa Mein,India,SOUTH ASIA,1400100000.0
4462,794174191.0,Stub,Niral Enem Horo,India,SOUTH ASIA,1400100000.0
4463,794204619.0,Start,Birajit Sinha,India,SOUTH ASIA,1400100000.0
4464,794205529.0,Stub,T N Haokip,India,SOUTH ASIA,1400100000.0
4465,794262328.0,Stub,Mohammed Faizal P. P.,India,SOUTH ASIA,1400100000.0
4466,794386188.0,Start,Santokben Jadeja,India,SOUTH ASIA,1400100000.0
4467,794462074.0,Start,Meera Shankar,India,SOUTH ASIA,1400100000.0
4468,794539329.0,Stub,Kali Ranjan Deb,India,SOUTH ASIA,1400100000.0
4469,794735307.0,Stub,Hit Abhilashi,India,SOUTH ASIA,1400100000.0
4470,794780127.0,C,Balwantrai Mehta,India,SOUTH ASIA,1400100000.0
4471,795164328.0,Start,One Life Is Not Enough,India,SOUTH ASIA,1400100000.0
4472,795345107.0,Stub,Anthony Lancelot Dias,India,SOUTH ASIA,1400100000.0
4473,795394882.0,Stub,Hemesh Kharkwal,India,SOUTH ASIA,1400100000.0
4474,795464599.0,Start,Armstrong Pame,India,SOUTH ASIA,1400100000.0
4475,795608804.0,Start,Shyamal Kumar Sen,India,SOUTH ASIA,1400100000.0
4476,795752935.0,Stub,Sudesh Mahto,India,SOUTH ASIA,1400100000.0
4477,795816231.0,Start,Bibha Ghosh Goswami,India,SOUTH ASIA,1400100000.0
4478,795900234.0,Stub,Peela Govinda Satyanarayana,India,SOUTH ASIA,1400100000.0
4479,795921402.0,Start,Brahm Prakash (politician),India,SOUTH ASIA,1400100000.0
4480,796094124.0,Stub,Debabrata Bandyopadhyay,India,SOUTH ASIA,1400100000.0
4481,796304081.0,Stub,Naina Singh Chautala,India,SOUTH ASIA,1400100000.0
4482,796304094.0,Start,Deepa Dasmunsi,India,SOUTH ASIA,1400100000.0
4483,796304143.0,Start,P. K. Jayalakshmi,India,SOUTH ASIA,1400100000.0
4484,796304166.0,Stub,Panabaka Lakshmi,India,SOUTH ASIA,1400100000.0
4485,796304175.0,Start,Niranjan Jyoti,India,SOUTH ASIA,1400100000.0
4486,796304183.0,Stub,Paramjit Kaur Gulshan,India,SOUTH ASIA,1400100000.0
4487,796338486.0,Stub,Kamsa Meghwal,India,SOUTH ASIA,1400100000.0
4488,796390599.0,Start,Birendra Narayan Chakraborty,India,SOUTH ASIA,1400100000.0
4489,796410046.0,Stub,Ajjampur Rangaiah Ghanashyam,India,SOUTH ASIA,1400100000.0
4490,796537845.0,Stub,Ashley J. Tellis,India,SOUTH ASIA,1400100000.0
4491,796547745.0,Stub,Political families of Gujarat,India,SOUTH ASIA,1400100000.0
4492,796666016.0,C,Jaipal Reddy,India,SOUTH ASIA,1400100000.0
4493,796855002.0,Stub,Vishnu Gupta,India,SOUTH ASIA,1400100000.0
4494,796887436.0,Start,Thupstan Chhewang,India,SOUTH ASIA,1400100000.0
4495,796921779.0,Stub,Jaleshwar Mahato,India,SOUTH ASIA,1400100000.0
4496,797060452.0,Stub,Sibakatullah Ansari,India,SOUTH ASIA,1400100000.0
4497,797122457.0,Stub,M. M. Rajendran,India,SOUTH ASIA,1400100000.0
4498,797181768.0,Start,Ch. Chhunga,India,SOUTH ASIA,1400100000.0
4499,797184459.0,Stub,Mohammad Shafi Bhat,India,SOUTH ASIA,1400100000.0
4500,797221701.0,Start,Raj Kumar Jaichandra Singh,India,SOUTH ASIA,1400100000.0
4501,797344435.0,Start,Nagore E. M. Hanifa,India,SOUTH ASIA,1400100000.0
4502,797363573.0,Stub,Sunil Chhatrapal Kedar,India,SOUTH ASIA,1400100000.0
4503,797407357.0,Stub,Bhairab Dutt Pande,India,SOUTH ASIA,1400100000.0
4504,797479404.0,Stub,Gopi Chand Bhargava,India,SOUTH ASIA,1400100000.0
4505,797671490.0,Stub,Banda Karthika Reddy,India,SOUTH ASIA,1400100000.0
4506,797675693.0,Stub,Hemant Katare,India,SOUTH ASIA,1400100000.0
4507,797697432.0,Stub,William Lee-Warner,India,SOUTH ASIA,1400100000.0
4508,797756385.0,Start,Teja Singh Akarpuri,India,SOUTH ASIA,1400100000.0
4509,797805370.0,Start,Sukhbans Kaur Bhinder,India,SOUTH ASIA,1400100000.0
4510,797864518.0,GA,Soni Sori,India,SOUTH ASIA,1400100000.0
4511,798236459.0,Start,Heera Saraniya,India,SOUTH ASIA,1400100000.0
4512,798314604.0,Start,Sunila Devi,India,SOUTH ASIA,1400100000.0
4513,798317896.0,Stub,Dola Sen,India,SOUTH ASIA,1400100000.0
4514,798337847.0,Stub,Dharambir,India,SOUTH ASIA,1400100000.0
4515,798458314.0,Start,Tariq Anwar (politician),India,SOUTH ASIA,1400100000.0
4516,798462703.0,Stub,T. S. Bajwa,India,SOUTH ASIA,1400100000.0
4517,798482202.0,Stub,Rajinder Kaur,India,SOUTH ASIA,1400100000.0
4518,798492139.0,Stub,Kamini Jindal,India,SOUTH ASIA,1400100000.0
4519,798507651.0,Start,Somnath Lahiri,India,SOUTH ASIA,1400100000.0
4520,798531706.0,Start,K. S. Sabarinathan,India,SOUTH ASIA,1400100000.0
4521,798550386.0,Start,Om Prakash Chautala,India,SOUTH ASIA,1400100000.0
4522,798591279.0,Stub,Veena Shahi,India,SOUTH ASIA,1400100000.0
4523,798591307.0,Stub,Suman Mahato,India,SOUTH ASIA,1400100000.0
4524,798591335.0,Start,Mamtaz Sanghamita,India,SOUTH ASIA,1400100000.0
4525,798591337.0,Stub,Uma Saren,India,SOUTH ASIA,1400100000.0
4526,798591341.0,Stub,Neelam Sonkar,India,SOUTH ASIA,1400100000.0
4527,798591447.0,Stub,Savitri Thakur,India,SOUTH ASIA,1400100000.0
4528,798591716.0,Start,Begum Akbar Jehan Abdullah,India,SOUTH ASIA,1400100000.0
4529,798591718.0,Stub,Akkamma Devi,India,SOUTH ASIA,1400100000.0
4530,798591724.0,Start,Sarojini Mahishi,India,SOUTH ASIA,1400100000.0
4531,798591730.0,Start,Satwinder Kaur Dhaliwal,India,SOUTH ASIA,1400100000.0
4532,798591732.0,Stub,Annai Meenambal Shivaraj,India,SOUTH ASIA,1400100000.0
4533,798591753.0,Start,Bijoya Chakravarty,India,SOUTH ASIA,1400100000.0
4534,798591770.0,Start,Chandresh Kumari Katoch,India,SOUTH ASIA,1400100000.0
4535,798591772.0,C,Renuka Chowdhury,India,SOUTH ASIA,1400100000.0
4536,798591777.0,Stub,Kailasho Devi,India,SOUTH ASIA,1400100000.0
4537,798591781.0,C,Preneet Kaur,India,SOUTH ASIA,1400100000.0
4538,798591892.0,Start,Rita Verma,India,SOUTH ASIA,1400100000.0
4539,798591916.0,Start,Suryakanta Patil,India,SOUTH ASIA,1400100000.0
4540,798591931.0,Start,Girija Vyas,India,SOUTH ASIA,1400100000.0
4541,798594242.0,Start,Ranee Narah,India,SOUTH ASIA,1400100000.0
4542,798595421.0,Start,Sushila Nayyar,India,SOUTH ASIA,1400100000.0
4543,798595805.0,Stub,R. Bindu,India,SOUTH ASIA,1400100000.0
4544,798595849.0,Stub,Sabitha Beegam,India,SOUTH ASIA,1400100000.0
4545,798672443.0,Stub,Sidharth Kuncalienker,India,SOUTH ASIA,1400100000.0
4546,798840765.0,Stub,Raj Kumar Ranbir Singh,India,SOUTH ASIA,1400100000.0
4547,798860488.0,Stub,Sangam Lal Gupta,India,SOUTH ASIA,1400100000.0
4548,799020036.0,Start,Dasarathi Tah,India,SOUTH ASIA,1400100000.0
4549,799155296.0,Start,Vijay Kumar Shukla,India,SOUTH ASIA,1400100000.0
4550,799185547.0,Stub,Phosum Khimhun,India,SOUTH ASIA,1400100000.0
4551,799254441.0,Stub,G. Kuchelar,India,SOUTH ASIA,1400100000.0
4552,799356960.0,Stub,Sanjiv Kumar (politician),India,SOUTH ASIA,1400100000.0
4553,799524405.0,Start,K. Kalyanasundaramier,India,SOUTH ASIA,1400100000.0
4554,799799902.0,Stub,Dharti Pakad,India,SOUTH ASIA,1400100000.0
4555,799831250.0,Start,Beant Singh (chief minister),India,SOUTH ASIA,1400100000.0
4556,799855926.0,Start,Purushottam Mavalankar,India,SOUTH ASIA,1400100000.0
4557,799962674.0,Start,Vivek Gupta,India,SOUTH ASIA,1400100000.0
4558,800008816.0,Start,Anant Kumar Singh,India,SOUTH ASIA,1400100000.0
4559,800051636.0,Stub,Ngamthang Haokip,India,SOUTH ASIA,1400100000.0
4560,800071527.0,Stub,Neeraj Chaturvedi,India,SOUTH ASIA,1400100000.0
4561,800074918.0,Start,Disqualification of convicted representatives in India,India,SOUTH ASIA,1400100000.0
4562,800084940.0,C,Francisco Pacheco (politician),India,SOUTH ASIA,1400100000.0
4563,800111753.0,Stub,Lalit Nagar,India,SOUTH ASIA,1400100000.0
4564,800129147.0,Start,Shakeel Ahmad Khan,India,SOUTH ASIA,1400100000.0
4565,800156436.0,Start,Shubha Raul,India,SOUTH ASIA,1400100000.0
4566,800198207.0,Stub,Amerika Pradhan,India,SOUTH ASIA,1400100000.0
4567,800227673.0,Start,Rao Dan Singh,India,SOUTH ASIA,1400100000.0
4568,800298539.0,Start,Political families of India,India,SOUTH ASIA,1400100000.0
4569,800362126.0,Stub,Satyavrata Siddhantalankar,India,SOUTH ASIA,1400100000.0
4570,800434387.0,Stub,Malini Gaud,India,SOUTH ASIA,1400100000.0
4571,800439390.0,Stub,Mamta Meena,India,SOUTH ASIA,1400100000.0
4572,800444804.0,Stub,Annapurna Mishra,India,SOUTH ASIA,1400100000.0
4573,800444848.0,Stub,Krishna Murari Moghe,India,SOUTH ASIA,1400100000.0
4574,800458456.0,Stub,Janak Kotak,India,SOUTH ASIA,1400100000.0
4575,800466467.0,Stub,Inder Singh Namdhari,India,SOUTH ASIA,1400100000.0
4576,800471907.0,Start,Sultan Ahmed (politician),India,SOUTH ASIA,1400100000.0
4577,800479004.0,Stub,Ramdas Nayak,India,SOUTH ASIA,1400100000.0
4578,800483645.0,Start,Raghu Nandan Mandal,India,SOUTH ASIA,1400100000.0
4579,800486975.0,GA,Vidya Charan Shukla,India,SOUTH ASIA,1400100000.0
4580,800487310.0,Stub,Suman Shringi,India,SOUTH ASIA,1400100000.0
4581,800488513.0,Start,Radha Raman Shastri,India,SOUTH ASIA,1400100000.0
4582,800489745.0,Start,Amit Shah (mayor),India,SOUTH ASIA,1400100000.0
4583,800491541.0,Stub,Chandu Lal Sahu,India,SOUTH ASIA,1400100000.0
4584,800491560.0,Stub,Lakhan Lal Sahu,India,SOUTH ASIA,1400100000.0
4585,800546199.0,Stub,Manjinder Singh Sirsa,India,SOUTH ASIA,1400100000.0
4586,800573533.0,Stub,Salman Haidar,India,SOUTH ASIA,1400100000.0
4587,800583707.0,Stub,Bakhshish Singh Virk,India,SOUTH ASIA,1400100000.0
4588,800604861.0,Start,Malik Barkat Ali,India,SOUTH ASIA,1400100000.0
4589,800693722.0,C,Dutta Samant,India,SOUTH ASIA,1400100000.0
4590,800833612.0,C,Jaipal Singh Munda,India,SOUTH ASIA,1400100000.0
4591,800904841.0,Start,Thirumudi N. Sethuraman,India,SOUTH ASIA,1400100000.0
4592,800946100.0,Start,K. C. Tyagi,India,SOUTH ASIA,1400100000.0
4593,800953482.0,Start,Hardeep Singh Puri,India,SOUTH ASIA,1400100000.0
4594,801051348.0,Stub,Sansuma Khunggur Bwiswmuthiary,India,SOUTH ASIA,1400100000.0
4595,801208087.0,Start,Bikram Singh Thekedar,India,SOUTH ASIA,1400100000.0
4596,801235229.0,Start,Political families of Bihar,India,SOUTH ASIA,1400100000.0
4597,801250727.0,C,Haren Pandya,India,SOUTH ASIA,1400100000.0
4598,801288983.0,Stub,Wahengbam Nipamacha Singh,India,SOUTH ASIA,1400100000.0
4599,801298107.0,Stub,K. Somaprasad,India,SOUTH ASIA,1400100000.0
4600,801300264.0,Stub,Dinesh Nandan Sahay,India,SOUTH ASIA,1400100000.0
4601,801327382.0,Stub,Mahender Singh Gurjar,India,SOUTH ASIA,1400100000.0
4602,801334455.0,Stub,Chiman Saparaiya,India,SOUTH ASIA,1400100000.0
4603,801340732.0,Stub,Zora Singh Maan,India,SOUTH ASIA,1400100000.0
4604,801374003.0,Start,Sunil Kumar Sharma (politician),India,SOUTH ASIA,1400100000.0
4605,801394016.0,Stub,Bijoy Kumar Hrangkhawl,India,SOUTH ASIA,1400100000.0
4606,801417289.0,Start,Triloki Nath Kaul,India,SOUTH ASIA,1400100000.0
4607,801443513.0,Start,V. D. Satheesan,India,SOUTH ASIA,1400100000.0
4608,801459511.0,Stub,Arjan Singh Mastana,India,SOUTH ASIA,1400100000.0
4609,801544623.0,Stub,Ravindra Kumar Pandey,India,SOUTH ASIA,1400100000.0
4610,801544691.0,Stub,Bidyut Baran Mahato,India,SOUTH ASIA,1400100000.0
4611,801545717.0,Stub,Jyotsana Srivastava,India,SOUTH ASIA,1400100000.0
4612,801546271.0,Stub,Shatarudra Prakash,India,SOUTH ASIA,1400100000.0
4613,801547738.0,Start,Ram Kripal Sinha,India,SOUTH ASIA,1400100000.0
4614,801571466.0,Stub,T. M. Selvaganapathy,India,SOUTH ASIA,1400100000.0
4615,801578378.0,Start,Sunil Kumar Mahato,India,SOUTH ASIA,1400100000.0
4616,801628685.0,Start,Sebastian Paul,India,SOUTH ASIA,1400100000.0
4617,801634569.0,Stub,Hukam Ram,India,SOUTH ASIA,1400100000.0
4618,801646503.0,Stub,Deputy Chief Minister of Goa,India,SOUTH ASIA,1400100000.0
4619,801702189.0,Stub,Mazhar Ali Azhar,India,SOUTH ASIA,1400100000.0
4620,801829674.0,B,C. N. Annadurai,India,SOUTH ASIA,1400100000.0
4621,801851425.0,Stub,Vinayak Mete,India,SOUTH ASIA,1400100000.0
4622,801851533.0,Stub,Amar Shankar Sable,India,SOUTH ASIA,1400100000.0
4623,801854352.0,Stub,Nagam Janardhan Reddy,India,SOUTH ASIA,1400100000.0
4624,801856672.0,Start,Ajay Sancheti,India,SOUTH ASIA,1400100000.0
4625,801867696.0,Start,Fazl-i-Hussain,India,SOUTH ASIA,1400100000.0
4626,801881432.0,Stub,Jagat Singh Mehta,India,SOUTH ASIA,1400100000.0
4627,801971090.0,Stub,Altaf Bukhari,India,SOUTH ASIA,1400100000.0
4628,801985451.0,Start,List of politicians from Bihar,India,SOUTH ASIA,1400100000.0
4629,801987075.0,Stub,Mirwaiz Maulvi Farooq,India,SOUTH ASIA,1400100000.0
4630,801989318.0,Stub,Kanaji Thakor,India,SOUTH ASIA,1400100000.0
4631,802022159.0,Start,Political families of Haryana,India,SOUTH ASIA,1400100000.0
4632,802045189.0,Stub,Dilip Sarkar (Tripura politician),India,SOUTH ASIA,1400100000.0
4633,802046100.0,C,Subhash Chandra,India,SOUTH ASIA,1400100000.0
4634,802046671.0,Stub,Diba Chandra Hrangkhawl,India,SOUTH ASIA,1400100000.0
4635,802145542.0,Stub,Yamuna Prasad Shastri,India,SOUTH ASIA,1400100000.0
4636,802321777.0,Stub,A.K. Chellaiya,India,SOUTH ASIA,1400100000.0
4637,802345570.0,Stub,Vijay Singh Yadav,India,SOUTH ASIA,1400100000.0
4638,802370955.0,Start,List of politicians of Kerala,India,SOUTH ASIA,1400100000.0
4639,802414245.0,Stub,Ninan Koshy,India,SOUTH ASIA,1400100000.0
4640,802466481.0,Start,Vijay Sampla,India,SOUTH ASIA,1400100000.0
4641,802529896.0,Stub,P. D. T. Acharya,India,SOUTH ASIA,1400100000.0
4642,802581543.0,Start,Saugata Roy,India,SOUTH ASIA,1400100000.0
4643,802593454.0,Stub,Ashok Kantha,India,SOUTH ASIA,1400100000.0
4644,802608034.0,B,Mohammad Shahabuddin,India,SOUTH ASIA,1400100000.0
4645,802646972.0,Stub,Mohan Prakash,India,SOUTH ASIA,1400100000.0
4646,802753515.0,Start,Savitri Jindal,India,SOUTH ASIA,1400100000.0
4647,802758971.0,Start,Ajoy Mukherjee,India,SOUTH ASIA,1400100000.0
4648,802909340.0,Stub,Kiran Kandolkar,India,SOUTH ASIA,1400100000.0
4649,802913991.0,Start,Jagatvir Singh Drona,India,SOUTH ASIA,1400100000.0
4650,802915372.0,Stub,Nago Ganar,India,SOUTH ASIA,1400100000.0
4651,802916247.0,Stub,Kamalbhan Singh Marabi,India,SOUTH ASIA,1400100000.0
4652,802916731.0,Stub,Sapam Kunjakeswor Singh,India,SOUTH ASIA,1400100000.0
4653,802917079.0,Stub,Tesam Pongte,India,SOUTH ASIA,1400100000.0
4654,802917093.0,Stub,Kaling Moyong,India,SOUTH ASIA,1400100000.0
4655,802918594.0,Start,Geeta Bharat Jain,India,SOUTH ASIA,1400100000.0
4656,802918866.0,Stub,Bhushan Lal Jangde,India,SOUTH ASIA,1400100000.0
4657,802918903.0,Stub,Reshamlal Jangade,India,SOUTH ASIA,1400100000.0
4658,802919376.0,Stub,Roop Rani,India,SOUTH ASIA,1400100000.0
4659,802921178.0,Stub,Satish Mahana,India,SOUTH ASIA,1400100000.0
4660,802921593.0,Start,Alka Rai,India,SOUTH ASIA,1400100000.0
4661,802921770.0,Stub,Kailash Nath Sonkar,India,SOUTH ASIA,1400100000.0
4662,802927798.0,Stub,Keshaw Prasad Chandra,India,SOUTH ASIA,1400100000.0
4663,802930043.0,Start,Shekhar Tiwari,India,SOUTH ASIA,1400100000.0
4664,802930551.0,Stub,Raju Pal,India,SOUTH ASIA,1400100000.0
4665,802931391.0,Stub,Jugal Kishore (UP politician),India,SOUTH ASIA,1400100000.0
4666,802931614.0,Stub,Rajaram (politician),India,SOUTH ASIA,1400100000.0
4667,802934281.0,Stub,Tahir Hussain Siddique,India,SOUTH ASIA,1400100000.0
4668,802989420.0,Stub,Kiyanilie Peseyie,India,SOUTH ASIA,1400100000.0
4669,803044205.0,Stub,An Autobiography (Nehru),India,SOUTH ASIA,1400100000.0
4670,803082807.0,Stub,K. K. Shailaja,India,SOUTH ASIA,1400100000.0
4671,803097052.0,Stub,Sanjay Chaudhary,India,SOUTH ASIA,1400100000.0
4672,803192276.0,Start,List of assassinated Indian politicians,India,SOUTH ASIA,1400100000.0
4673,803290431.0,GA,Anand Mohan Singh,India,SOUTH ASIA,1400100000.0
4674,803309174.0,Stub,Ashok Kumar Dogra,India,SOUTH ASIA,1400100000.0
4675,803325525.0,Stub,Vishakha Raut,India,SOUTH ASIA,1400100000.0
4676,803381759.0,Stub,Jawala Prasad Jyotishi,India,SOUTH ASIA,1400100000.0
4677,803424318.0,Stub,Matvar Singh Kandari,India,SOUTH ASIA,1400100000.0
4678,803439644.0,C,Shibu Soren,India,SOUTH ASIA,1400100000.0
4679,803499703.0,Start,Kunwar Sushant Singh,India,SOUTH ASIA,1400100000.0
4680,803556199.0,Stub,Prashant Singh,India,SOUTH ASIA,1400100000.0
4681,803578957.0,Stub,Ranvijay Singh Judev,India,SOUTH ASIA,1400100000.0
4682,803621657.0,C,Krishna Tirath,India,SOUTH ASIA,1400100000.0
4683,803642740.0,Start,Gopal Rajwani,India,SOUTH ASIA,1400100000.0
4684,803713107.0,Start,Tarkeshwari Sinha,India,SOUTH ASIA,1400100000.0
4685,803766771.0,GA,Women's political participation in India,India,SOUTH ASIA,1400100000.0
4686,803834149.0,C,Mukhtar Ansari,India,SOUTH ASIA,1400100000.0
4687,803854781.0,C,Yangmaso Shaiza,India,SOUTH ASIA,1400100000.0
4688,803894090.0,C,Sumitra Mahajan,India,SOUTH ASIA,1400100000.0
4689,803923326.0,Stub,Purushottam Kaushik,India,SOUTH ASIA,1400100000.0
4690,803927279.0,Start,Dilip Tirkey,India,SOUTH ASIA,1400100000.0
4691,803935405.0,C,Nagabhairava Jaya Prakash Narayana,India,SOUTH ASIA,1400100000.0
4692,804043583.0,Stub,Hargovind Bhargava,India,SOUTH ASIA,1400100000.0
4693,804044053.0,Stub,Kapil Krishna Thakur,India,SOUTH ASIA,1400100000.0
4694,804064963.0,Stub,Prem Khandu Thungan,India,SOUTH ASIA,1400100000.0
4695,804071133.0,C,Ehsan Jafri,India,SOUTH ASIA,1400100000.0
4696,804090461.0,C,Pappu Kalani,India,SOUTH ASIA,1400100000.0
4697,804132298.0,Stub,N. Appaji Gowda,India,SOUTH ASIA,1400100000.0
4698,804132817.0,Stub,K. V. Narayana Swamy,India,SOUTH ASIA,1400100000.0
4699,804151598.0,Start,Dipankar Bhattacharya,India,SOUTH ASIA,1400100000.0
4700,804153459.0,Stub,Hagrama Mohilary,India,SOUTH ASIA,1400100000.0
4701,804158584.0,Stub,Urkhao Gwra Brahma,India,SOUTH ASIA,1400100000.0
4702,804160636.0,Stub,Biswajit Daimary,India,SOUTH ASIA,1400100000.0
4703,804160662.0,Stub,Rupnath Brahma,India,SOUTH ASIA,1400100000.0
4704,804227373.0,Start,Maharaja Krishna Rasgotra,India,SOUTH ASIA,1400100000.0
4705,804232228.0,Stub,Hukam Singh,India,SOUTH ASIA,1400100000.0
4706,804254152.0,Stub,José Ferreira Bossa,India,SOUTH ASIA,1400100000.0
4707,804314714.0,Stub,Sewa Singh Thikriwala,India,SOUTH ASIA,1400100000.0
4708,804325468.0,Start,Brijendra Singh,India,SOUTH ASIA,1400100000.0
4709,804332531.0,Stub,Ramappa Timmapur,India,SOUTH ASIA,1400100000.0
4710,804361669.0,Stub,Mofida Ahmed,India,SOUTH ASIA,1400100000.0
4711,804373990.0,Start,Neeraj Bora,India,SOUTH ASIA,1400100000.0
4712,804381472.0,Stub,Vinay Shakya,India,SOUTH ASIA,1400100000.0
4713,804388304.0,Stub,Pendyal Raghava Rao,India,SOUTH ASIA,1400100000.0
4714,804468241.0,Start,Om Prakash Rajbhar,India,SOUTH ASIA,1400100000.0
4715,804503167.0,C,Harcharan Singh Longowal,India,SOUTH ASIA,1400100000.0
4716,804513110.0,Stub,Akon Bora,India,SOUTH ASIA,1400100000.0
4717,804550163.0,Stub,Akshay Yadav,India,SOUTH ASIA,1400100000.0
4718,804579791.0,Stub,Y. Hewoto Awomi,India,SOUTH ASIA,1400100000.0
4719,804649489.0,Start,V. Vijayasai Reddy,India,SOUTH ASIA,1400100000.0
4720,804673492.0,Stub,Harbans Lal Khanna,India,SOUTH ASIA,1400100000.0
4721,804713869.0,Stub,Umed Singh,India,SOUTH ASIA,1400100000.0
4722,804721555.0,Start,Mohsina Kidwai,India,SOUTH ASIA,1400100000.0
4723,804810675.0,Stub,Babu Parmanand,India,SOUTH ASIA,1400100000.0
4724,804850700.0,Start,Dhirendra Singh,India,SOUTH ASIA,1400100000.0
4725,804869203.0,B,Saleem Ahmed,India,SOUTH ASIA,1400100000.0
4726,804892246.0,Start,Ajay Singh Chautala,India,SOUTH ASIA,1400100000.0
4727,804915584.0,Stub,Pradip Kumar Brahma,India,SOUTH ASIA,1400100000.0
4728,804962461.0,Stub,Prabhat Kumar,India,SOUTH ASIA,1400100000.0
4729,804962649.0,Stub,Ved Marwah,India,SOUTH ASIA,1400100000.0
4730,804968128.0,Stub,Krishna Raj,India,SOUTH ASIA,1400100000.0
4731,804972023.0,Stub,Ambrish Singh Pushkar,India,SOUTH ASIA,1400100000.0
4732,804972769.0,Start,Dinesh Sharma,India,SOUTH ASIA,1400100000.0
4733,804974221.0,Start,Anupriya Patel,India,SOUTH ASIA,1400100000.0
4734,804994921.0,Stub,Adesh Partap Singh Kairon,India,SOUTH ASIA,1400100000.0
4735,804994961.0,Stub,Amrik Singh Dhillon,India,SOUTH ASIA,1400100000.0
4736,804995020.0,Start,Avtar Singh Malhotra,India,SOUTH ASIA,1400100000.0
4737,804995112.0,Start,Charanjit Singh Atwal,India,SOUTH ASIA,1400100000.0
4738,804995186.0,Stub,Gurdev Singh Badal,India,SOUTH ASIA,1400100000.0
4739,804995207.0,Stub,Harcharan Bains,India,SOUTH ASIA,1400100000.0
4740,804995227.0,Start,Harsimrat Kaur Badal,India,SOUTH ASIA,1400100000.0
4741,804995233.0,Stub,Hira Singh Gabria,India,SOUTH ASIA,1400100000.0
4742,804995434.0,Stub,Rattan Singh Ajnala,India,SOUTH ASIA,1400100000.0
4743,804995448.0,Start,Razia Sultana (politician),India,SOUTH ASIA,1400100000.0
4744,804995834.0,Stub,Sadhu Singh Thind,India,SOUTH ASIA,1400100000.0
4745,805029045.0,Start,Karni Singh,India,SOUTH ASIA,1400100000.0
4746,805046485.0,Stub,Letpao Haokip,India,SOUTH ASIA,1400100000.0
4747,805046850.0,Stub,Yamthong Haokip,India,SOUTH ASIA,1400100000.0
4748,805046998.0,Stub,Gaikhangam Gangmei,India,SOUTH ASIA,1400100000.0
4749,805216826.0,Stub,Jai Kumar Singh Jaiki,India,SOUTH ASIA,1400100000.0
4750,805224315.0,Start,Abdul Ghani Lone,India,SOUTH ASIA,1400100000.0
4751,805234429.0,Start,Thuingaleng Muivah,India,SOUTH ASIA,1400100000.0
4752,805305263.0,Stub,Sone Lal Patel,India,SOUTH ASIA,1400100000.0
4753,805357523.0,Stub,Keshab Mahanta,India,SOUTH ASIA,1400100000.0
4754,805362105.0,Stub,A. M. Krishnamurthy,India,SOUTH ASIA,1400100000.0
4755,805394015.0,C,Yasar Shah,India,SOUTH ASIA,1400100000.0
4756,805412979.0,C,Najma Heptulla,India,SOUTH ASIA,1400100000.0
4757,805430294.0,Stub,Arun Sood,India,SOUTH ASIA,1400100000.0
4758,805457259.0,Stub,Probodh Purkait,India,SOUTH ASIA,1400100000.0
4759,805457935.0,Stub,Arvind Dave,India,SOUTH ASIA,1400100000.0
4760,805474401.0,Start,Ghulam Mohammad Shah,India,SOUTH ASIA,1400100000.0
4761,805510957.0,Start,Anis Kidwai,India,SOUTH ASIA,1400100000.0
4762,805547349.0,Stub,Jogaram Patel,India,SOUTH ASIA,1400100000.0
4763,805580808.0,Start,Hari Shankar Tiwari,India,SOUTH ASIA,1400100000.0
4764,805637949.0,Stub,Yusuf Meherally,India,SOUTH ASIA,1400100000.0
4765,805639220.0,GA,Bal Thackeray,India,SOUTH ASIA,1400100000.0
4766,805683581.0,Stub,Robert Masih Nahar,India,SOUTH ASIA,1400100000.0
4767,805719705.0,Start,Sunder Singh Bhandari,India,SOUTH ASIA,1400100000.0
4768,805720882.0,Stub,Chiranjeevi Jetty,India,SOUTH ASIA,1400100000.0
4769,805730120.0,C,Kanshi Ram,India,SOUTH ASIA,1400100000.0
4770,805730181.0,Start,Saroj Pandey,India,SOUTH ASIA,1400100000.0
4771,805777888.0,C,Raj Thackeray,India,SOUTH ASIA,1400100000.0
4772,805830402.0,Start,Girish Chandra Saxena,India,SOUTH ASIA,1400100000.0
4773,805844566.0,Start,Rajesh Rishi,India,SOUTH ASIA,1400100000.0
4774,805847796.0,C,Vangaveeti Mohana Ranga,India,SOUTH ASIA,1400100000.0
4775,805872615.0,Start,Balmukund Goutam,India,SOUTH ASIA,1400100000.0
4776,805967299.0,C,Leo Varadkar,India,SOUTH ASIA,1400100000.0
4777,806014468.0,C,Meira Kumar,India,SOUTH ASIA,1400100000.0
4778,806033568.0,Stub,Beckstar Sangma,India,SOUTH ASIA,1400100000.0
4779,806047391.0,C,S.G. Murugaiyan,India,SOUTH ASIA,1400100000.0
4780,806063437.0,Stub,V. Radhika Selvi,India,SOUTH ASIA,1400100000.0
4781,806118015.0,Stub,Laeta Umbrey,India,SOUTH ASIA,1400100000.0
4782,806119656.0,Stub,Wangpha Lowang,India,SOUTH ASIA,1400100000.0
4783,806120855.0,Stub,Sobeng Tayeng,India,SOUTH ASIA,1400100000.0
4784,806127581.0,Stub,Sanford Marak,India,SOUTH ASIA,1400100000.0
4785,806157426.0,Stub,Kartik Oraon,India,SOUTH ASIA,1400100000.0
4786,806177356.0,Stub,Bishwanath Roy,India,SOUTH ASIA,1400100000.0
4787,806185787.0,Stub,Sardar Surjit Singh Majithia,India,SOUTH ASIA,1400100000.0
4788,806196742.0,C,Paritala Ravindra,India,SOUTH ASIA,1400100000.0
4789,806203768.0,FA,Mahatma Gandhi,India,SOUTH ASIA,1400100000.0
4790,806219014.0,Stub,Gojen Gadi,India,SOUTH ASIA,1400100000.0
4791,806255959.0,Stub,Parveen Amanullah,India,SOUTH ASIA,1400100000.0
4792,806286568.0,Stub,Arun Kumar Sarmah,India,SOUTH ASIA,1400100000.0
4793,806311457.0,B,List of politicians of Indian descent,India,SOUTH ASIA,1400100000.0
4794,806313042.0,B,C. Rajagopalachari,India,SOUTH ASIA,1400100000.0
4795,806327203.0,Stub,Alok Sanjar,India,SOUTH ASIA,1400100000.0
4796,806385533.0,Stub,Zamru Manglu Kahandole,India,SOUTH ASIA,1400100000.0
4797,806385870.0,Stub,Shivendra Bijoy Malla Deb,India,SOUTH ASIA,1400100000.0
4798,806436876.0,C,Phoolan Devi,India,SOUTH ASIA,1400100000.0
4799,806448447.0,C,Mahendra Karma,India,SOUTH ASIA,1400100000.0
4800,806470589.0,C,Kalvakuntla Chandrashekhar Rao,India,SOUTH ASIA,1400100000.0
4801,806476255.0,Stub,Gaya Singh,India,SOUTH ASIA,1400100000.0
4802,806527031.0,C,Nehru–Gandhi family,India,SOUTH ASIA,1400100000.0
4803,806537874.0,C,Pappu Yadav,India,SOUTH ASIA,1400100000.0
4804,806543601.0,Stub,Shailendra Mahato,India,SOUTH ASIA,1400100000.0
4805,806631359.0,Start,Motamma,India,SOUTH ASIA,1400100000.0
4806,806635385.0,Start,Alambadi (politician),India,SOUTH ASIA,1400100000.0
4807,806651869.0,C,Alphons Kannanthanam,India,SOUTH ASIA,1400100000.0
4808,806663842.0,Stub,Fayaz Ahmad Mir,India,SOUTH ASIA,1400100000.0
4809,806706826.0,Stub,Naresh Gujral,India,SOUTH ASIA,1400100000.0
4810,806766279.0,Start,Keshavrao Jedhe,India,SOUTH ASIA,1400100000.0
4811,806781175.0,Stub,Kuldeep Sharma,India,SOUTH ASIA,1400100000.0
4812,806792734.0,Stub,Sadanand Chauhan,India,SOUTH ASIA,1400100000.0
4813,806835956.0,C,Harsharan Singh Balli,India,SOUTH ASIA,1400100000.0
4814,806836416.0,GA,Rajiv Gandhi,India,SOUTH ASIA,1400100000.0
4815,806848360.0,Stub,Abdul Mannan (West Bengal politician),India,SOUTH ASIA,1400100000.0
4816,806863710.0,Stub,Lakshmi Parvathi,India,SOUTH ASIA,1400100000.0
4817,806868721.0,Start,Surajbhan Singh,India,SOUTH ASIA,1400100000.0
4818,806873954.0,C,Vaiko,India,SOUTH ASIA,1400100000.0
4819,806883583.0,Stub,S. Ramadoss,India,SOUTH ASIA,1400100000.0
4820,806925410.0,Stub,Mukunda Ram Choudhury,India,SOUTH ASIA,1400100000.0
4821,806955889.0,Start,Sukh Ram,India,SOUTH ASIA,1400100000.0
4822,806956603.0,C,Vasundhara Raje,India,SOUTH ASIA,1400100000.0
4823,807004926.0,Stub,Rakesh Singha,India,SOUTH ASIA,1400100000.0
4824,807039937.0,C,Nirmala Sitharaman,India,SOUTH ASIA,1400100000.0
4825,807133964.0,C,Madan Tamang,India,SOUTH ASIA,1400100000.0
4826,807147026.0,B,Vijay Mallya,India,SOUTH ASIA,1400100000.0
4827,807149436.0,Stub,Ambedkar family,India,SOUTH ASIA,1400100000.0
4828,807153684.0,B,Vijayakanth,India,SOUTH ASIA,1400100000.0
4829,807157534.0,Stub,Govind Gaude,India,SOUTH ASIA,1400100000.0
4830,807161333.0,Stub,Vijaya Raje,India,SOUTH ASIA,1400100000.0
4831,807171497.0,Stub,Arindam Bhattacharya (politician),India,SOUTH ASIA,1400100000.0
4832,807182353.0,C,Gandhism,India,SOUTH ASIA,1400100000.0
4833,807186937.0,GA,Lalu Prasad Yadav,India,SOUTH ASIA,1400100000.0
4834,807188327.0,B,Political families of Maharashtra,India,SOUTH ASIA,1400100000.0
4835,807204320.0,GA,Pranab Mukherjee,India,SOUTH ASIA,1400100000.0
4836,807204700.0,C,Innocent (actor),India,SOUTH ASIA,1400100000.0
4837,807217536.0,GA,Arvind Kejriwal,India,SOUTH ASIA,1400100000.0
4838,807254742.0,Stub,Madhu Kinnar,India,SOUTH ASIA,1400100000.0
4839,807259028.0,C,Sharad Pawar,India,SOUTH ASIA,1400100000.0
4840,807283769.0,C,Sushma Swaraj,India,SOUTH ASIA,1400100000.0
4841,807301484.0,Stub,H. Khekiho Zhimomi,India,SOUTH ASIA,1400100000.0
4842,807312721.0,GA,J. F. R. Jacob,India,SOUTH ASIA,1400100000.0
4843,807320547.0,Stub,Maqbool Sherwani,India,SOUTH ASIA,1400100000.0
4844,807323964.0,Stub,Rajendra Kumar Rai,India,SOUTH ASIA,1400100000.0
4845,807338356.0,Stub,Emonsing M Sangma,India,SOUTH ASIA,1400100000.0
4846,807341484.0,Start,Mohammad Shafi Qureshi,India,SOUTH ASIA,1400100000.0
4847,807348173.0,Stub,Sriman Prafulla Goswami,India,SOUTH ASIA,1400100000.0
4848,807351379.0,Stub,Yasoda Reddy,India,SOUTH ASIA,1400100000.0
4849,807354190.0,Stub,Bira Kesari Deo,India,SOUTH ASIA,1400100000.0
4850,807354591.0,Start,Chityala Ailamma,India,SOUTH ASIA,1400100000.0
4851,807357885.0,Stub,K Chandrasekharan,India,SOUTH ASIA,1400100000.0
4852,807372494.0,GA,Syama Prasad Mukherjee,India,SOUTH ASIA,1400100000.0
4853,807372567.0,Start,H. Raja,India,SOUTH ASIA,1400100000.0
4854,807373521.0,Stub,Ramesh Chander Kaushik,India,SOUTH ASIA,1400100000.0
4855,807383037.0,Stub,Aseem Goel,India,SOUTH ASIA,1400100000.0
4856,807391645.0,Stub,A M Tariq,India,SOUTH ASIA,1400100000.0
4857,807406359.0,B,Mamata Banerjee,India,SOUTH ASIA,1400100000.0
4858,807439033.0,B,Indira Gandhi,India,SOUTH ASIA,1400100000.0
4859,807478407.0,Stub,V.P. Deenadayalu Naidu,India,SOUTH ASIA,1400100000.0
4860,807479965.0,Stub,Mangal Das Pakvasa,India,SOUTH ASIA,1400100000.0
4861,492964343.0,Stub,Cayetano Pacana,Philippines,SOUTHEAST ASIA,109581000.0
4862,559553872.0,Stub,Maximo Suniel,Philippines,SOUTHEAST ASIA,109581000.0
4863,630704768.0,Stub,Tirso Neri,Philippines,SOUTHEAST ASIA,109581000.0
4864,650462344.0,Stub,Adela Serra-Ty,Philippines,SOUTHEAST ASIA,109581000.0
4865,683282915.0,Stub,Jose Solis,Philippines,SOUTHEAST ASIA,109581000.0
4866,704358444.0,C,Batarah Shah Tengah,Philippines,SOUTHEAST ASIA,109581000.0
4867,710688917.0,Stub,Eriberto Loreto,Philippines,SOUTHEAST ASIA,109581000.0
4868,713595856.0,Stub,Crisologo Abines,Philippines,SOUTHEAST ASIA,109581000.0
4869,713600706.0,Stub,Rodolfo Plaza,Philippines,SOUTHEAST ASIA,109581000.0
4870,713600877.0,Stub,Reno Lim,Philippines,SOUTHEAST ASIA,109581000.0
4871,713610729.0,Stub,Carlo Oliver Diasnes,Philippines,SOUTHEAST ASIA,109581000.0
4872,713647643.0,Stub,Pedro Pancho,Philippines,SOUTHEAST ASIA,109581000.0
4873,713647734.0,Stub,Reylina Nicolas,Philippines,SOUTHEAST ASIA,109581000.0
4874,713801467.0,Stub,Pedro Romualdo,Philippines,SOUTHEAST ASIA,109581000.0
4875,713905214.0,Stub,Benhur Salimbangon,Philippines,SOUTHEAST ASIA,109581000.0
4876,714071186.0,Stub,Marc Douglas Cagas IV,Philippines,SOUTHEAST ASIA,109581000.0
4877,714323139.0,Stub,Judy Syjuco,Philippines,SOUTHEAST ASIA,109581000.0
4878,714419417.0,Stub,Apolinar Velez,Philippines,SOUTHEAST ASIA,109581000.0
4879,715031563.0,Stub,Constantino Jaraula,Philippines,SOUTHEAST ASIA,109581000.0
4880,715061225.0,Stub,Telesforo Castillejos,Philippines,SOUTHEAST ASIA,109581000.0
4881,715878914.0,Start,Camilo Lammawin,Philippines,SOUTHEAST ASIA,109581000.0
4882,717607918.0,Start,Máximo Macapobre,Philippines,SOUTHEAST ASIA,109581000.0
4883,718257706.0,Stub,Terence Perez,Philippines,SOUTHEAST ASIA,109581000.0
4884,718892028.0,Stub,Ronaldo Geron,Philippines,SOUTHEAST ASIA,109581000.0
4885,719556481.0,Start,Nur-Ana Sahidulla,Philippines,SOUTHEAST ASIA,109581000.0
4886,719579815.0,Stub,Sakib Salajin,Philippines,SOUTHEAST ASIA,109581000.0
4887,719579878.0,Stub,Jomar Malangkit Maturan,Philippines,SOUTHEAST ASIA,109581000.0
4888,719579931.0,Stub,Durie Kallahal,Philippines,SOUTHEAST ASIA,109581000.0
4889,719582160.0,Stub,Muctar Yunos Junaid,Philippines,SOUTHEAST ASIA,109581000.0
4890,719590730.0,Stub,Fatmawati Salapuddin,Philippines,SOUTHEAST ASIA,109581000.0
4891,719596548.0,Stub,Mamintal M. Adiong Sr.,Philippines,SOUTHEAST ASIA,109581000.0
4892,719597069.0,Stub,Gulam S. Salliman-Hataman,Philippines,SOUTHEAST ASIA,109581000.0
4893,719895290.0,Stub,Rommel Amatong,Philippines,SOUTHEAST ASIA,109581000.0
4894,721118440.0,Start,Leovigildo Banaag,Philippines,SOUTHEAST ASIA,109581000.0
4895,721332633.0,Stub,Mitzi Cajayon,Philippines,SOUTHEAST ASIA,109581000.0
4896,721654744.0,Stub,Petra Macliing,Philippines,SOUTHEAST ASIA,109581000.0
4897,721887538.0,Stub,Anna York Bondoc,Philippines,SOUTHEAST ASIA,109581000.0
4898,722949480.0,Stub,Rizalino Navarro,Philippines,SOUTHEAST ASIA,109581000.0
4899,723042656.0,Stub,Ronald Barcena,Philippines,SOUTHEAST ASIA,109581000.0
4900,723075228.0,Stub,Canuto E. Celestino,Philippines,SOUTHEAST ASIA,109581000.0
4901,723075456.0,Stub,Bernardo O. Dagala,Philippines,SOUTHEAST ASIA,109581000.0
4902,723101418.0,Start,Nila Aguillo,Philippines,SOUTHEAST ASIA,109581000.0
4903,723179671.0,Start,Paz Cea de Conde,Philippines,SOUTHEAST ASIA,109581000.0
4904,723322551.0,Stub,Tunggan Mangudadatu Piang,Philippines,SOUTHEAST ASIA,109581000.0
4905,723995835.0,Stub,Tomas Fernandez Concepcion,Philippines,SOUTHEAST ASIA,109581000.0
4906,724156806.0,Start,Salvacion Z. Perez,Philippines,SOUTHEAST ASIA,109581000.0
4907,725206515.0,Stub,Victoria Garchitorena,Philippines,SOUTHEAST ASIA,109581000.0
4908,725644689.0,Stub,Jasper Shia Que,Philippines,SOUTHEAST ASIA,109581000.0
4909,726183169.0,Stub,Newton W. Gilbert,Philippines,SOUTHEAST ASIA,109581000.0
4910,726852765.0,Start,Tahira Ismael-Sansawi,Philippines,SOUTHEAST ASIA,109581000.0
4911,727310448.0,Start,Evelyn Fuentebella,Philippines,SOUTHEAST ASIA,109581000.0
4912,727458010.0,Stub,Juan Arévalo,Philippines,SOUTHEAST ASIA,109581000.0
4913,727466219.0,Stub,Andrés Garchitorena,Philippines,SOUTHEAST ASIA,109581000.0
4914,728050172.0,Stub,Sonny Collantes,Philippines,SOUTHEAST ASIA,109581000.0
4915,728050527.0,Start,Sadikul A. Sahali,Philippines,SOUTHEAST ASIA,109581000.0
4916,728054687.0,Stub,Victoria Sy-Alvarado,Philippines,SOUTHEAST ASIA,109581000.0
4917,728090371.0,Stub,Victor Yu,Philippines,SOUTHEAST ASIA,109581000.0
4918,728094822.0,C,Herminia Roman,Philippines,SOUTHEAST ASIA,109581000.0
4919,728099459.0,Stub,Ramon Nolasco,Philippines,SOUTHEAST ASIA,109581000.0
4920,728154295.0,Stub,Joet Garcia,Philippines,SOUTHEAST ASIA,109581000.0
4921,728297884.0,Start,Maria Valentina Plaza,Philippines,SOUTHEAST ASIA,109581000.0
4922,729086748.0,Start,Rodolfo B. Valentino,Philippines,SOUTHEAST ASIA,109581000.0
4923,729190958.0,Start,Juan Q. Miranda,Philippines,SOUTHEAST ASIA,109581000.0
4924,729654748.0,Stub,Jose Benjamin Benaldo,Philippines,SOUTHEAST ASIA,109581000.0
4925,730136284.0,Stub,Sally Ante Lee,Philippines,SOUTHEAST ASIA,109581000.0
4926,732037134.0,Stub,Antonio Gerona,Philippines,SOUTHEAST ASIA,109581000.0
4927,732375306.0,Stub,Diego Ronquillo,Philippines,SOUTHEAST ASIA,109581000.0
4928,732380888.0,Start,Lord Allan Jay Velasco,Philippines,SOUTHEAST ASIA,109581000.0
4929,733390369.0,Stub,Adam Jala,Philippines,SOUTHEAST ASIA,109581000.0
4930,734014018.0,C,Women and government in the Philippines,Philippines,SOUTHEAST ASIA,109581000.0
4931,734521419.0,Start,Nikki Coseteng,Philippines,SOUTHEAST ASIA,109581000.0
4932,734746670.0,Stub,Jose Antonio Veloso,Philippines,SOUTHEAST ASIA,109581000.0
4933,734747650.0,C,Jane Censoria Cajes–Yap,Philippines,SOUTHEAST ASIA,109581000.0
4934,735031292.0,Stub,Nemesio Prudente,Philippines,SOUTHEAST ASIA,109581000.0
4935,735092037.0,Stub,Ramon Durano VI,Philippines,SOUTHEAST ASIA,109581000.0
4936,735296668.0,Stub,Samuel Ong,Philippines,SOUTHEAST ASIA,109581000.0
4937,735302807.0,Start,Teresita S. Lazaro,Philippines,SOUTHEAST ASIA,109581000.0
4938,735659923.0,Stub,Manuel Camus,Philippines,SOUTHEAST ASIA,109581000.0
4939,736486058.0,Start,JB Magsaysay,Philippines,SOUTHEAST ASIA,109581000.0
4940,736589375.0,Stub,Purificacion Quisumbing,Philippines,SOUTHEAST ASIA,109581000.0
4941,737668792.0,Stub,Cecilia Seares-Luna,Philippines,SOUTHEAST ASIA,109581000.0
4942,738446654.0,Stub,Don Ramon Reynado,Philippines,SOUTHEAST ASIA,109581000.0
4943,738594033.0,Stub,Luisa Lloren Cuaresma,Philippines,SOUTHEAST ASIA,109581000.0
4944,738715643.0,C,Gina de Venecia,Philippines,SOUTHEAST ASIA,109581000.0
4945,739266876.0,Stub,Indanan Kasim Daud,Philippines,SOUTHEAST ASIA,109581000.0
4946,739269271.0,Stub,Demetrio Cortes,Philippines,SOUTHEAST ASIA,109581000.0
4947,741892172.0,Stub,Teddy Baguilat,Philippines,SOUTHEAST ASIA,109581000.0
4948,742813881.0,Stub,Ruben Torres,Philippines,SOUTHEAST ASIA,109581000.0
4949,742838735.0,Stub,Exequiel Javier,Philippines,SOUTHEAST ASIA,109581000.0
4950,743008921.0,Stub,Asuncion A. Perez,Philippines,SOUTHEAST ASIA,109581000.0
4951,743187290.0,C,Karina Constantino David,Philippines,SOUTHEAST ASIA,109581000.0
4952,743803280.0,Start,Liza Maza,Philippines,SOUTHEAST ASIA,109581000.0
4953,744112000.0,Stub,Roberto Puno,Philippines,SOUTHEAST ASIA,109581000.0
4954,744478322.0,Start,Mitos Magsaysay,Philippines,SOUTHEAST ASIA,109581000.0
4955,744575933.0,Stub,Mark L. Mendoza,Philippines,SOUTHEAST ASIA,109581000.0
4956,744886955.0,Start,Jose Balagtas,Philippines,SOUTHEAST ASIA,109581000.0
4957,745344467.0,Start,Ricardo Penson,Philippines,SOUTHEAST ASIA,109581000.0
4958,745827196.0,Stub,Carlos Camins,Philippines,SOUTHEAST ASIA,109581000.0
4959,745958705.0,Start,Esperanza Cabral,Philippines,SOUTHEAST ASIA,109581000.0
4960,746297083.0,Stub,Irong-Irong,Philippines,SOUTHEAST ASIA,109581000.0
4961,746513030.0,Stub,Arthur Defensor Sr.,Philippines,SOUTHEAST ASIA,109581000.0
4962,747244167.0,Start,Danilo Suarez,Philippines,SOUTHEAST ASIA,109581000.0
4963,747640965.0,Start,Santiago de Vera,Philippines,SOUTHEAST ASIA,109581000.0
4964,750215826.0,Start,Simeón Ola,Philippines,SOUTHEAST ASIA,109581000.0
4965,751525307.0,Stub,Oscar Inocentes,Philippines,SOUTHEAST ASIA,109581000.0
4966,751548752.0,Stub,Rolando Uy,Philippines,SOUTHEAST ASIA,109581000.0
4967,751791056.0,Stub,Ninian Sumadia,Philippines,SOUTHEAST ASIA,109581000.0
4968,752081555.0,C,Guillermo de Vega,Philippines,SOUTHEAST ASIA,109581000.0
4969,752340466.0,Stub,Corazon Nuñez-Malanyaon,Philippines,SOUTHEAST ASIA,109581000.0
4970,752454400.0,Stub,Liwayway Vinzons-Chato,Philippines,SOUTHEAST ASIA,109581000.0
4971,752485419.0,Stub,Datu Daya,Philippines,SOUTHEAST ASIA,109581000.0
4972,752696814.0,Stub,Azim ud-Din II of Sulu,Philippines,SOUTHEAST ASIA,109581000.0
4973,753520626.0,Stub,Tomas Apacible,Philippines,SOUTHEAST ASIA,109581000.0
4974,753693918.0,Stub,Cesar Garcia,Philippines,SOUTHEAST ASIA,109581000.0
4975,754976656.0,Stub,Franklin Bautista,Philippines,SOUTHEAST ASIA,109581000.0
4976,755380034.0,GA,Shalani Soledad,Philippines,SOUTHEAST ASIA,109581000.0
4977,755752296.0,Stub,Manuel Zamora,Philippines,SOUTHEAST ASIA,109581000.0
4978,755997644.0,Start,Pascual Racuyal,Philippines,SOUTHEAST ASIA,109581000.0
4979,756099281.0,Stub,Antonio Serapio,Philippines,SOUTHEAST ASIA,109581000.0
4980,756168551.0,Stub,Pedro Baculio,Philippines,SOUTHEAST ASIA,109581000.0
4981,756321233.0,Stub,Regie Sahali-Generale,Philippines,SOUTHEAST ASIA,109581000.0
4982,756724120.0,Start,Juan Macapagal,Philippines,SOUTHEAST ASIA,109581000.0
4983,757035853.0,Start,Rey Malonzo,Philippines,SOUTHEAST ASIA,109581000.0
4984,757178231.0,Stub,Datu Sikatuna,Philippines,SOUTHEAST ASIA,109581000.0
4985,757320449.0,Stub,Vicente Millora,Philippines,SOUTHEAST ASIA,109581000.0
4986,757341676.0,Start,Maria Clara Lobregat,Philippines,SOUTHEAST ASIA,109581000.0
4987,757975073.0,Start,Reynaldo Dagsa,Philippines,SOUTHEAST ASIA,109581000.0
4988,758239968.0,Stub,Victoria Hernandez-Reyes,Philippines,SOUTHEAST ASIA,109581000.0
4989,758568231.0,Stub,Emmylou Taliño-Mendoza,Philippines,SOUTHEAST ASIA,109581000.0
4990,759369603.0,Stub,Geraldine Ecleo-Villaroman,Philippines,SOUTHEAST ASIA,109581000.0
4991,759800474.0,Stub,Candido Pancrudo Jr.,Philippines,SOUTHEAST ASIA,109581000.0
4992,760026681.0,Stub,Antonio del Rosario,Philippines,SOUTHEAST ASIA,109581000.0
4993,760108113.0,Stub,Bernardo Piñol Jr.,Philippines,SOUTHEAST ASIA,109581000.0
4994,760380616.0,Stub,Hussin Ututalum Amin,Philippines,SOUTHEAST ASIA,109581000.0
4995,760653497.0,C,Herminio A. Astorga,Philippines,SOUTHEAST ASIA,109581000.0
4996,760837785.0,Start,Luzviminda Ilagan,Philippines,SOUTHEAST ASIA,109581000.0
4997,760989859.0,Start,Evelio Leonardia,Philippines,SOUTHEAST ASIA,109581000.0
4998,761001228.0,Start,Benjamin Tupay Loong,Philippines,SOUTHEAST ASIA,109581000.0
4999,761005053.0,Start,Diosdado Macapagal Arroyo,Philippines,SOUTHEAST ASIA,109581000.0
5000,761111593.0,Stub,Alberto Ramento,Philippines,SOUTHEAST ASIA,109581000.0
5001,761160776.0,Stub,Elisa Olga Kho,Philippines,SOUTHEAST ASIA,109581000.0
5002,761276777.0,Stub,Reynaldo Aguinaldo,Philippines,SOUTHEAST ASIA,109581000.0
5003,761748124.0,Start,Ponciano Bernardo,Philippines,SOUTHEAST ASIA,109581000.0
5004,761876054.0,Start,Carmen Planas,Philippines,SOUTHEAST ASIA,109581000.0
5005,763340459.0,Start,Sonia Roco,Philippines,SOUTHEAST ASIA,109581000.0
5006,763404668.0,Stub,Eileen Ermita-Buhain,Philippines,SOUTHEAST ASIA,109581000.0
5007,764315732.0,Start,Monica Prieto-Teodoro,Philippines,SOUTHEAST ASIA,109581000.0
5008,764487315.0,Stub,Vicente Delfin,Philippines,SOUTHEAST ASIA,109581000.0
5009,764645892.0,C,José B. Lingad,Philippines,SOUTHEAST ASIA,109581000.0
5010,765025372.0,Start,Danilo Fernandez,Philippines,SOUTHEAST ASIA,109581000.0
5011,765120389.0,Start,Norberto Romualdez,Philippines,SOUTHEAST ASIA,109581000.0
5012,765432148.0,Start,Eugenio Jose Lacson,Philippines,SOUTHEAST ASIA,109581000.0
5013,765849149.0,Stub,Noel Rosal,Philippines,SOUTHEAST ASIA,109581000.0
5014,765940522.0,Stub,Gil Montilla,Philippines,SOUTHEAST ASIA,109581000.0
5015,765940936.0,Stub,Samuel Dangwa,Philippines,SOUTHEAST ASIA,109581000.0
5016,765942391.0,Start,Zosimo Paredes,Philippines,SOUTHEAST ASIA,109581000.0
5017,765942517.0,Stub,Julio Nalundasan,Philippines,SOUTHEAST ASIA,109581000.0
5018,765943153.0,Stub,Jose D. Aspiras,Philippines,SOUTHEAST ASIA,109581000.0
5019,765943319.0,Stub,Crispín Oben,Philippines,SOUTHEAST ASIA,109581000.0
5020,765945088.0,Stub,Eduardo Nonato Joson,Philippines,SOUTHEAST ASIA,109581000.0
5021,765947852.0,Stub,Potenciano Lesaca,Philippines,SOUTHEAST ASIA,109581000.0
5022,765956179.0,Start,Edelmiro Amante,Philippines,SOUTHEAST ASIA,109581000.0
5023,765957205.0,Stub,Isidro Vamenta,Philippines,SOUTHEAST ASIA,109581000.0
5024,765957563.0,C,Cesar Climaco,Philippines,SOUTHEAST ASIA,109581000.0
5025,765957854.0,Start,Elisa Ochoa,Philippines,SOUTHEAST ASIA,109581000.0
5026,765958946.0,Stub,Ramon Neri,Philippines,SOUTHEAST ASIA,109581000.0
5027,765960554.0,Stub,Antonino P. Roman,Philippines,SOUTHEAST ASIA,109581000.0
5028,765962216.0,Start,Carlos R. Imperial,Philippines,SOUTHEAST ASIA,109581000.0
5029,765967713.0,Stub,Tomás del Rosario,Philippines,SOUTHEAST ASIA,109581000.0
5030,765993833.0,Stub,Francisco Felipe Villanueva,Philippines,SOUTHEAST ASIA,109581000.0
5031,765995378.0,Stub,Fermín Torralba,Philippines,SOUTHEAST ASIA,109581000.0
5032,766083019.0,Stub,Segundo Gastón,Philippines,SOUTHEAST ASIA,109581000.0
5033,767236913.0,Stub,Erlinda Fadera-Basilio,Philippines,SOUTHEAST ASIA,109581000.0
5034,767878724.0,Stub,Zaldy Ampatuan,Philippines,SOUTHEAST ASIA,109581000.0
5035,768053172.0,Start,Rafael Corpus,Philippines,SOUTHEAST ASIA,109581000.0
5036,768531747.0,Start,Ismael Kiram II,Philippines,SOUTHEAST ASIA,109581000.0
5037,769279677.0,Start,Miro Quimbo,Philippines,SOUTHEAST ASIA,109581000.0
5038,769279976.0,Start,Mercedes Alvarez (politician),Philippines,SOUTHEAST ASIA,109581000.0
5039,769521239.0,C,Vandolph,Philippines,SOUTHEAST ASIA,109581000.0
5040,769665490.0,Stub,José Clarín,Philippines,SOUTHEAST ASIA,109581000.0
5041,770889618.0,C,Paul Artadi,Philippines,SOUTHEAST ASIA,109581000.0
5042,770929578.0,C,Walden Bello,Philippines,SOUTHEAST ASIA,109581000.0
5043,771190033.0,Start,President pro tempore of the Senate of the Philippines,Philippines,SOUTHEAST ASIA,109581000.0
5044,772094106.0,Stub,Gregory Domingo,Philippines,SOUTHEAST ASIA,109581000.0
5045,772622216.0,Stub,Elias Bulut Jr.,Philippines,SOUTHEAST ASIA,109581000.0
5046,772625718.0,Start,Sharif ul-Hāshim of Sulu,Philippines,SOUTHEAST ASIA,109581000.0
5047,772650911.0,B,Raul Roco,Philippines,SOUTHEAST ASIA,109581000.0
5048,774256116.0,Stub,Oscar Malapitan,Philippines,SOUTHEAST ASIA,109581000.0
5049,774287741.0,Start,Floor leaders of the Senate of the Philippines,Philippines,SOUTHEAST ASIA,109581000.0
5050,774320882.0,Start,Roy Padilla Sr.,Philippines,SOUTHEAST ASIA,109581000.0
5051,774557013.0,Start,Daniel Fernando,Philippines,SOUTHEAST ASIA,109581000.0
5052,774690273.0,Start,Mikey Arroyo,Philippines,SOUTHEAST ASIA,109581000.0
5053,774832875.0,Stub,Ingatun-Lukman Gumuntul Istarul,Philippines,SOUTHEAST ASIA,109581000.0
5054,775006147.0,Start,Tingting Cojuangco,Philippines,SOUTHEAST ASIA,109581000.0
5055,775115945.0,Start,Gustavo Tambunting,Philippines,SOUTHEAST ASIA,109581000.0
5056,775297022.0,Start,Patricia Santo Tomas,Philippines,SOUTHEAST ASIA,109581000.0
5057,775297326.0,C,Nieves Confesor,Philippines,SOUTHEAST ASIA,109581000.0
5058,775406154.0,Stub,Manuel Earnshaw,Philippines,SOUTHEAST ASIA,109581000.0
5059,775459624.0,Start,Pax Mangudadatu,Philippines,SOUTHEAST ASIA,109581000.0
5060,775688290.0,Start,Oscar Gozos,Philippines,SOUTHEAST ASIA,109581000.0
5061,775688359.0,Stub,Lorna Silverio,Philippines,SOUTHEAST ASIA,109581000.0
5062,775688645.0,Start,Tecla San Andres Ziga,Philippines,SOUTHEAST ASIA,109581000.0
5063,775982002.0,Start,Virgilio de los Reyes,Philippines,SOUTHEAST ASIA,109581000.0
5064,776132137.0,Start,Janette Garin,Philippines,SOUTHEAST ASIA,109581000.0
5065,776512057.0,Start,Merceditas Gutierrez,Philippines,SOUTHEAST ASIA,109581000.0
5066,776667840.0,Stub,Rolando Espinosa,Philippines,SOUTHEAST ASIA,109581000.0
5067,777210977.0,Stub,Ronnie Vicente Lagnada,Philippines,SOUTHEAST ASIA,109581000.0
5068,777211047.0,Stub,Jose Aquino II,Philippines,SOUTHEAST ASIA,109581000.0
5069,777535002.0,Stub,Joseph Santiago,Philippines,SOUTHEAST ASIA,109581000.0
5070,777570535.0,C,Chiquito (actor),Philippines,SOUTHEAST ASIA,109581000.0
5071,778053470.0,Stub,Jose Calingasan,Philippines,SOUTHEAST ASIA,109581000.0
5072,778117506.0,Start,Bernardo Vergara,Philippines,SOUTHEAST ASIA,109581000.0
5073,778283333.0,GA,Datu Uto,Philippines,SOUTHEAST ASIA,109581000.0
5074,778284116.0,Stub,Pedro Concepcion,Philippines,SOUTHEAST ASIA,109581000.0
5075,778286491.0,Stub,Judith Cajes,Philippines,SOUTHEAST ASIA,109581000.0
5076,778323516.0,Start,Josephine Sato,Philippines,SOUTHEAST ASIA,109581000.0
5077,778349720.0,C,Silvino Barsana Agudo,Philippines,SOUTHEAST ASIA,109581000.0
5078,779286209.0,Start,Justo Justo,Philippines,SOUTHEAST ASIA,109581000.0
5079,779345838.0,Start,Vivencio Cuyugan,Philippines,SOUTHEAST ASIA,109581000.0
5080,779409117.0,Start,Juanita Amatong,Philippines,SOUTHEAST ASIA,109581000.0
5081,779409577.0,Start,Darlene Antonino-Custodio,Philippines,SOUTHEAST ASIA,109581000.0
5082,779410032.0,Start,Rosalinda Baldoz,Philippines,SOUTHEAST ASIA,109581000.0
5083,779410246.0,Start,Emilia Boncodin,Philippines,SOUTHEAST ASIA,109581000.0
5084,779662223.0,Start,Jum Jainudin Akbar,Philippines,SOUTHEAST ASIA,109581000.0
5085,780005794.0,Start,Lani Cayetano,Philippines,SOUTHEAST ASIA,109581000.0
5086,780010108.0,Stub,Wendel Avisado,Philippines,SOUTHEAST ASIA,109581000.0
5087,780474200.0,Stub,Ansaruddin Alonto Adiong,Philippines,SOUTHEAST ASIA,109581000.0
5088,781598998.0,Stub,Fortunato Borbon,Philippines,SOUTHEAST ASIA,109581000.0
5089,781848829.0,C,List of sultans of Sulu,Philippines,SOUTHEAST ASIA,109581000.0
5090,782161759.0,Start,Beng Climaco,Philippines,SOUTHEAST ASIA,109581000.0
5091,782290215.0,Start,Mark Lapid,Philippines,SOUTHEAST ASIA,109581000.0
5092,782551800.0,C,Wahab Akbar,Philippines,SOUTHEAST ASIA,109581000.0
5093,782619046.0,Stub,Luzviminda Tancangco,Philippines,SOUTHEAST ASIA,109581000.0
5094,782745008.0,Stub,Jesus Lava,Philippines,SOUTHEAST ASIA,109581000.0
5095,783269014.0,Start,Teresa Aquino-Oreta,Philippines,SOUTHEAST ASIA,109581000.0
5096,783278222.0,Start,Manuel Collantes,Philippines,SOUTHEAST ASIA,109581000.0
5097,783546506.0,Stub,Marion Andres,Philippines,SOUTHEAST ASIA,109581000.0
5098,783796487.0,Stub,Jose Sering,Philippines,SOUTHEAST ASIA,109581000.0
5099,784051017.0,C,Francisco Tatad,Philippines,SOUTHEAST ASIA,109581000.0
5100,784391189.0,Stub,Datu Amir Baraguir,Philippines,SOUTHEAST ASIA,109581000.0
5101,784466759.0,Start,Proceso Alcala,Philippines,SOUTHEAST ASIA,109581000.0
5102,785049864.0,Stub,Kit Nieto,Philippines,SOUTHEAST ASIA,109581000.0
5103,786123050.0,Stub,Miguel Luis Villafuerte,Philippines,SOUTHEAST ASIA,109581000.0
5104,786134355.0,GA,Ombudsman of the Philippines,Philippines,SOUTHEAST ASIA,109581000.0
5105,786147412.0,Start,Jaime C. de Veyra,Philippines,SOUTHEAST ASIA,109581000.0
5106,786156286.0,C,James Leonard Gordon,Philippines,SOUTHEAST ASIA,109581000.0
5107,786274980.0,Start,Abigail Valte,Philippines,SOUTHEAST ASIA,109581000.0
5108,786322529.0,Start,Robert Jaworski Jr.,Philippines,SOUTHEAST ASIA,109581000.0
5109,786886791.0,Start,Antonio Eduardo Nachura,Philippines,SOUTHEAST ASIA,109581000.0
5110,787090023.0,Stub,Albert Garcia,Philippines,SOUTHEAST ASIA,109581000.0
5111,787150709.0,C,Rogelio de la Rosa,Philippines,SOUTHEAST ASIA,109581000.0
5112,787327216.0,Stub,Nelida Cabigayan,Philippines,SOUTHEAST ASIA,109581000.0
5113,787620021.0,Start,Magnolia Antonino,Philippines,SOUTHEAST ASIA,109581000.0
5114,787645899.0,C,Guia Gomez,Philippines,SOUTHEAST ASIA,109581000.0
5115,787729910.0,Start,Edcel Lagman,Philippines,SOUTHEAST ASIA,109581000.0
5116,787753393.0,Stub,Charles Yeater,Philippines,SOUTHEAST ASIA,109581000.0
5117,787870944.0,C,Agnes Devanadera,Philippines,SOUTHEAST ASIA,109581000.0
5118,788304471.0,C,Victor Wood,Philippines,SOUTHEAST ASIA,109581000.0
5119,788446179.0,Stub,Mark Leviste,Philippines,SOUTHEAST ASIA,109581000.0
5120,788787895.0,Stub,Romy Tiongco,Philippines,SOUTHEAST ASIA,109581000.0
5121,788892140.0,Start,Jose Fabian Cadiz,Philippines,SOUTHEAST ASIA,109581000.0
5122,789020318.0,Start,Andal Ampatuan Jr.,Philippines,SOUTHEAST ASIA,109581000.0
5123,789126230.0,C,Bobby Pacquiao,Philippines,SOUTHEAST ASIA,109581000.0
5124,789588297.0,Start,Lázaro Mangubat,Philippines,SOUTHEAST ASIA,109581000.0
5125,789598610.0,Start,Etta Rosales,Philippines,SOUTHEAST ASIA,109581000.0
5126,789665242.0,Start,Loi Ejercito,Philippines,SOUTHEAST ASIA,109581000.0
5127,789665267.0,C,Pia Cayetano,Philippines,SOUTHEAST ASIA,109581000.0
5128,789779623.0,Stub,Arrel Olaño,Philippines,SOUTHEAST ASIA,109581000.0
5129,790304539.0,Start,Xyza Diazen,Philippines,SOUTHEAST ASIA,109581000.0
5130,790994376.0,B,Bella Angara,Philippines,SOUTHEAST ASIA,109581000.0
5131,791091352.0,Start,Benigno Juan,Philippines,SOUTHEAST ASIA,109581000.0
5132,791322602.0,Start,Cynthia Villar,Philippines,SOUTHEAST ASIA,109581000.0
5133,791574231.0,Stub,Mario Montejo,Philippines,SOUTHEAST ASIA,109581000.0
5134,792229042.0,Start,Francis Zamora,Philippines,SOUTHEAST ASIA,109581000.0
5135,792281510.0,Stub,Cherrylyn Santos,Philippines,SOUTHEAST ASIA,109581000.0
5136,792348967.0,C,Leticia Ramos-Shahani,Philippines,SOUTHEAST ASIA,109581000.0
5137,792372272.0,Stub,Nerissa Corazon Soon-Ruiz,Philippines,SOUTHEAST ASIA,109581000.0
5138,792569471.0,Start,Val Sotto,Philippines,SOUTHEAST ASIA,109581000.0
5139,792731102.0,C,Isko Moreno,Philippines,SOUTHEAST ASIA,109581000.0
5140,792921333.0,Start,Imelda Papin,Philippines,SOUTHEAST ASIA,109581000.0
5141,793030550.0,Start,List of female senators of the Philippines,Philippines,SOUTHEAST ASIA,109581000.0
5142,793108551.0,Start,Helena Benitez,Philippines,SOUTHEAST ASIA,109581000.0
5143,793179984.0,Start,Carlos Isagani Zarate,Philippines,SOUTHEAST ASIA,109581000.0
5144,793196615.0,Start,Carmencita Reyes,Philippines,SOUTHEAST ASIA,109581000.0
5145,793224044.0,C,Lino Cayetano,Philippines,SOUTHEAST ASIA,109581000.0
5146,793265109.0,Start,Rolando Andaya Jr.,Philippines,SOUTHEAST ASIA,109581000.0
5147,793497726.0,C,Sonny Parsons,Philippines,SOUTHEAST ASIA,109581000.0
5148,793510178.0,Start,Dennis Padilla,Philippines,SOUTHEAST ASIA,109581000.0
5149,793864144.0,Start,Roselle Nava,Philippines,SOUTHEAST ASIA,109581000.0
5150,793937076.0,C,Chief Justice of the Supreme Court of the Philippines,Philippines,SOUTHEAST ASIA,109581000.0
5151,794078237.0,Stub,Lana Jalosjos,Philippines,SOUTHEAST ASIA,109581000.0
5152,794297309.0,Stub,Teresita Herbosa,Philippines,SOUTHEAST ASIA,109581000.0
5153,794303593.0,Start,Alberto Lim,Philippines,SOUTHEAST ASIA,109581000.0
5154,794443765.0,Stub,Cipriano Bautista,Philippines,SOUTHEAST ASIA,109581000.0
5155,794518328.0,Stub,Jose Zubiri III,Philippines,SOUTHEAST ASIA,109581000.0
5156,794564716.0,C,Anjo Yllana,Philippines,SOUTHEAST ASIA,109581000.0
5157,795064110.0,Start,List of female cabinet secretaries of the Philippines,Philippines,SOUTHEAST ASIA,109581000.0
5158,795078264.0,Start,Eugene Allen Gilmore,Philippines,SOUTHEAST ASIA,109581000.0
5159,795152176.0,Start,Tarik Sulayman,Philippines,SOUTHEAST ASIA,109581000.0
5160,795199667.0,Start,Benito Legarda,Philippines,SOUTHEAST ASIA,109581000.0
5161,795303614.0,Stub,Eduardo Gullas,Philippines,SOUTHEAST ASIA,109581000.0
5162,795393528.0,Start,Deputy Speaker of the House of Representatives of the Philippines,Philippines,SOUTHEAST ASIA,109581000.0
5163,795450515.0,Start,Jose Antonio N. Carrion,Philippines,SOUTHEAST ASIA,109581000.0
5164,795478605.0,Start,Crisanto Evangelista,Philippines,SOUTHEAST ASIA,109581000.0
5165,795480219.0,C,Crispin Beltran,Philippines,SOUTHEAST ASIA,109581000.0
5166,795581140.0,Stub,Alexander Gesmundo,Philippines,SOUTHEAST ASIA,109581000.0
5167,795748641.0,C,Perfecto Yasay Jr.,Philippines,SOUTHEAST ASIA,109581000.0
5168,795766434.0,Start,Francis Bichara,Philippines,SOUTHEAST ASIA,109581000.0
5169,795772413.0,C,Ramon Revilla Sr.,Philippines,SOUTHEAST ASIA,109581000.0
5170,795855760.0,C,Alma Moreno,Philippines,SOUTHEAST ASIA,109581000.0
5171,795918619.0,C,Vice President of the Philippines,Philippines,SOUTHEAST ASIA,109581000.0
5172,795982895.0,Start,Victor Ziga,Philippines,SOUTHEAST ASIA,109581000.0
5173,796090817.0,Stub,Andres Reyes Jr.,Philippines,SOUTHEAST ASIA,109581000.0
5174,796160498.0,Start,Miriam Coronel-Ferrer,Philippines,SOUTHEAST ASIA,109581000.0
5175,796223926.0,C,Marcial Calleja,Philippines,SOUTHEAST ASIA,109581000.0
5176,796285895.0,Start,Ricky Carandang,Philippines,SOUTHEAST ASIA,109581000.0
5177,796516853.0,Start,Pedro Rodríguez (politician),Philippines,SOUTHEAST ASIA,109581000.0
5178,796531644.0,Start,Resident Commissioner of the Philippines,Philippines,SOUTHEAST ASIA,109581000.0
5179,796666427.0,Start,Kapitan Laut Buisan,Philippines,SOUTHEAST ASIA,109581000.0
5180,796723628.0,Start,Gumbay Piang,Philippines,SOUTHEAST ASIA,109581000.0
5181,796729363.0,Stub,Sharif Kabungsuwan,Philippines,SOUTHEAST ASIA,109581000.0
5182,796740130.0,C,Jesse Robredo,Philippines,SOUTHEAST ASIA,109581000.0
5183,796754057.0,C,Vicente Álvarez,Philippines,SOUTHEAST ASIA,109581000.0
5184,796772904.0,Stub,Arlene B. Arcillas,Philippines,SOUTHEAST ASIA,109581000.0
5185,796842814.0,Start,Sol Aragones,Philippines,SOUTHEAST ASIA,109581000.0
5186,796948889.0,C,Muwallil Wasit I of Sulu,Philippines,SOUTHEAST ASIA,109581000.0
5187,796988403.0,C,Gary Estrada,Philippines,SOUTHEAST ASIA,109581000.0
5188,797001743.0,Start,Ramon Paje,Philippines,SOUTHEAST ASIA,109581000.0
5189,797001965.0,Stub,Corazon Soliman,Philippines,SOUTHEAST ASIA,109581000.0
5190,797116148.0,Start,Arthur Robes,Philippines,SOUTHEAST ASIA,109581000.0
5191,797203312.0,C,Freddie Webb,Philippines,SOUTHEAST ASIA,109581000.0
5192,797270565.0,Start,Angelica Jones,Philippines,SOUTHEAST ASIA,109581000.0
5193,797323903.0,C,Muhammad Kudarat,Philippines,SOUTHEAST ASIA,109581000.0
5194,797606419.0,Start,Braulio Yaranon,Philippines,SOUTHEAST ASIA,109581000.0
5195,797775720.0,GA,Grace Poe,Philippines,SOUTHEAST ASIA,109581000.0
5196,797816708.0,C,Joey Salceda,Philippines,SOUTHEAST ASIA,109581000.0
5197,797937190.0,Start,Jinkee Pacquiao,Philippines,SOUTHEAST ASIA,109581000.0
5198,798112906.0,GA,Mangubat (surname),Philippines,SOUTHEAST ASIA,109581000.0
5199,798166384.0,Stub,Fredenil Castro,Philippines,SOUTHEAST ASIA,109581000.0
5200,798349303.0,Stub,Jaime Ongpin,Philippines,SOUTHEAST ASIA,109581000.0
5201,798351202.0,C,Jamby Madrigal,Philippines,SOUTHEAST ASIA,109581000.0
5202,798412502.0,Stub,"Ismael Abubakar, Jr.",Philippines,SOUTHEAST ASIA,109581000.0
5203,798553329.0,C,Joker Arroyo,Philippines,SOUTHEAST ASIA,109581000.0
5204,798588592.0,C,Wenceslao Vinzons,Philippines,SOUTHEAST ASIA,109581000.0
5205,798621567.0,C,Rommel Padilla,Philippines,SOUTHEAST ASIA,109581000.0
5206,798809832.0,Start,Luis Villafuerte,Philippines,SOUTHEAST ASIA,109581000.0
5207,798876226.0,Start,Isauro Gabaldón,Philippines,SOUTHEAST ASIA,109581000.0
5208,798897554.0,Stub,Danilo Lagbas,Philippines,SOUTHEAST ASIA,109581000.0
5209,798999842.0,Start,Mikee Romero,Philippines,SOUTHEAST ASIA,109581000.0
5210,799160873.0,Stub,Victor de Padua,Philippines,SOUTHEAST ASIA,109581000.0
5211,799184140.0,Start,Lou Veloso,Philippines,SOUTHEAST ASIA,109581000.0
5212,799188021.0,Start,Amelia Gordon,Philippines,SOUTHEAST ASIA,109581000.0
5213,799245202.0,Stub,Nene Go,Philippines,SOUTHEAST ASIA,109581000.0
5214,799409893.0,Start,Wanda Corazon Teo,Philippines,SOUTHEAST ASIA,109581000.0
5215,799440819.0,Start,Pacifico Marcos,Philippines,SOUTHEAST ASIA,109581000.0
5216,799490542.0,Stub,Pedro Barbin,Philippines,SOUTHEAST ASIA,109581000.0
5217,799525543.0,Start,Delia Albert,Philippines,SOUTHEAST ASIA,109581000.0
5218,799565176.0,Start,Alfredo G. Marañon Jr.,Philippines,SOUTHEAST ASIA,109581000.0
5219,799658106.0,C,Kalantiaw,Philippines,SOUTHEAST ASIA,109581000.0
5220,799728153.0,Stub,Sitti Djalia Turabin,Philippines,SOUTHEAST ASIA,109581000.0
5221,799903239.0,C,Nancy Binay,Philippines,SOUTHEAST ASIA,109581000.0
5222,799916364.0,GA,Renato Corona,Philippines,SOUTHEAST ASIA,109581000.0
5223,800111837.0,Stub,Severo Cea,Philippines,SOUTHEAST ASIA,109581000.0
5224,800242730.0,Start,Florencio Miraflores,Philippines,SOUTHEAST ASIA,109581000.0
5225,800266751.0,Start,Strike Revilla,Philippines,SOUTHEAST ASIA,109581000.0
5226,800428319.0,Stub,Harriet Demetriou,Philippines,SOUTHEAST ASIA,109581000.0
5227,800493979.0,Start,Isidro Ungab,Philippines,SOUTHEAST ASIA,109581000.0
5228,800506490.0,C,Azim ud-Din I of Sulu,Philippines,SOUTHEAST ASIA,109581000.0
5229,800590794.0,Stub,Victor Dominguez,Philippines,SOUTHEAST ASIA,109581000.0
5230,800613702.0,B,Dulce Saguisag,Philippines,SOUTHEAST ASIA,109581000.0
5231,800667768.0,Stub,Rajah Tupas,Philippines,SOUTHEAST ASIA,109581000.0
5232,800729435.0,Start,Salvador Medialdea,Philippines,SOUTHEAST ASIA,109581000.0
5233,800780960.0,Start,Yoyong Martirez,Philippines,SOUTHEAST ASIA,109581000.0
5234,800842293.0,Start,Solita Monsod,Philippines,SOUTHEAST ASIA,109581000.0
5235,800860305.0,C,President of the Senate of the Philippines,Philippines,SOUTHEAST ASIA,109581000.0
5236,800954291.0,B,Speaker of the House of Representatives of the Philippines,Philippines,SOUTHEAST ASIA,109581000.0
5237,800960148.0,Start,Grace Padaca,Philippines,SOUTHEAST ASIA,109581000.0
5238,800980249.0,Start,Lucy Torres Gomez,Philippines,SOUTHEAST ASIA,109581000.0
5239,801020926.0,C,Eddie Ilarde,Philippines,SOUTHEAST ASIA,109581000.0
5240,801182203.0,Start,Edwin Lacierda,Philippines,SOUTHEAST ASIA,109581000.0
5241,801383703.0,Stub,Bartolome Ramos,Philippines,SOUTHEAST ASIA,109581000.0
5242,801456916.0,C,Philip Cezar,Philippines,SOUTHEAST ASIA,109581000.0
5243,801483899.0,C,Roderick Paulate,Philippines,SOUTHEAST ASIA,109581000.0
5244,801502727.0,Stub,Marides Fernando,Philippines,SOUTHEAST ASIA,109581000.0
5245,801522470.0,C,Jinggoy Estrada,Philippines,SOUTHEAST ASIA,109581000.0
5246,801620864.0,Start,Jolo Revilla,Philippines,SOUTHEAST ASIA,109581000.0
5247,801685381.0,C,Juan Miguel Zubiri,Philippines,SOUTHEAST ASIA,109581000.0
5248,801705450.0,Start,Cristina Gonzales,Philippines,SOUTHEAST ASIA,109581000.0
5249,801705678.0,Start,Jose Mari Gonzales,Philippines,SOUTHEAST ASIA,109581000.0
5250,801716549.0,Start,Kata Inocencio,Philippines,SOUTHEAST ASIA,109581000.0
5251,801721043.0,Stub,Benasing Macarambon,Philippines,SOUTHEAST ASIA,109581000.0
5252,801726003.0,Start,Enrique Ona,Philippines,SOUTHEAST ASIA,109581000.0
5253,801812983.0,Start,Marcelino Teodoro,Philippines,SOUTHEAST ASIA,109581000.0
5254,801868026.0,C,Sultan Muliloda Datumulok,Philippines,SOUTHEAST ASIA,109581000.0
5255,801935788.0,Start,Timmy Chipeco,Philippines,SOUTHEAST ASIA,109581000.0
5256,802282227.0,C,Atoy Co,Philippines,SOUTHEAST ASIA,109581000.0
5257,802290549.0,C,E.R. Ejercito,Philippines,SOUTHEAST ASIA,109581000.0
5258,802340469.0,C,Evelio Javier,Philippines,SOUTHEAST ASIA,109581000.0
5259,802457902.0,GA,List of ancient Philippine consorts,Philippines,SOUTHEAST ASIA,109581000.0
5260,802472235.0,C,Ambrosio Padilla,Philippines,SOUTHEAST ASIA,109581000.0
5261,802477535.0,Start,Haydee Yorac,Philippines,SOUTHEAST ASIA,109581000.0
5262,802613001.0,Start,Paquito Ochoa Jr.,Philippines,SOUTHEAST ASIA,109581000.0
5263,802717761.0,Start,Simeon Toribio,Philippines,SOUTHEAST ASIA,109581000.0
5264,802734985.0,Start,Mel Mathay,Philippines,SOUTHEAST ASIA,109581000.0
5265,802741485.0,C,Lope K. Santos,Philippines,SOUTHEAST ASIA,109581000.0
5266,802742846.0,C,Monsour del Rosario,Philippines,SOUTHEAST ASIA,109581000.0
5267,802789728.0,Start,Rolen Paulino,Philippines,SOUTHEAST ASIA,109581000.0
5268,802845430.0,Start,Salvador Escudero,Philippines,SOUTHEAST ASIA,109581000.0
5269,802941417.0,C,Chris Tiu,Philippines,SOUTHEAST ASIA,109581000.0
5270,803040170.0,C,Fernando Poe Jr.,Philippines,SOUTHEAST ASIA,109581000.0
5271,803070790.0,C,Christopher de Leon,Philippines,SOUTHEAST ASIA,109581000.0
5272,803159285.0,Stub,Albert Que,Philippines,SOUTHEAST ASIA,109581000.0
5273,803181361.0,GA,Eva Estrada Kalaw,Philippines,SOUTHEAST ASIA,109581000.0
5274,803217308.0,Start,Jhoana Marie Tan,Philippines,SOUTHEAST ASIA,109581000.0
5275,803415614.0,C,Leonor Briones,Philippines,SOUTHEAST ASIA,109581000.0
5276,803422241.0,B,Presidency of Gloria Macapagal Arroyo,Philippines,SOUTHEAST ASIA,109581000.0
5277,803440216.0,Stub,Florencio Vargas,Philippines,SOUTHEAST ASIA,109581000.0
5278,803590550.0,C,Antonio Trillanes,Philippines,SOUTHEAST ASIA,109581000.0
5279,803676909.0,C,Larry Silva,Philippines,SOUTHEAST ASIA,109581000.0
5280,803706391.0,Start,Vicente Duterte,Philippines,SOUTHEAST ASIA,109581000.0
5281,803851823.0,Start,Enrique Manalo,Philippines,SOUTHEAST ASIA,109581000.0
5282,803901409.0,Start,Yul Servo,Philippines,SOUTHEAST ASIA,109581000.0
5283,803910216.0,GA,Francis Escudero,Philippines,SOUTHEAST ASIA,109581000.0
5284,803919487.0,Start,Justiniano Borja,Philippines,SOUTHEAST ASIA,109581000.0
5285,803946015.0,GA,Tito Sotto,Philippines,SOUTHEAST ASIA,109581000.0
5286,803974546.0,C,Gina Lopez,Philippines,SOUTHEAST ASIA,109581000.0
5287,804074233.0,C,Geraldine Roman,Philippines,SOUTHEAST ASIA,109581000.0
5288,804467138.0,Start,Pepe Pimentel,Philippines,SOUTHEAST ASIA,109581000.0
5289,804587145.0,Start,Nuevas Montes,Philippines,SOUTHEAST ASIA,109581000.0
5290,804661141.0,Stub,Henedina Abad,Philippines,SOUTHEAST ASIA,109581000.0
5291,804671679.0,C,Vilma Santos,Philippines,SOUTHEAST ASIA,109581000.0
5292,804686702.0,C,Rene Cayetano,Philippines,SOUTHEAST ASIA,109581000.0
5293,804800428.0,C,Francis Tolentino,Philippines,SOUTHEAST ASIA,109581000.0
5294,804820487.0,GA,Leila de Lima,Philippines,SOUTHEAST ASIA,109581000.0
5295,804883378.0,Stub,Gat Pangil,Philippines,SOUTHEAST ASIA,109581000.0
5296,804954939.0,Stub,Felixberto Serrano,Philippines,SOUTHEAST ASIA,109581000.0
5297,805086305.0,Start,Jayadewa,Philippines,SOUTHEAST ASIA,109581000.0
5298,805226061.0,Stub,Barangay Kagawad,Philippines,SOUTHEAST ASIA,109581000.0
5299,805316927.0,C,Jamalul Kiram III,Philippines,SOUTHEAST ASIA,109581000.0
5300,805337492.0,Stub,Raul del Mar,Philippines,SOUTHEAST ASIA,109581000.0
5301,805387450.0,Stub,Glenn Chong,Philippines,SOUTHEAST ASIA,109581000.0
5302,805401507.0,Start,Geronima Pecson,Philippines,SOUTHEAST ASIA,109581000.0
5303,805451049.0,C,Alfred Vargas,Philippines,SOUTHEAST ASIA,109581000.0
5304,805453483.0,C,Angelika Dela Cruz,Philippines,SOUTHEAST ASIA,109581000.0
5305,805455335.0,C,Benigno Aquino Jr.,Philippines,SOUTHEAST ASIA,109581000.0
5306,805511974.0,Start,Lourdes Quisumbing,Philippines,SOUTHEAST ASIA,109581000.0
5307,805519378.0,C,Carlo Loreto,Philippines,SOUTHEAST ASIA,109581000.0
5308,805547402.0,C,Rajah Salalila,Philippines,SOUTHEAST ASIA,109581000.0
5309,805601516.0,GA,Rajah Matanda,Philippines,SOUTHEAST ASIA,109581000.0
5310,805602881.0,C,Magat Salamat,Philippines,SOUTHEAST ASIA,109581000.0
5311,805607670.0,FA,Imelda Marcos,Philippines,SOUTHEAST ASIA,109581000.0
5312,805696455.0,FA,Lapu-Lapu,Philippines,SOUTHEAST ASIA,109581000.0
5313,805706122.0,GA,Cesar Montano,Philippines,SOUTHEAST ASIA,109581000.0
5314,805711140.0,C,Bong Revilla,Philippines,SOUTHEAST ASIA,109581000.0
5315,805723313.0,C,Joey Marquez,Philippines,SOUTHEAST ASIA,109581000.0
5316,805806187.0,Stub,Aurora E. Cerilles,Philippines,SOUTHEAST ASIA,109581000.0
5317,805817705.0,C,Herbert Bautista,Philippines,SOUTHEAST ASIA,109581000.0
5318,805869275.0,GA,Lakandula,Philippines,SOUTHEAST ASIA,109581000.0
5319,806019009.0,B,Miriam Defensor Santiago,Philippines,SOUTHEAST ASIA,109581000.0
5320,806035673.0,Start,Precious Hipolito,Philippines,SOUTHEAST ASIA,109581000.0
5321,806057235.0,FA,Leni Robredo,Philippines,SOUTHEAST ASIA,109581000.0
5322,806142064.0,GA,Gloria Macapagal Arroyo,Philippines,SOUTHEAST ASIA,109581000.0
5323,806166133.0,Start,Arturo Enrile,Philippines,SOUTHEAST ASIA,109581000.0
5324,806184872.0,C,Imee Marcos,Philippines,SOUTHEAST ASIA,109581000.0
5325,806287197.0,C,Rajah Sulayman,Philippines,SOUTHEAST ASIA,109581000.0
5326,806309382.0,Start,Joko Diaz,Philippines,SOUTHEAST ASIA,109581000.0
5327,806331098.0,C,Gwendolyn Garcia,Philippines,SOUTHEAST ASIA,109581000.0
5328,806364022.0,C,Edu Manzano,Philippines,SOUTHEAST ASIA,109581000.0
5329,806429269.0,C,Luis Raymund Villafuerte,Philippines,SOUTHEAST ASIA,109581000.0
5330,806615976.0,C,Robert Jaworski,Philippines,SOUTHEAST ASIA,109581000.0
5331,806641133.0,Start,Lani Mercado,Philippines,SOUTHEAST ASIA,109581000.0
5332,806660385.0,Start,Dayang Kalangitan,Philippines,SOUTHEAST ASIA,109581000.0
5333,806695103.0,Stub,Rajah Lontok,Philippines,SOUTHEAST ASIA,109581000.0
5334,806756600.0,C,Gregorio Honasan,Philippines,SOUTHEAST ASIA,109581000.0
5335,806772302.0,C,Joseph Estrada,Philippines,SOUTHEAST ASIA,109581000.0
5336,806794583.0,Start,Mamintal Alonto Adiong Jr.,Philippines,SOUTHEAST ASIA,109581000.0
5337,806817780.0,C,Rudy Fernandez (actor),Philippines,SOUTHEAST ASIA,109581000.0
5338,806819141.0,C,Governor-General of the Philippines,Philippines,SOUTHEAST ASIA,109581000.0
5339,806819447.0,GA,Joel Villanueva,Philippines,SOUTHEAST ASIA,109581000.0
5340,806850908.0,Start,Albee Benitez,Philippines,SOUTHEAST ASIA,109581000.0
5341,806894826.0,C,Muedzul Lail Tan Kiram,Philippines,SOUTHEAST ASIA,109581000.0
5342,806902263.0,FA,Corazon Aquino,Philippines,SOUTHEAST ASIA,109581000.0
5343,807044048.0,C,Alan Peter Cayetano,Philippines,SOUTHEAST ASIA,109581000.0
5344,807089380.0,Start,Anthony Alonzo,Philippines,SOUTHEAST ASIA,109581000.0
5345,807168573.0,FA,Rodrigo Duterte,Philippines,SOUTHEAST ASIA,109581000.0
5346,807190320.0,Start,Datu Piang,Philippines,SOUTHEAST ASIA,109581000.0
5347,807203695.0,Start,Jestoni Alarcon,Philippines,SOUTHEAST ASIA,109581000.0
5348,807272117.0,B,List of political families in the Philippines,Philippines,SOUTHEAST ASIA,109581000.0
5349,807279518.0,C,Phoebe Cabagnot,Philippines,SOUTHEAST ASIA,109581000.0
5350,807287083.0,Start,Rajah Humabon,Philippines,SOUTHEAST ASIA,109581000.0
5351,807331234.0,B,Manny Pacquiao,Philippines,SOUTHEAST ASIA,109581000.0
5352,807348216.0,C,Risa Hontiveros,Philippines,SOUTHEAST ASIA,109581000.0
5353,807353749.0,C,Lito Lapid,Philippines,SOUTHEAST ASIA,109581000.0
5354,807358292.0,C,Loren Legarda,Philippines,SOUTHEAST ASIA,109581000.0
5355,807381933.0,C,Sara Duterte,Philippines,SOUTHEAST ASIA,109581000.0
5356,807387980.0,Stub,Haber Amin Asarul,Philippines,SOUTHEAST ASIA,109581000.0
5357,807403634.0,Start,Dagul,Philippines,SOUTHEAST ASIA,109581000.0
5358,807462822.0,C,Paolo Duterte,Philippines,SOUTHEAST ASIA,109581000.0
5359,807475001.0,B,President of the Philippines,Philippines,SOUTHEAST ASIA,109581000.0
5360,807479087.0,GA,Aga Muhlach,Philippines,SOUTHEAST ASIA,109581000.0
5361,521986779.0,Stub,List of German politicians,Germany,WESTERN EUROPE,83300000.0
5362,662681733.0,Start,Walter Simon (philanthropist),Germany,WESTERN EUROPE,83300000.0
5363,678140107.0,Stub,Wilhelm Wallbaum,Germany,WESTERN EUROPE,83300000.0
5364,684525811.0,Stub,Wilhelm von Wedell-Piesdorf,Germany,WESTERN EUROPE,83300000.0
5365,684537777.0,Stub,Hans Graf von Schwerin-Löwitz,Germany,WESTERN EUROPE,83300000.0
5366,686349441.0,Stub,Jochen Ott,Germany,WESTERN EUROPE,83300000.0
5367,700669417.0,Stub,Fritz Heckert,Germany,WESTERN EUROPE,83300000.0
5368,702964122.0,Start,Veit Ludwig von Seckendorff,Germany,WESTERN EUROPE,83300000.0
5369,703401364.0,Stub,Bruno Erhard Abegg,Germany,WESTERN EUROPE,83300000.0
5370,703857757.0,Stub,Fritz Theilen,Germany,WESTERN EUROPE,83300000.0
5371,704529565.0,Stub,Ferdinand von Hansemann,Germany,WESTERN EUROPE,83300000.0
5372,704530012.0,Stub,Heinrich von Tiedemann,Germany,WESTERN EUROPE,83300000.0
5373,704816808.0,Start,Karl Zell,Germany,WESTERN EUROPE,83300000.0
5374,705228603.0,Start,Max Maurenbrecher,Germany,WESTERN EUROPE,83300000.0
5375,705383874.0,Start,Georg Bernhard Bilfinger,Germany,WESTERN EUROPE,83300000.0
5376,705842209.0,Stub,Rudi Mittig,Germany,WESTERN EUROPE,83300000.0
5377,706339506.0,Start,Otto Schmirgal,Germany,WESTERN EUROPE,83300000.0
5378,706972267.0,Start,Ralf Wieland,Germany,WESTERN EUROPE,83300000.0
5379,707213195.0,Stub,Gunter Pleuger,Germany,WESTERN EUROPE,83300000.0
5380,707799342.0,Stub,Rudolf Buttmann,Germany,WESTERN EUROPE,83300000.0
5381,708079302.0,Stub,August Reinsdorf,Germany,WESTERN EUROPE,83300000.0
5382,708158531.0,Start,Hans von der Groeben,Germany,WESTERN EUROPE,83300000.0
5383,708410373.0,Start,Karl Rudolf Friedenthal,Germany,WESTERN EUROPE,83300000.0
5384,708568482.0,Stub,Fritz Walter (politician),Germany,WESTERN EUROPE,83300000.0
5385,708570606.0,Stub,George Philipp Ludolf von Beckedorff,Germany,WESTERN EUROPE,83300000.0
5386,708890424.0,Stub,Benedict Waldeck,Germany,WESTERN EUROPE,83300000.0
5387,709601318.0,Start,Ernst Maria Lieber,Germany,WESTERN EUROPE,83300000.0
5388,709606379.0,Stub,Burghard Freiherr von Schorlemer-Alst,Germany,WESTERN EUROPE,83300000.0
5389,709851246.0,Start,Moriz Lieber,Germany,WESTERN EUROPE,83300000.0
5390,710911349.0,Stub,Gerd Greune,Germany,WESTERN EUROPE,83300000.0
5391,711147128.0,C,Joseph Heine,Germany,WESTERN EUROPE,83300000.0
5392,711153984.0,Start,Siegfried Gumbel,Germany,WESTERN EUROPE,83300000.0
5393,712484241.0,Stub,Andreas Kleinlein,Germany,WESTERN EUROPE,83300000.0
5394,712583819.0,Start,Michael Swierczek,Germany,WESTERN EUROPE,83300000.0
5395,712618222.0,Stub,Kaspar Deutschenbaur,Germany,WESTERN EUROPE,83300000.0
5396,712958855.0,Stub,Heinrich Sudermann,Germany,WESTERN EUROPE,83300000.0
5397,713018792.0,Stub,Dodo von Knyphausen,Germany,WESTERN EUROPE,83300000.0
5398,713083648.0,C,Karl August von Hardenberg,Germany,WESTERN EUROPE,83300000.0
5399,713083969.0,Start,Paul Hirsch (politician),Germany,WESTERN EUROPE,83300000.0
5400,713684076.0,Stub,Carl Otto von Madai,Germany,WESTERN EUROPE,83300000.0
5401,713785389.0,Start,Peter Gingold,Germany,WESTERN EUROPE,83300000.0
5402,715079454.0,Start,Rudolf Leonhard,Germany,WESTERN EUROPE,83300000.0
5403,715106494.0,Stub,Friedrich Gustav Carl Ulrich Franz von Schnehen,Germany,WESTERN EUROPE,83300000.0
5404,715614942.0,Stub,"Friedrich Wilhelm, Count Brandenburg",Germany,WESTERN EUROPE,83300000.0
5405,715640467.0,Stub,Wilfried Maaß,Germany,WESTERN EUROPE,83300000.0
5406,715863281.0,Stub,Evelyn Hecht-Galinski,Germany,WESTERN EUROPE,83300000.0
5407,716165385.0,Stub,Wolfgang Heinz (politician),Germany,WESTERN EUROPE,83300000.0
5408,716529241.0,Stub,Leopold Heinrich von Goltz,Germany,WESTERN EUROPE,83300000.0
5409,716765168.0,Stub,Jens Seipenbusch,Germany,WESTERN EUROPE,83300000.0
5410,716839880.0,Start,Jens Beutel,Germany,WESTERN EUROPE,83300000.0
5411,716850589.0,Stub,Joseph Baumgartner,Germany,WESTERN EUROPE,83300000.0
5412,716850828.0,Stub,Karl Bickleder,Germany,WESTERN EUROPE,83300000.0
5413,716853884.0,Stub,Alois Albert,Germany,WESTERN EUROPE,83300000.0
5414,717375871.0,Stub,Clemens Busch,Germany,WESTERN EUROPE,83300000.0
5415,717539993.0,Start,Dietrich Heinrich Ludwig von Ompteda,Germany,WESTERN EUROPE,83300000.0
5416,718104600.0,Stub,Dieter Kunzelmann,Germany,WESTERN EUROPE,83300000.0
5417,718546227.0,Start,Hermann von Beckerath,Germany,WESTERN EUROPE,83300000.0
5418,718719689.0,Start,Hilmar Hoffmann,Germany,WESTERN EUROPE,83300000.0
5419,718873001.0,Stub,Karl von Starck,Germany,WESTERN EUROPE,83300000.0
5420,718940489.0,Stub,Franz Jakob (politician),Germany,WESTERN EUROPE,83300000.0
5421,718941687.0,Stub,Wolfgang Yorck von Wartenburg,Germany,WESTERN EUROPE,83300000.0
5422,719225225.0,Stub,Clemens Heereman von Zuydwyck,Germany,WESTERN EUROPE,83300000.0
5423,719303513.0,Stub,Theodor von Guérard,Germany,WESTERN EUROPE,83300000.0
5424,719901379.0,Stub,Gerhart von Schulze-Gävernitz,Germany,WESTERN EUROPE,83300000.0
5425,720027234.0,Stub,Friedrich von Müller (statesman),Germany,WESTERN EUROPE,83300000.0
5426,720085815.0,Stub,Karl Eichfeld,Germany,WESTERN EUROPE,83300000.0
5427,720108257.0,Stub,Albert Lehmann,Germany,WESTERN EUROPE,83300000.0
5428,720145425.0,Stub,Heinrich Voelter,Germany,WESTERN EUROPE,83300000.0
5429,720172307.0,Stub,Johann Baer,Germany,WESTERN EUROPE,83300000.0
5430,720176483.0,Stub,Friedrich Heinrich Karl Bobzin,Germany,WESTERN EUROPE,83300000.0
5431,720182444.0,Stub,Max Dortu,Germany,WESTERN EUROPE,83300000.0
5432,720312060.0,Start,Joseph Hillebrand,Germany,WESTERN EUROPE,83300000.0
5433,720441803.0,C,Gerhard Stahl,Germany,WESTERN EUROPE,83300000.0
5434,720462995.0,Stub,Mathilde Vaerting,Germany,WESTERN EUROPE,83300000.0
5435,720468197.0,Stub,Wilhelm Anton von Klewitz,Germany,WESTERN EUROPE,83300000.0
5436,720475885.0,Stub,Friedrich August von Staegemann,Germany,WESTERN EUROPE,83300000.0
5437,720927455.0,Stub,Karl Hermann Bitter,Germany,WESTERN EUROPE,83300000.0
5438,721085876.0,Start,Helene Wessel,Germany,WESTERN EUROPE,83300000.0
5439,721588768.0,Stub,Ernst Siehr,Germany,WESTERN EUROPE,83300000.0
5440,721593326.0,Stub,Francis Kruse,Germany,WESTERN EUROPE,83300000.0
5441,721838555.0,Stub,Christian Wilhelm Karl Ewald,Germany,WESTERN EUROPE,83300000.0
5442,721838582.0,Stub,Carl Ludwig Wilhelm Grolman,Germany,WESTERN EUROPE,83300000.0
5443,722213816.0,Start,Johann Ludwig Klüber,Germany,WESTERN EUROPE,83300000.0
5444,722242389.0,Stub,Christian Friedrich von Otto,Germany,WESTERN EUROPE,83300000.0
5445,722560643.0,Start,Franz Josef Heinz,Germany,WESTERN EUROPE,83300000.0
5446,723011691.0,Stub,Hermann Roeren,Germany,WESTERN EUROPE,83300000.0
5447,723197874.0,Stub,Rüdiger Butte,Germany,WESTERN EUROPE,83300000.0
5448,723569805.0,Stub,Karl Ernst Rahtgens,Germany,WESTERN EUROPE,83300000.0
5449,723579808.0,Stub,Wolfgang Templin,Germany,WESTERN EUROPE,83300000.0
5450,724121703.0,Stub,Fritz Sternberg,Germany,WESTERN EUROPE,83300000.0
5451,724302591.0,Stub,Franz Hruska,Germany,WESTERN EUROPE,83300000.0
5452,724872861.0,Start,Walter Buchheim,Germany,WESTERN EUROPE,83300000.0
5453,725041109.0,Start,Anton of Stolberg-Wernigerode,Germany,WESTERN EUROPE,83300000.0
5454,725708195.0,Stub,Hermann Höpker-Aschoff,Germany,WESTERN EUROPE,83300000.0
5455,726804496.0,Stub,Werner Klumpp,Germany,WESTERN EUROPE,83300000.0
5456,726844452.0,Stub,Ludwig Bergsträsser,Germany,WESTERN EUROPE,83300000.0
5457,726869372.0,Stub,Justin von Linde,Germany,WESTERN EUROPE,83300000.0
5458,727218166.0,Start,Franz Handlos,Germany,WESTERN EUROPE,83300000.0
5459,727219294.0,Stub,Hans Demmelmeier,Germany,WESTERN EUROPE,83300000.0
5460,727226171.0,Stub,Wolfgang Stammberger,Germany,WESTERN EUROPE,83300000.0
5461,727330325.0,Stub,Gustav Fuchs,Germany,WESTERN EUROPE,83300000.0
5462,727452309.0,Start,Alfred Loritz,Germany,WESTERN EUROPE,83300000.0
5463,727507621.0,Start,Oskar Müller,Germany,WESTERN EUROPE,83300000.0
5464,727507673.0,Stub,Ferdinand Auth,Germany,WESTERN EUROPE,83300000.0
5465,727708203.0,Stub,Ludwig Simon,Germany,WESTERN EUROPE,83300000.0
5466,727944197.0,Stub,Benno von Arent,Germany,WESTERN EUROPE,83300000.0
5467,728127168.0,Stub,Heinrich Krone,Germany,WESTERN EUROPE,83300000.0
5468,728127202.0,Stub,Helmut Lemke,Germany,WESTERN EUROPE,83300000.0
5469,728127307.0,Stub,Werner Münch,Germany,WESTERN EUROPE,83300000.0
5470,728127364.0,Start,Hubert Ney,Germany,WESTERN EUROPE,83300000.0
5471,728147757.0,Stub,Friedrich Ernst Scheller,Germany,WESTERN EUROPE,83300000.0
5472,728425427.0,Start,Albert Vögler,Germany,WESTERN EUROPE,83300000.0
5473,728446551.0,Stub,Sylvester Jordan,Germany,WESTERN EUROPE,83300000.0
5474,728641340.0,Stub,Wladislaw Taczanowski,Germany,WESTERN EUROPE,83300000.0
5475,728833030.0,Start,Werner Eggerath,Germany,WESTERN EUROPE,83300000.0
5476,728833032.0,Stub,Werner Bruschke,Germany,WESTERN EUROPE,83300000.0
5477,728833392.0,Stub,Rudolf Jahn,Germany,WESTERN EUROPE,83300000.0
5478,728833751.0,Start,Paul Wessel,Germany,WESTERN EUROPE,83300000.0
5479,728979220.0,Start,Tatjana Festerling,Germany,WESTERN EUROPE,83300000.0
5480,729529631.0,Stub,Theodor Hillenhinrichs,Germany,WESTERN EUROPE,83300000.0
5481,730539891.0,Stub,Andreas Gottlieb von Bernstorff,Germany,WESTERN EUROPE,83300000.0
5482,731732309.0,Stub,Martin Grüner,Germany,WESTERN EUROPE,83300000.0
5483,731732401.0,Stub,Wilhelm Haferkamp,Germany,WESTERN EUROPE,83300000.0
5484,731738359.0,Stub,Walter Wallmann,Germany,WESTERN EUROPE,83300000.0
5485,731899371.0,Stub,Hermann Dietrich,Germany,WESTERN EUROPE,83300000.0
5486,731902994.0,Stub,Ignaz Kiechle,Germany,WESTERN EUROPE,83300000.0
5487,732650340.0,Stub,Helmut Schlesinger,Germany,WESTERN EUROPE,83300000.0
5488,732862721.0,Stub,Ellen Ammann,Germany,WESTERN EUROPE,83300000.0
5489,732862851.0,Stub,Adolf Damaschke,Germany,WESTERN EUROPE,83300000.0
5490,732862897.0,Stub,Ernst Höfner,Germany,WESTERN EUROPE,83300000.0
5491,732862932.0,Stub,Franz Bracht,Germany,WESTERN EUROPE,83300000.0
5492,732863087.0,Start,Willy Rumpf,Germany,WESTERN EUROPE,83300000.0
5493,732863293.0,Stub,Christof Leng,Germany,WESTERN EUROPE,83300000.0
5494,732863323.0,Start,Manfred Ostermann,Germany,WESTERN EUROPE,83300000.0
5495,733262800.0,Stub,Walter Köhler,Germany,WESTERN EUROPE,83300000.0
5496,733839498.0,Start,Jacob Sturm von Sturmeck,Germany,WESTERN EUROPE,83300000.0
5497,734138330.0,Stub,Rupert Scholz,Germany,WESTERN EUROPE,83300000.0
5498,734485661.0,Stub,Hermann Wittich,Germany,WESTERN EUROPE,83300000.0
5499,735099306.0,Stub,Thomas Goppel,Germany,WESTERN EUROPE,83300000.0
5500,736473764.0,Stub,Otto Bohl,Germany,WESTERN EUROPE,83300000.0
5501,737496438.0,Start,Georg Ledebour,Germany,WESTERN EUROPE,83300000.0
5502,737496663.0,Start,Joachim Siegerist,Germany,WESTERN EUROPE,83300000.0
5503,737655711.0,C,Albrecht von Graefe (politician),Germany,WESTERN EUROPE,83300000.0
5504,738570205.0,Start,Georg von Blumenthal,Germany,WESTERN EUROPE,83300000.0
5505,738767098.0,Stub,Adrian von der Linde,Germany,WESTERN EUROPE,83300000.0
5506,738900867.0,Stub,Johann Christian von Boyneburg,Germany,WESTERN EUROPE,83300000.0
5507,739896189.0,Start,Oliver Wehner,Germany,WESTERN EUROPE,83300000.0
5508,740297450.0,Start,Georg Voigt (politician),Germany,WESTERN EUROPE,83300000.0
5509,740484440.0,Start,Nikolaus Krell,Germany,WESTERN EUROPE,83300000.0
5510,741917180.0,Start,Georg von Siemens,Germany,WESTERN EUROPE,83300000.0
5511,742160158.0,Start,Herwart von Hohenburg,Germany,WESTERN EUROPE,83300000.0
5512,742697315.0,Start,Armin Mohler,Germany,WESTERN EUROPE,83300000.0
5513,743567653.0,Start,Bernhard Schottländer,Germany,WESTERN EUROPE,83300000.0
5514,743819607.0,Stub,Michael Sladek,Germany,WESTERN EUROPE,83300000.0
5515,743820561.0,Stub,Gerhard Thielcke,Germany,WESTERN EUROPE,83300000.0
5516,743821508.0,Stub,Heffa Schücking,Germany,WESTERN EUROPE,83300000.0
5517,744130468.0,Stub,Stefan Herdt,Germany,WESTERN EUROPE,83300000.0
5518,744205127.0,Start,Christian August von Eyben,Germany,WESTERN EUROPE,83300000.0
5519,744269361.0,Stub,Arthur Brill,Germany,WESTERN EUROPE,83300000.0
5520,744456624.0,Stub,Karin Struck,Germany,WESTERN EUROPE,83300000.0
5521,744848089.0,Start,Reinhard Klimmt,Germany,WESTERN EUROPE,83300000.0
5522,745371095.0,Start,Karl Friedrich von Savigny,Germany,WESTERN EUROPE,83300000.0
5523,745447409.0,Stub,Alfred Mechtersheimer,Germany,WESTERN EUROPE,83300000.0
5524,745954139.0,C,Hans Lukaschek,Germany,WESTERN EUROPE,83300000.0
5525,746328827.0,Start,Peter Schott,Germany,WESTERN EUROPE,83300000.0
5526,746380058.0,Stub,Carl Heinrich Wilhelm Hagen,Germany,WESTERN EUROPE,83300000.0
5527,746749087.0,Stub,August von Trott zu Solz,Germany,WESTERN EUROPE,83300000.0
5528,746928164.0,Stub,Wolfgang Heribert von Dalberg,Germany,WESTERN EUROPE,83300000.0
5529,747122691.0,Stub,Bernd Reichelt,Germany,WESTERN EUROPE,83300000.0
5530,748070319.0,Stub,Heinrich Blume,Germany,WESTERN EUROPE,83300000.0
5531,748296108.0,Start,Walter Linse,Germany,WESTERN EUROPE,83300000.0
5532,748394461.0,Stub,Wilhelm Beyer,Germany,WESTERN EUROPE,83300000.0
5533,748746591.0,Start,Otto Hirsch,Germany,WESTERN EUROPE,83300000.0
5534,748783858.0,Stub,Walter Wolf (politician),Germany,WESTERN EUROPE,83300000.0
5535,748842798.0,Stub,Andreas Settele,Germany,WESTERN EUROPE,83300000.0
5536,749401812.0,Stub,Peter Lorenz,Germany,WESTERN EUROPE,83300000.0
5537,749435568.0,C,Curt Joël,Germany,WESTERN EUROPE,83300000.0
5538,749576930.0,Stub,Franz Spina,Germany,WESTERN EUROPE,83300000.0
5539,749773420.0,Stub,Adolphe Low,Germany,WESTERN EUROPE,83300000.0
5540,749776480.0,C,"Adam, Count of Schwarzenberg",Germany,WESTERN EUROPE,83300000.0
5541,749777527.0,Start,Henry Ernest of Stolberg-Wernigerode,Germany,WESTERN EUROPE,83